[20448.972220] i2c_hid_acpi i2c-FTSC1000:00: input: 3e 00 01 01 00 9d 01 9d 01 eb 02 eb 02 30 00 30 00 00 0f ff 0f ff 0f ff 0f ff 0f 30 00 30 00 00 0f ff 0f ff 0f ff 0f ff 0f 30 00 30 00 00 0f ff 0f ff 0f ff 0f ff 0f 30 00 30 00 d8 0e 01
[20448.981162] i2c_hid_acpi i2c-FTSC1000:00: input: 3e 00 01 01 00 9d 01 9d 01 eb 02 eb 02 30 00 30 00 00 0f ff 0f ff 0f ff 0f ff 0f 30 00 30 00 00 0f ff 0f ff 0f ff 0f ff 0f 30 00 30 00 00 0f ff 0f ff 0f ff 0f ff 0f 30 00 30 00 3c 0f 01
[20448.990564] i2c_hid_acpi i2c-FTSC1000:00: input: 3e 00 01 01 00 9d 01 9d 01 eb 02 eb 02 30 00 30 00 00 0f ff 0f ff 0f ff 0f ff 0f 30 00 30 00 00 0f ff 0f ff 0f ff 0f ff 0f 30 00 30 00 00 0f ff 0f ff 0f ff 0f ff 0f 30 00 30 00 a0 0f 01
[20448.999839] i2c_hid_acpi i2c-FTSC1000:00: input: 3e 00 01 01 00 9d 01 9d 01 eb 02 eb 02 30 00 30 00 00 0f ff 0f ff 0f ff 0f ff 0f 30 00 30 00 00 0f ff 0f ff 0f ff 0f ff 0f 30 00 30 00 00 0f ff 0f ff 0f ff 0f ff 0f 30 00 30 00 04 10 01
[20449.009172] i2c_hid_acpi i2c-FTSC1000:00: input: 3e 00 01 01 00 9d 01 9d 01 eb 02 eb 02 30 00 30 00 00 0f ff 0f ff 0f ff 0f ff 0f 30 00 30 00 00 0f ff 0f ff 0f ff 0f ff 0f 30 00 30 00 00 0f ff 0f ff 0f ff 0f ff 0f 30 00 30 00 68 10 01
[20449.018481] i2c_hid_acpi i2c-FTSC1000:00: input: 3e 00 01 01 00 9d 01 9d 01 eb 02 eb 02 30 00 30 00 00 0f ff 0f ff 0f ff 0f ff 0f 30 00 30 00 00 0f ff 0f ff 0f ff 0f ff 0f 30 00 30 00 00 0f ff 0f ff 0f ff 0f ff 0f 30 00 30 00 cc 10 01
[20449.027810] i2c_hid_acpi i2c-FTSC1000:00: input: 3e 00 01 01 00 9d 01 9d 01 eb 02 eb 02 30 00 30 00 00 0f ff 0f ff 0f ff 0f ff 0f 30 00 30 00 00 0f ff 0f ff 0f ff 0f ff 0f 30 00 30 00 00 0f ff 0f ff 0f ff 0f ff 0f 30 00 30 00 30 11 01
[20449.037287] i2c_hid_acpi i2c-FTSC1000:00: input: 3e 00 01 01 00 9d 01 9d 01 eb 02 eb 02 30 00 30 00 00 0f ff 0f ff 0f ff 0f ff 0f 30 00 30 00 00 0f ff 0f ff 0f ff 0f ff 0f 30 00 30 00 00 0f ff 0f ff 0f ff 0f ff 0f 30 00 30 00 94 11 01
[20449.046554] i2c_hid_acpi i2c-FTSC1000:00: input: 3e 00 01 01 00 9d 01 9d 01 eb 02 eb 02 30 00 30 00 00 0f ff 0f ff 0f ff 0f ff 0f 30 00 30 00 00 0f ff 0f ff 0f ff 0f ff 0f 30 00 30 00 00 0f ff 0f ff 0f ff 0f ff 0f 30 00 30 00 f8 11 01
[20449.056231] i2c_hid_acpi i2c-FTSC1000:00: input: 3e 00 01 01 00 9d 01 9d 01 eb 02 eb 02 30 00 30 00 00 0f ff 0f ff 0f ff 0f ff 0f 30 00 30 00 00 0f ff 0f ff 0f ff 0f ff 0f 30 00 30 00 00 0f ff 0f ff 0f ff 0f ff 0f 30 00 30 00 5c 12 01
[20449.065180] i2c_hid_acpi i2c-FTSC1000:00: input: 3e 00 01 01 00 9d 01 9d 01 eb 02 eb 02 30 00 30 00 00 0f ff 0f ff 0f ff 0f ff 0f 30 00 30 00 00 0f ff 0f ff 0f ff 0f ff 0f 30 00 30 00 00 0f ff 0f ff 0f ff 0f ff 0f 30 00 30 00 c0 12 01
[20449.074314] i2c_hid_acpi i2c-FTSC1000:00: input: 3e 00 01 01 00 9d 01 9d 01 eb 02 eb 02 30 00 30 00 00 0f ff 0f ff 0f ff 0f ff 0f 30 00 30 00 00 0f ff 0f ff 0f ff 0f ff 0f 30 00 30 00 00 0f ff 0f ff 0f ff 0f ff 0f 30 00 30 00 24 13 01
[20449.083527] i2c_hid_acpi i2c-FTSC1000:00: input: 3e 00 01 00 00 9d 01 9d 01 eb 02 eb 02 30 00 30 00 00 0f ff 0f ff 0f ff 0f ff 0f 30 00 30 00 00 0f ff 0f ff 0f ff 0f ff 0f 30 00 30 00 00 0f ff 0f ff 0f ff 0f ff 0f 30 00 30 00 88 13 01
[20449.644097] i2c_hid_acpi i2c-FTSC1000:00: input: 3e 00 01 01 00 98 01 98 01 eb 02 eb 02 30 00 30 00 00 0f ff 0f ff 0f ff 0f ff 0f 30 00 30 00 00 0f ff 0f ff 0f ff 0f ff 0f 30 00 30 00 00 0f ff 0f ff 0f ff 0f ff 0f 30 00 30 00 00 00 01
[20449.653040] i2c_hid_acpi i2c-FTSC1000:00: input: 3e 00 01 01 00 98 01 98 01 eb 02 eb 02 30 00 30 00 00 0f ff 0f ff 0f ff 0f ff 0f 30 00 30 00 00 0f ff 0f ff 0f ff 0f ff 0f 30 00 30 00 00 0f ff 0f ff 0f ff 0f ff 0f 30 00 30 00 64 00 01
[20449.662365] i2c_hid_acpi i2c-FTSC1000:00: input: 3e 00 01 01 00 98 01 98 01 eb 02 eb 02 30 00 30 00 00 0f ff 0f ff 0f ff 0f ff 0f 30 00 30 00 00 0f ff 0f ff 0f ff 0f ff 0f 30 00 30 00 00 0f ff 0f ff 0f ff 0f ff 0f 30 00 30 00 c8 00 01
[20449.671843] i2c_hid_acpi i2c-FTSC1000:00: input: 3e 00 01 01 00 98 01 98 01 eb 02 eb 02 30 00 30 00 00 0f ff 0f ff 0f ff 0f ff 0f 30 00 30 00 00 0f ff 0f ff 0f ff 0f ff 0f 30 00 30 00 00 0f ff 0f ff 0f ff 0f ff 0f 30 00 30 00 2c 01 01
[20449.681053] i2c_hid_acpi i2c-FTSC1000:00: input: 3e 00 01 01 00 98 01 98 01 eb 02 eb 02 30 00 30 00 00 0f ff 0f ff 0f ff 0f ff 0f 30 00 30 00 00 0f ff 0f ff 0f ff 0f ff 0f 30 00 30 00 00 0f ff 0f ff 0f ff 0f ff 0f 30 00 30 00 90 01 01
[20449.690392] i2c_hid_acpi i2c-FTSC1000:00: input: 3e 00 01 01 00 98 01 98 01 eb 02 eb 02 30 00 30 00 00 0f ff 0f ff 0f ff 0f ff 0f 30 00 30 00 00 0f ff 0f ff 0f ff 0f ff 0f 30 00 30 00 00 0f ff 0f ff 0f ff 0f ff 0f 30 00 30 00 f4 01 01
[20449.700034] i2c_hid_acpi i2c-FTSC1000:00: input: 3e 00 01 01 00 98 01 98 01 eb 02 eb 02 30 00 30 00 00 0f ff 0f ff 0f ff 0f ff 0f 30 00 30 00 00 0f ff 0f ff 0f ff 0f ff 0f 30 00 30 00 00 0f ff 0f ff 0f ff 0f ff 0f 30 00 30 00 58 02 01
[20449.709386] i2c_hid_acpi i2c-FTSC1000:00: input: 3e 00 01 01 00 98 01 98 01 eb 02 eb 02 30 00 30 00 00 0f ff 0f ff 0f ff 0f ff 0f 30 00 30 00 00 0f ff 0f ff 0f ff 0f ff 0f 30 00 30 00 00 0f ff 0f ff 0f ff 0f ff 0f 30 00 30 00 bc 02 01
[20449.718447] i2c_hid_acpi i2c-FTSC1000:00: input: 3e 00 01 01 00 98 01 98 01 eb 02 eb 02 30 00 30 00 00 0f ff 0f ff 0f ff 0f ff 0f 30 00 30 00 00 0f ff 0f ff 0f ff 0f ff 0f 30 00 30 00 00 0f ff 0f ff 0f ff 0f ff 0f 30 00 30 00 20 03 01
[20449.727729] i2c_hid_acpi i2c-FTSC1000:00: input: 3e 00 01 01 00 98 01 98 01 eb 02 eb 02 30 00 30 00 00 0f ff 0f ff 0f ff 0f ff 0f 30 00 30 00 00 0f ff 0f ff 0f ff 0f ff 0f 30 00 30 00 00 0f ff 0f ff 0f ff 0f ff 0f 30 00 30 00 84 03 01
[20449.737190] i2c_hid_acpi i2c-FTSC1000:00: input: 3e 00 01 01 00 98 01 98 01 eb 02 eb 02 30 00 30 00 00 0f ff 0f ff 0f ff 0f ff 0f 30 00 30 00 00 0f ff 0f ff 0f ff 0f ff 0f 30 00 30 00 00 0f ff 0f ff 0f ff 0f ff 0f 30 00 30 00 e8 03 01
[20449.746435] i2c_hid_acpi i2c-FTSC1000:00: input: 3e 00 01 01 00 98 01 98 01 eb 02 eb 02 30 00 30 00 00 0f ff 0f ff 0f ff 0f ff 0f 30 00 30 00 00 0f ff 0f ff 0f ff 0f ff 0f 30 00 30 00 00 0f ff 0f ff 0f ff 0f ff 0f 30 00 30 00 4c 04 01
[20449.755929] i2c_hid_acpi i2c-FTSC1000:00: input: 3e 00 01 01 00 98 01 98 01 eb 02 eb 02 30 00 30 00 00 0f ff 0f ff 0f ff 0f ff 0f 30 00 30 00 00 0f ff 0f ff 0f ff 0f ff 0f 30 00 30 00 00 0f ff 0f ff 0f ff 0f ff 0f 30 00 30 00 b0 04 01
[20449.765292] i2c_hid_acpi i2c-FTSC1000:00: input: 3e 00 01 01 00 98 01 98 01 eb 02 eb 02 30 00 30 00 00 0f ff 0f ff 0f ff 0f ff 0f 30 00 30 00 00 0f ff 0f ff 0f ff 0f ff 0f 30 00 30 00 00 0f ff 0f ff 0f ff 0f ff 0f 30 00 30 00 14 05 01
[20449.774937] i2c_hid_acpi i2c-FTSC1000:00: input: 3e 00 01 01 00 98 01 98 01 eb 02 eb 02 30 00 30 00 00 0f ff 0f ff 0f ff 0f ff 0f 30 00 30 00 00 0f ff 0f ff 0f ff 0f ff 0f 30 00 30 00 00 0f ff 0f ff 0f ff 0f ff 0f 30 00 30 00 78 05 01
[20449.783815] i2c_hid_acpi i2c-FTSC1000:00: input: 3e 00 01 01 00 98 01 98 01 eb 02 eb 02 30 00 30 00 00 0f ff 0f ff 0f ff 0f ff 0f 30 00 30 00 00 0f ff 0f ff 0f ff 0f ff 0f 30 00 30 00 00 0f ff 0f ff 0f ff 0f ff 0f 30 00 30 00 dc 05 01
[20449.793144] i2c_hid_acpi i2c-FTSC1000:00: input: 3e 00 01 01 00 98 01 98 01 eb 02 eb 02 30 00 30 00 00 0f ff 0f ff 0f ff 0f ff 0f 30 00 30 00 00 0f ff 0f ff 0f ff 0f ff 0f 30 00 30 00 00 0f ff 0f ff 0f ff 0f ff 0f 30 00 30 00 40 06 01
[20449.803046] i2c_hid_acpi i2c-FTSC1000:00: input: 3e 00 01 01 00 98 01 98 01 eb 02 eb 02 30 00 30 00 00 0f ff 0f ff 0f ff 0f ff 0f 30 00 30 00 00 0f ff 0f ff 0f ff 0f ff 0f 30 00 30 00 00 0f ff 0f ff 0f ff 0f ff 0f 30 00 30 00 a4 06 01
[20449.811825] i2c_hid_acpi i2c-FTSC1000:00: input: 3e 00 01 01 00 98 01 98 01 eb 02 eb 02 30 00 30 00 00 0f ff 0f ff 0f ff 0f ff 0f 30 00 30 00 00 0f ff 0f ff 0f ff 0f ff 0f 30 00 30 00 00 0f ff 0f ff 0f ff 0f ff 0f 30 00 30 00 08 07 01
[20449.821228] i2c_hid_acpi i2c-FTSC1000:00: input: 3e 00 01 01 00 98 01 98 01 eb 02 eb 02 30 00 30 00 00 0f ff 0f ff 0f ff 0f ff 0f 30 00 30 00 00 0f ff 0f ff 0f ff 0f ff 0f 30 00 30 00 00 0f ff 0f ff 0f ff 0f ff 0f 30 00 30 00 6c 07 01
[20449.830479] i2c_hid_acpi i2c-FTSC1000:00: input: 3e 00 01 01 00 98 01 98 01 eb 02 eb 02 30 00 30 00 00 0f ff 0f ff 0f ff 0f ff 0f 30 00 30 00 00 0f ff 0f ff 0f ff 0f ff 0f 30 00 30 00 00 0f ff 0f ff 0f ff 0f ff 0f 30 00 30 00 d0 07 01
[20449.840102] i2c_hid_acpi i2c-FTSC1000:00: input: 3e 00 01 01 00 98 01 98 01 eb 02 eb 02 30 00 30 00 00 0f ff 0f ff 0f ff 0f ff 0f 30 00 30 00 00 0f ff 0f ff 0f ff 0f ff 0f 30 00 30 00 00 0f ff 0f ff 0f ff 0f ff 0f 30 00 30 00 34 08 01
[20449.849179] i2c_hid_acpi i2c-FTSC1000:00: input: 3e 00 01 01 00 98 01 98 01 eb 02 eb 02 30 00 30 00 00 0f ff 0f ff 0f ff 0f ff 0f 30 00 30 00 00 0f ff 0f ff 0f ff 0f ff 0f 30 00 30 00 00 0f ff 0f ff 0f ff 0f ff 0f 30 00 30 00 98 08 01
[20449.858489] i2c_hid_acpi i2c-FTSC1000:00: input: 3e 00 01 01 00 98 01 98 01 eb 02 eb 02 30 00 30 00 00 0f ff 0f ff 0f ff 0f ff 0f 30 00 30 00 00 0f ff 0f ff 0f ff 0f ff 0f 30 00 30 00 00 0f ff 0f ff 0f ff 0f ff 0f 30 00 30 00 fc 08 01
[20449.867770] i2c_hid_acpi i2c-FTSC1000:00: input: 3e 00 01 01 00 98 01 98 01 eb 02 eb 02 30 00 30 00 00 0f ff 0f ff 0f ff 0f ff 0f 30 00 30 00 00 0f ff 0f ff 0f ff 0f ff 0f 30 00 30 00 00 0f ff 0f ff 0f ff 0f ff 0f 30 00 30 00 60 09 01
[20449.877142] i2c_hid_acpi i2c-FTSC1000:00: input: 3e 00 01 01 00 98 01 98 01 eb 02 eb 02 30 00 30 00 00 0f ff 0f ff 0f ff 0f ff 0f 30 00 30 00 00 0f ff 0f ff 0f ff 0f ff 0f 30 00 30 00 00 0f ff 0f ff 0f ff 0f ff 0f 30 00 30 00 c4 09 01
[20449.886508] i2c_hid_acpi i2c-FTSC1000:00: input: 3e 00 01 01 00 98 01 98 01 eb 02 eb 02 30 00 30 00 00 0f ff 0f ff 0f ff 0f ff 0f 30 00 30 00 00 0f ff 0f ff 0f ff 0f ff 0f 30 00 30 00 00 0f ff 0f ff 0f ff 0f ff 0f 30 00 30 00 28 0a 01
[20449.895952] i2c_hid_acpi i2c-FTSC1000:00: input: 3e 00 01 01 00 98 01 98 01 eb 02 eb 02 30 00 30 00 00 0f ff 0f ff 0f ff 0f ff 0f 30 00 30 00 00 0f ff 0f ff 0f ff 0f ff 0f 30 00 30 00 00 0f ff 0f ff 0f ff 0f ff 0f 30 00 30 00 8c 0a 01
[20449.905174] i2c_hid_acpi i2c-FTSC1000:00: input: 3e 00 01 01 00 98 01 98 01 eb 02 eb 02 30 00 30 00 00 0f ff 0f ff 0f ff 0f ff 0f 30 00 30 00 00 0f ff 0f ff 0f ff 0f ff 0f 30 00 30 00 00 0f ff 0f ff 0f ff 0f ff 0f 30 00 30 00 f0 0a 01
[20449.914490] i2c_hid_acpi i2c-FTSC1000:00: input: 3e 00 01 01 00 98 01 98 01 eb 02 eb 02 30 00 30 00 00 0f ff 0f ff 0f ff 0f ff 0f 30 00 30 00 00 0f ff 0f ff 0f ff 0f ff 0f 30 00 30 00 00 0f ff 0f ff 0f ff 0f ff 0f 30 00 30 00 54 0b 01
[20449.923825] i2c_hid_acpi i2c-FTSC1000:00: input: 3e 00 01 01 00 98 01 98 01 eb 02 eb 02 30 00 30 00 00 0f ff 0f ff 0f ff 0f ff 0f 30 00 30 00 00 0f ff 0f ff 0f ff 0f ff 0f 30 00 30 00 00 0f ff 0f ff 0f ff 0f ff 0f 30 00 30 00 b8 0b 01
[20449.933169] i2c_hid_acpi i2c-FTSC1000:00: input: 3e 00 01 01 00 98 01 98 01 eb 02 eb 02 30 00 30 00 00 0f ff 0f ff 0f ff 0f ff 0f 30 00 30 00 00 0f ff 0f ff 0f ff 0f ff 0f 30 00 30 00 00 0f ff 0f ff 0f ff 0f ff 0f 30 00 30 00 1c 0c 01
[20449.942803] i2c_hid_acpi i2c-FTSC1000:00: input: 3e 00 01 01 00 98 01 98 01 eb 02 eb 02 30 00 30 00 00 0f ff 0f ff 0f ff 0f ff 0f 30 00 30 00 00 0f ff 0f ff 0f ff 0f ff 0f 30 00 30 00 00 0f ff 0f ff 0f ff 0f ff 0f 30 00 30 00 80 0c 01
[20449.951844] i2c_hid_acpi i2c-FTSC1000:00: input: 3e 00 01 01 00 98 01 98 01 eb 02 eb 02 30 00 30 00 00 0f ff 0f ff 0f ff 0f ff 0f 30 00 30 00 00 0f ff 0f ff 0f ff 0f ff 0f 30 00 30 00 00 0f ff 0f ff 0f ff 0f ff 0f 30 00 30 00 e4 0c 01
[20449.961492] i2c_hid_acpi i2c-FTSC1000:00: input: 3e 00 01 01 00 98 01 98 01 eb 02 eb 02 30 00 30 00 00 0f ff 0f ff 0f ff 0f ff 0f 30 00 30 00 00 0f ff 0f ff 0f ff 0f ff 0f 30 00 30 00 00 0f ff 0f ff 0f ff 0f ff 0f 30 00 30 00 48 0d 01
[20449.970565] i2c_hid_acpi i2c-FTSC1000:00: input: 3e 00 01 01 00 98 01 98 01 eb 02 eb 02 30 00 30 00 00 0f ff 0f ff 0f ff 0f ff 0f 30 00 30 00 00 0f ff 0f ff 0f ff 0f ff 0f 30 00 30 00 00 0f ff 0f ff 0f ff 0f ff 0f 30 00 30 00 ac 0d 01
[20449.979831] i2c_hid_acpi i2c-FTSC1000:00: input: 3e 00 01 01 00 98 01 98 01 eb 02 eb 02 30 00 30 00 00 0f ff 0f ff 0f ff 0f ff 0f 30 00 30 00 00 0f ff 0f ff 0f ff 0f ff 0f 30 00 30 00 00 0f ff 0f ff 0f ff 0f ff 0f 30 00 30 00 10 0e 01
[20449.989188] i2c_hid_acpi i2c-FTSC1000:00: input: 3e 00 01 01 00 98 01 98 01 eb 02 eb 02 30 00 30 00 00 0f ff 0f ff 0f ff 0f ff 0f 30 00 30 00 00 0f ff 0f ff 0f ff 0f ff 0f 30 00 30 00 00 0f ff 0f ff 0f ff 0f ff 0f 30 00 30 00 74 0e 01
[20449.998614] i2c_hid_acpi i2c-FTSC1000:00: input: 3e 00 01 01 00 98 01 98 01 eb 02 eb 02 30 00 30 00 00 0f ff 0f ff 0f ff 0f ff 0f 30 00 30 00 00 0f ff 0f ff 0f ff 0f ff 0f 30 00 30 00 00 0f ff 0f ff 0f ff 0f ff 0f 30 00 30 00 d8 0e 01
[20450.007862] i2c_hid_acpi i2c-FTSC1000:00: input: 3e 00 01 01 00 98 01 98 01 eb 02 eb 02 30 00 30 00 00 0f ff 0f ff 0f ff 0f ff 0f 30 00 30 00 00 0f ff 0f ff 0f ff 0f ff 0f 30 00 30 00 00 0f ff 0f ff 0f ff 0f ff 0f 30 00 30 00 3c 0f 01
[20450.017438] i2c_hid_acpi i2c-FTSC1000:00: input: 3e 00 01 01 00 98 01 98 01 eb 02 eb 02 30 00 30 00 00 0f ff 0f ff 0f ff 0f ff 0f 30 00 30 00 00 0f ff 0f ff 0f ff 0f ff 0f 30 00 30 00 00 0f ff 0f ff 0f ff 0f ff 0f 30 00 30 00 a0 0f 01
[20450.026586] i2c_hid_acpi i2c-FTSC1000:00: input: 3e 00 01 01 00 98 01 98 01 eb 02 eb 02 30 00 30 00 00 0f ff 0f ff 0f ff 0f ff 0f 30 00 30 00 00 0f ff 0f ff 0f ff 0f ff 0f 30 00 30 00 00 0f ff 0f ff 0f ff 0f ff 0f 30 00 30 00 04 10 01
[20450.035820] i2c_hid_acpi i2c-FTSC1000:00: input: 3e 00 01 01 00 98 01 98 01 eb 02 eb 02 30 00 30 00 00 0f ff 0f ff 0f ff 0f ff 0f 30 00 30 00 00 0f ff 0f ff 0f ff 0f ff 0f 30 00 30 00 00 0f ff 0f ff 0f ff 0f ff 0f 30 00 30 00 68 10 01
[20450.045168] i2c_hid_acpi i2c-FTSC1000:00: input: 3e 00 01 01 00 98 01 98 01 eb 02 eb 02 30 00 30 00 00 0f ff 0f ff 0f ff 0f ff 0f 30 00 30 00 00 0f ff 0f ff 0f ff 0f ff 0f 30 00 30 00 00 0f ff 0f ff 0f ff 0f ff 0f 30 00 30 00 cc 10 01
[20450.054665] i2c_hid_acpi i2c-FTSC1000:00: input: 3e 00 01 01 00 98 01 98 01 eb 02 eb 02 30 00 30 00 00 0f ff 0f ff 0f ff 0f ff 0f 30 00 30 00 00 0f ff 0f ff 0f ff 0f ff 0f 30 00 30 00 00 0f ff 0f ff 0f ff 0f ff 0f 30 00 30 00 30 11 01
[20450.063840] i2c_hid_acpi i2c-FTSC1000:00: input: 3e 00 01 01 00 98 01 98 01 eb 02 eb 02 30 00 30 00 00 0f ff 0f ff 0f ff 0f ff 0f 30 00 30 00 00 0f ff 0f ff 0f ff 0f ff 0f 30 00 30 00 00 0f ff 0f ff 0f ff 0f ff 0f 30 00 30 00 94 11 01
[20450.073164] i2c_hid_acpi i2c-FTSC1000:00: input: 3e 00 01 01 00 98 01 98 01 eb 02 eb 02 30 00 30 00 00 0f ff 0f ff 0f ff 0f ff 0f 30 00 30 00 00 0f ff 0f ff 0f ff 0f ff 0f 30 00 30 00 00 0f ff 0f ff 0f ff 0f ff 0f 30 00 30 00 f8 11 01
[20450.082530] i2c_hid_acpi i2c-FTSC1000:00: input: 3e 00 01 01 00 98 01 98 01 eb 02 eb 02 30 00 30 00 00 0f ff 0f ff 0f ff 0f ff 0f 30 00 30 00 00 0f ff 0f ff 0f ff 0f ff 0f 30 00 30 00 00 0f ff 0f ff 0f ff 0f ff 0f 30 00 30 00 5c 12 01
[20450.092247] i2c_hid_acpi i2c-FTSC1000:00: input: 3e 00 01 01 00 98 01 98 01 eb 02 eb 02 30 00 30 00 00 0f ff 0f ff 0f ff 0f ff 0f 30 00 30 00 00 0f ff 0f ff 0f ff 0f ff 0f 30 00 30 00 00 0f ff 0f ff 0f ff 0f ff 0f 30 00 30 00 c0 12 01
[20450.101250] i2c_hid_acpi i2c-FTSC1000:00: input: 3e 00 01 01 00 98 01 98 01 eb 02 eb 02 30 00 30 00 00 0f ff 0f ff 0f ff 0f ff 0f 30 00 30 00 00 0f ff 0f ff 0f ff 0f ff 0f 30 00 30 00 00 0f ff 0f ff 0f ff 0f ff 0f 30 00 30 00 24 13 01
[20450.111216] i2c_hid_acpi i2c-FTSC1000:00: input: 3e 00 01 01 00 98 01 98 01 eb 02 eb 02 30 00 30 00 00 0f ff 0f ff 0f ff 0f ff 0f 30 00 30 00 00 0f ff 0f ff 0f ff 0f ff 0f 30 00 30 00 00 0f ff 0f ff 0f ff 0f ff 0f 30 00 30 00 88 13 01
[20450.119950] i2c_hid_acpi i2c-FTSC1000:00: input: 3e 00 01 01 00 98 01 98 01 eb 02 eb 02 30 00 30 00 00 0f ff 0f ff 0f ff 0f ff 0f 30 00 30 00 00 0f ff 0f ff 0f ff 0f ff 0f 30 00 30 00 00 0f ff 0f ff 0f ff 0f ff 0f 30 00 30 00 ec 13 01
[20450.129499] i2c_hid_acpi i2c-FTSC1000:00: input: 3e 00 01 01 00 98 01 98 01 eb 02 eb 02 30 00 30 00 00 0f ff 0f ff 0f ff 0f ff 0f 30 00 30 00 00 0f ff 0f ff 0f ff 0f ff 0f 30 00 30 00 00 0f ff 0f ff 0f ff 0f ff 0f 30 00 30 00 50 14 01
[20450.139025] i2c_hid_acpi i2c-FTSC1000:00: input: 3e 00 01 01 00 98 01 98 01 eb 02 eb 02 30 00 30 00 00 0f ff 0f ff 0f ff 0f ff 0f 30 00 30 00 00 0f ff 0f ff 0f ff 0f ff 0f 30 00 30 00 00 0f ff 0f ff 0f ff 0f ff 0f 30 00 30 00 b4 14 01
[20450.148075] i2c_hid_acpi i2c-FTSC1000:00: input: 3e 00 01 01 00 98 01 98 01 eb 02 eb 02 30 00 30 00 00 0f ff 0f ff 0f ff 0f ff 0f 30 00 30 00 00 0f ff 0f ff 0f ff 0f ff 0f 30 00 30 00 00 0f ff 0f ff 0f ff 0f ff 0f 30 00 30 00 18 15 01
[20450.157299] i2c_hid_acpi i2c-FTSC1000:00: input: 3e 00 01 01 00 98 01 98 01 eb 02 eb 02 30 00 30 00 00 0f ff 0f ff 0f ff 0f ff 0f 30 00 30 00 00 0f ff 0f ff 0f ff 0f ff 0f 30 00 30 00 00 0f ff 0f ff 0f ff 0f ff 0f 30 00 30 00 7c 15 01
[20450.166754] i2c_hid_acpi i2c-FTSC1000:00: input: 3e 00 01 01 00 98 01 98 01 eb 02 eb 02 30 00 30 00 00 0f ff 0f ff 0f ff 0f ff 0f 30 00 30 00 00 0f ff 0f ff 0f ff 0f ff 0f 30 00 30 00 00 0f ff 0f ff 0f ff 0f ff 0f 30 00 30 00 e0 15 01
[20450.175996] i2c_hid_acpi i2c-FTSC1000:00: input: 3e 00 01 01 00 98 01 98 01 eb 02 eb 02 30 00 30 00 00 0f ff 0f ff 0f ff 0f ff 0f 30 00 30 00 00 0f ff 0f ff 0f ff 0f ff 0f 30 00 30 00 00 0f ff 0f ff 0f ff 0f ff 0f 30 00 30 00 44 16 01
[20450.185389] i2c_hid_acpi i2c-FTSC1000:00: input: 3e 00 01 01 00 98 01 98 01 eb 02 eb 02 30 00 30 00 00 0f ff 0f ff 0f ff 0f ff 0f 30 00 30 00 00 0f ff 0f ff 0f ff 0f ff 0f 30 00 30 00 00 0f ff 0f ff 0f ff 0f ff 0f 30 00 30 00 a8 16 01
[20450.195055] i2c_hid_acpi i2c-FTSC1000:00: input: 3e 00 01 01 00 98 01 98 01 eb 02 eb 02 30 00 30 00 00 0f ff 0f ff 0f ff 0f ff 0f 30 00 30 00 00 0f ff 0f ff 0f ff 0f ff 0f 30 00 30 00 00 0f ff 0f ff 0f ff 0f ff 0f 30 00 30 00 0c 17 01
[20450.204034] i2c_hid_acpi i2c-FTSC1000:00: input: 3e 00 01 01 00 98 01 98 01 eb 02 eb 02 30 00 30 00 00 0f ff 0f ff 0f ff 0f ff 0f 30 00 30 00 00 0f ff 0f ff 0f ff 0f ff 0f 30 00 30 00 00 0f ff 0f ff 0f ff 0f ff 0f 30 00 30 00 70 17 01
[20450.213406] i2c_hid_acpi i2c-FTSC1000:00: input: 3e 00 01 01 00 98 01 98 01 eb 02 eb 02 30 00 30 00 00 0f ff 0f ff 0f ff 0f ff 0f 30 00 30 00 00 0f ff 0f ff 0f ff 0f ff 0f 30 00 30 00 00 0f ff 0f ff 0f ff 0f ff 0f 30 00 30 00 d4 17 01
[20450.223662] i2c_hid_acpi i2c-FTSC1000:00: input: 3e 00 01 01 00 98 01 98 01 eb 02 eb 02 30 00 30 00 00 0f ff 0f ff 0f ff 0f ff 0f 30 00 30 00 00 0f ff 0f ff 0f ff 0f ff 0f 30 00 30 00 00 0f ff 0f ff 0f ff 0f ff 0f 30 00 30 00 38 18 01
[20450.232152] i2c_hid_acpi i2c-FTSC1000:00: input: 3e 00 01 01 00 98 01 98 01 eb 02 eb 02 30 00 30 00 00 0f ff 0f ff 0f ff 0f ff 0f 30 00 30 00 00 0f ff 0f ff 0f ff 0f ff 0f 30 00 30 00 00 0f ff 0f ff 0f ff 0f ff 0f 30 00 30 00 9c 18 01
[20450.241433] i2c_hid_acpi i2c-FTSC1000:00: input: 3e 00 01 01 00 98 01 98 01 eb 02 eb 02 30 00 30 00 00 0f ff 0f ff 0f ff 0f ff 0f 30 00 30 00 00 0f ff 0f ff 0f ff 0f ff 0f 30 00 30 00 00 0f ff 0f ff 0f ff 0f ff 0f 30 00 30 00 00 19 01
[20450.250713] i2c_hid_acpi i2c-FTSC1000:00: input: 3e 00 01 01 00 98 01 98 01 eb 02 eb 02 30 00 30 00 00 0f ff 0f ff 0f ff 0f ff 0f 30 00 30 00 00 0f ff 0f ff 0f ff 0f ff 0f 30 00 30 00 00 0f ff 0f ff 0f ff 0f ff 0f 30 00 30 00 64 19 01
[20450.261704] i2c_hid_acpi i2c-FTSC1000:00: input: 3e 00 01 01 00 98 01 98 01 eb 02 eb 02 30 00 30 00 00 0f ff 0f ff 0f ff 0f ff 0f 30 00 30 00 00 0f ff 0f ff 0f ff 0f ff 0f 30 00 30 00 00 0f ff 0f ff 0f ff 0f ff 0f 30 00 30 00 c8 19 01
[20450.269661] i2c_hid_acpi i2c-FTSC1000:00: input: 3e 00 01 01 00 98 01 98 01 eb 02 eb 02 30 00 30 00 00 0f ff 0f ff 0f ff 0f ff 0f 30 00 30 00 00 0f ff 0f ff 0f ff 0f ff 0f 30 00 30 00 00 0f ff 0f ff 0f ff 0f ff 0f 30 00 30 00 2c 1a 01
[20450.278790] i2c_hid_acpi i2c-FTSC1000:00: input: 3e 00 01 01 00 98 01 98 01 eb 02 eb 02 30 00 30 00 00 0f ff 0f ff 0f ff 0f ff 0f 30 00 30 00 00 0f ff 0f ff 0f ff 0f ff 0f 30 00 30 00 00 0f ff 0f ff 0f ff 0f ff 0f 30 00 30 00 90 1a 01
[20450.288106] i2c_hid_acpi i2c-FTSC1000:00: input: 3e 00 01 01 00 98 01 98 01 eb 02 eb 02 30 00 30 00 00 0f ff 0f ff 0f ff 0f ff 0f 30 00 30 00 00 0f ff 0f ff 0f ff 0f ff 0f 30 00 30 00 00 0f ff 0f ff 0f ff 0f ff 0f 30 00 30 00 f4 1a 01
[20450.297272] i2c_hid_acpi i2c-FTSC1000:00: input: 3e 00 01 01 00 98 01 98 01 eb 02 eb 02 30 00 30 00 00 0f ff 0f ff 0f ff 0f ff 0f 30 00 30 00 00 0f ff 0f ff 0f ff 0f ff 0f 30 00 30 00 00 0f ff 0f ff 0f ff 0f ff 0f 30 00 30 00 58 1b 01
[20450.306310] i2c_hid_acpi i2c-FTSC1000:00: input: 3e 00 01 00 00 98 01 98 01 eb 02 eb 02 30 00 30 00 00 0f ff 0f ff 0f ff 0f ff 0f 30 00 30 00 00 0f ff 0f ff 0f ff 0f ff 0f 30 00 30 00 00 0f ff 0f ff 0f ff 0f ff 0f 30 00 30 00 bc 1b 01
[20453.959369] rtl8723bs mmc0:0001:1 wlan1: rtw_ndev_notifier_call(wlan1) state:10
[20453.966415] rtl8723bs mmc0:0001:1 wlan1: rtw_ndev_notifier_call(wlan1) state:2
[20456.381384] PM: suspend entry (s2idle)
[20457.509748] Filesystems sync: 1.128 seconds
[20457.516710] Freezing user space processes ... (elapsed 0.007 seconds) done.
[20457.524360] OOM killer disabled.
[20457.524366] Freezing remaining freezable tasks ... (elapsed 0.001 seconds) done.
[20457.526305] printk: Suspending console(s) (use no_console_suspend to debug)
[20457.857939] serial 00:02: disabled
[20457.858332] i2c_hid_acpi i2c-FTSC1000:00: i2c_hid_set_power
[20457.858342] i2c_hid_acpi i2c-FTSC1000:00: __i2c_hid_command: cmd=05 00 01 08
[20470.304172] rtl8723bs: acquire FW from file:rtlwifi/rtl8723bs_nic.bin
[20470.479857] i2c_hid_acpi i2c-FTSC1000:00: i2c_hid_set_power
[20470.479892] i2c_hid_acpi i2c-FTSC1000:00: __i2c_hid_command: cmd=05 00 00 08
[20471.892867] OOM killer enabled.
[20471.892874] Restarting tasks ... done.
[20471.946090] PM: suspend exit
[20472.178244] rtl8723bs mmc0:0001:1 wlan1: rtw_ndev_notifier_call(wlan1) state:14
[20472.179935] rtl8723bs mmc0:0001:1 wlan1: rtw_ndev_notifier_call(wlan1) state:1
[20472.201111] rtl8723bs mmc0:0001:1 wlan1: rtw_ndev_notifier_call(wlan1) state:4
[20472.203967] rtl8723bs mmc0:0001:1 wlan1: rtw_ndev_notifier_call(wlan1) state:4
[20472.509190] i2c_hid_acpi i2c-FTSC1000:00: input: 3e 00 01 01 00 8f 02 8f 02 b6 01 b6 01 30 00 30 00 00 0f ff 0f ff 0f ff 0f ff 0f 30 00 30 00 00 3e 00 01 01 00 8f 02 8f 02 b6 01 b6 01 30 00 30 00 00 0f ff 0f ff 0f ff 0f ff 0f 30 00 30
[20472.510883] i2c_hid_acpi i2c-FTSC1000:00: i2c_hid_get_input: incomplete report (66/65295)
[20472.519364] i2c_hid_acpi i2c-FTSC1000:00: input: 3e 00 01 01 00 8f 02 8f 02 b6 01 b6 01 30 00 30 00 00 0f ff 0f ff 0f ff 0f ff 0f 30 00 30 00 00 0f ff 0f ff 0f ff 0f ff 0f 30 00 30 00 00 0f ff 0f ff 0f ff 0f ff 0f 30 00 30 00 2c 01 01
[20472.529332] i2c_hid_acpi i2c-FTSC1000:00: input: 3e 00 01 01 00 92 02 92 02 b4 01 b4 01 30 00 30 00 00 0f ff 0f ff 0f ff 0f ff 0f 30 00 30 00 00 0f ff 0f ff 0f ff 0f ff 0f 30 00 30 00 00 0f ff 0f ff 0f ff 0f ff 0f 30 00 30 00 90 01 01
[20472.538788] i2c_hid_acpi i2c-FTSC1000:00: input: 3e 00 01 01 00 92 02 92 02 b4 01 b4 01 30 00 30 00 00 0f ff 0f ff 0f ff 0f ff 0f 30 00 30 00 00 0f ff 0f ff 0f ff 0f ff 0f 30 00 30 00 00 0f ff 0f ff 0f ff 0f ff 0f 30 00 30 00 f4 01 01
[20472.547469] i2c_hid_acpi i2c-FTSC1000:00: input: 3e 00 01 01 00 93 02 93 02 b2 01 b2 01 30 00 30 00 00 0f ff 0f ff 0f ff 0f ff 0f 30 00 30 00 00 0f ff 0f ff 0f ff 0f ff 0f 30 00 30 00 00 0f ff 0f ff 0f ff 0f ff 0f 30 00 30 00 58 02 01
[20472.556589] i2c_hid_acpi i2c-FTSC1000:00: input: 3e 00 01 01 00 94 02 94 02 b1 01 b1 01 30 00 30 00 00 0f ff 0f ff 0f ff 0f ff 0f 30 00 30 00 00 0f ff 0f ff 0f ff 0f ff 0f 30 00 30 00 00 0f ff 0f ff 0f ff 0f ff 0f 30 00 30 00 bc 02 01
[20472.566188] i2c_hid_acpi i2c-FTSC1000:00: input: 3e 00 01 00 00 94 02 94 02 b1 01 b1 01 30 00 30 00 00 0f ff 0f ff 0f ff 0f ff 0f 30 00 30 00 00 0f ff 0f ff 0f ff 0f ff 0f 30 00 30 00 00 0f ff 0f ff 0f ff 0f ff 0f 30 00 30 00 20 03 01
[20472.592090] Bluetooth: hci0: RTL: examining hci_ver=06 hci_rev=000b lmp_ver=06 lmp_subver=8723
[20472.598632] Bluetooth: hci0: RTL: rom_version status=0 version=1
[20472.598655] Bluetooth: hci0: RTL: loading rtl_bt/rtl8723bs_fw.bin
[20472.598811] Bluetooth: hci0: RTL: loading rtl_bt/rtl8723bs_config-OBDA8723.bin
[20472.622865] Bluetooth: hci0: RTL: cfg_sz 64, total sz 24508
[20473.201261] Bluetooth: hci0: RTL: fw version 0x365d462e
[20475.288570] i2c_hid_acpi i2c-FTSC1000:00: input: 3e 00 01 01 00 8b 03 8b 03 ba 02 ba 02 30 00 30 00 00 0f ff 0f ff 0f ff 0f ff 0f 30 00 30 00 00 0f ff 0f ff 0f ff 0f ff 0f 30 00 30 00 00 0f ff 0f ff 0f ff 0f ff 0f 30 00 30 00 c8 00 01
[20475.297551] i2c_hid_acpi i2c-FTSC1000:00: input: 3e 00 01 01 00 8b 03 8b 03 ba 02 ba 02 30 00 30 00 00 0f ff 0f ff 0f ff 0f ff 0f 30 00 30 00 00 0f ff 0f ff 0f ff 0f ff 0f 30 00 30 00 00 0f ff 0f ff 0f ff 0f ff 0f 30 00 30 00 2c 01 01
[20475.306869] i2c_hid_acpi i2c-FTSC1000:00: input: 3e 00 01 01 00 8b 03 8b 03 ba 02 ba 02 30 00 30 00 00 0f ff 0f ff 0f ff 0f ff 0f 30 00 30 00 00 0f ff 0f ff 0f ff 0f ff 0f 30 00 30 00 00 0f ff 0f ff 0f ff 0f ff 0f 30 00 30 00 90 01 01
[20475.316163] i2c_hid_acpi i2c-FTSC1000:00: input: 3e 00 01 01 00 8b 03 8b 03 ba 02 ba 02 30 00 30 00 00 0f ff 0f ff 0f ff 0f ff 0f 30 00 30 00 00 0f ff 0f ff 0f ff 0f ff 0f 30 00 30 00 00 0f ff 0f ff 0f ff 0f ff 0f 30 00 30 00 f4 01 01
[20475.325305] i2c_hid_acpi i2c-FTSC1000:00: input: 3e 00 01 01 00 8a 03 8a 03 bd 02 bd 02 30 00 30 00 00 0f ff 0f ff 0f ff 0f ff 0f 30 00 30 00 00 0f ff 0f ff 0f ff 0f ff 0f 30 00 30 00 00 0f ff 0f ff 0f ff 0f ff 0f 30 00 30 00 58 02 01
[20475.334298] i2c_hid_acpi i2c-FTSC1000:00: input: 3e 00 01 00 00 8a 03 8a 03 bd 02 bd 02 30 00 30 00 00 0f ff 0f ff 0f ff 0f ff 0f 30 00 30 00 00 0f ff 0f ff 0f ff 0f ff 0f 30 00 30 00 00 0f ff 0f ff 0f ff 0f ff 0f 30 00 30 00 bc 02 01
[20475.945893] IPv6: ADDRCONF(NETDEV_CHANGE): wlx1cbfcea024bc: link becomes ready
[20476.146301] i2c_hid_acpi i2c-FTSC1000:00: input: 3e 00 01 01 00 bd 01 bd 01 7f 02 7f 02 30 00 30 00 00 0f ff 0f ff 0f ff 0f ff 0f 30 00 30 00 00 0f ff 0f ff 0f ff 0f ff 0f 30 00 30 00 00 0f ff 0f ff 0f ff 0f ff 0f 30 00 30 00 00 00 01
[20476.155288] i2c_hid_acpi i2c-FTSC1000:00: input: 3e 00 01 01 00 bd 01 bd 01 7f 02 7f 02 30 00 30 00 00 0f ff 0f ff 0f ff 0f ff 0f 30 00 30 00 00 0f ff 0f ff 0f ff 0f ff 0f 30 00 30 00 00 0f ff 0f ff 0f ff 0f ff 0f 30 00 30 00 64 00 01
[20476.164657] i2c_hid_acpi i2c-FTSC1000:00: input: 3e 00 01 01 00 bd 01 bd 01 7f 02 7f 02 30 00 30 00 00 0f ff 0f ff 0f ff 0f ff 0f 30 00 30 00 00 0f ff 0f ff 0f ff 0f ff 0f 30 00 30 00 00 0f ff 0f ff 0f ff 0f ff 0f 30 00 30 00 c8 00 01
[20476.173995] i2c_hid_acpi i2c-FTSC1000:00: input: 3e 00 01 01 00 bd 01 bd 01 7f 02 7f 02 30 00 30 00 00 0f ff 0f ff 0f ff 0f ff 0f 30 00 30 00 00 0f ff 0f ff 0f ff 0f ff 0f 30 00 30 00 00 0f ff 0f ff 0f ff 0f ff 0f 30 00 30 00 2c 01 01
[20476.183325] i2c_hid_acpi i2c-FTSC1000:00: input: 3e 00 01 01 00 bd 01 bd 01 7f 02 7f 02 30 00 30 00 00 0f ff 0f ff 0f ff 0f ff 0f 30 00 30 00 00 0f ff 0f ff 0f ff 0f ff 0f 30 00 30 00 00 0f ff 0f ff 0f ff 0f ff 0f 30 00 30 00 90 01 01
[20476.192604] i2c_hid_acpi i2c-FTSC1000:00: input: 3e 00 01 01 00 bd 01 bd 01 7f 02 7f 02 30 00 30 00 00 0f ff 0f ff 0f ff 0f ff 0f 30 00 30 00 00 0f ff 0f ff 0f ff 0f ff 0f 30 00 30 00 00 0f ff 0f ff 0f ff 0f ff 0f 30 00 30 00 f4 01 01
[20476.201908] i2c_hid_acpi i2c-FTSC1000:00: input: 3e 00 01 01 00 bd 01 bd 01 7f 02 7f 02 30 00 30 00 00 0f ff 0f ff 0f ff 0f ff 0f 30 00 30 00 00 0f ff 0f ff 0f ff 0f ff 0f 30 00 30 00 00 0f ff 0f ff 0f ff 0f ff 0f 30 00 30 00 58 02 01
[20476.211033] i2c_hid_acpi i2c-FTSC1000:00: input: 3e 00 01 01 00 bd 01 bd 01 7f 02 7f 02 30 00 30 00 00 0f ff 0f ff 0f ff 0f ff 0f 30 00 30 00 00 0f ff 0f ff 0f ff 0f ff 0f 30 00 30 00 00 0f ff 0f ff 0f ff 0f ff 0f 30 00 30 00 bc 02 01
[20476.220741] i2c_hid_acpi i2c-FTSC1000:00: input: 3e 00 01 00 00 bd 01 bd 01 7f 02 7f 02 30 00 30 00 00 0f ff 0f ff 0f ff 0f ff 0f 30 00 30 00 00 0f ff 0f ff 0f ff 0f ff 0f 30 00 30 00 00 0f ff 0f ff 0f ff 0f ff 0f 30 00 30 00 20 03 01
[20476.631265] i2c_hid_acpi i2c-FTSC1000:00: input: 3e 00 01 01 00 74 02 74 02 51 02 51 02 30 00 30 00 00 0f ff 0f ff 0f ff 0f ff 0f 30 00 30 00 00 0f ff 0f ff 0f ff 0f ff 0f 30 00 30 00 00 0f ff 0f ff 0f ff 0f ff 0f 30 00 30 00 00 00 01
[20476.640210] i2c_hid_acpi i2c-FTSC1000:00: input: 3e 00 01 01 00 74 02 74 02 51 02 51 02 30 00 30 00 00 0f ff 0f ff 0f ff 0f ff 0f 30 00 30 00 00 0f ff 0f ff 0f ff 0f ff 0f 30 00 30 00 00 0f ff 0f ff 0f ff 0f ff 0f 30 00 30 00 64 00 01
[20476.649627] i2c_hid_acpi i2c-FTSC1000:00: input: 3e 00 01 01 00 74 02 74 02 51 02 51 02 30 00 30 00 00 0f ff 0f ff 0f ff 0f ff 0f 30 00 30 00 00 0f ff 0f ff 0f ff 0f ff 0f 30 00 30 00 00 0f ff 0f ff 0f ff 0f ff 0f 30 00 30 00 c8 00 01
[20476.658875] i2c_hid_acpi i2c-FTSC1000:00: input: 3e 00 01 01 00 74 02 74 02 51 02 51 02 30 00 30 00 00 0f ff 0f ff 0f ff 0f ff 0f 30 00 30 00 00 0f ff 0f ff 0f ff 0f ff 0f 30 00 30 00 00 0f ff 0f ff 0f ff 0f ff 0f 30 00 30 00 2c 01 01
[20476.668232] i2c_hid_acpi i2c-FTSC1000:00: input: 3e 00 01 01 00 74 02 74 02 51 02 51 02 30 00 30 00 00 0f ff 0f ff 0f ff 0f ff 0f 30 00 30 00 00 0f ff 0f ff 0f ff 0f ff 0f 30 00 30 00 00 0f ff 0f ff 0f ff 0f ff 0f 30 00 30 00 90 01 01
[20476.677823] i2c_hid_acpi i2c-FTSC1000:00: input: 3e 00 01 01 00 74 02 74 02 51 02 51 02 30 00 30 00 00 0f ff 0f ff 0f ff 0f ff 0f 30 00 30 00 00 0f ff 0f ff 0f ff 0f ff 0f 30 00 30 00 00 0f ff 0f ff 0f ff 0f ff 0f 30 00 30 00 f4 01 01
[20476.686899] i2c_hid_acpi i2c-FTSC1000:00: input: 3e 00 01 01 00 74 02 74 02 51 02 51 02 30 00 30 00 00 0f ff 0f ff 0f ff 0f ff 0f 30 00 30 00 00 0f ff 0f ff 0f ff 0f ff 0f 30 00 30 00 00 0f ff 0f ff 0f ff 0f ff 0f 30 00 30 00 58 02 01
[20476.696280] i2c_hid_acpi i2c-FTSC1000:00: input: 3e 00 01 01 00 74 02 74 02 51 02 51 02 30 00 30 00 00 0f ff 0f ff 0f ff 0f ff 0f 30 00 30 00 00 0f ff 0f ff 0f ff 0f ff 0f 30 00 30 00 00 0f ff 0f ff 0f ff 0f ff 0f 30 00 30 00 bc 02 01
[20476.705355] i2c_hid_acpi i2c-FTSC1000:00: input: 3e 00 01 01 00 74 02 74 02 51 02 51 02 30 00 30 00 00 0f ff 0f ff 0f ff 0f ff 0f 30 00 30 00 00 0f ff 0f ff 0f ff 0f ff 0f 30 00 30 00 00 0f ff 0f ff 0f ff 0f ff 0f 30 00 30 00 20 03 01
[20476.714649] i2c_hid_acpi i2c-FTSC1000:00: input: 3e 00 01 00 00 74 02 74 02 51 02 51 02 30 00 30 00 00 0f ff 0f ff 0f ff 0f ff 0f 30 00 30 00 00 0f ff 0f ff 0f ff 0f ff 0f 30 00 30 00 00 0f ff 0f ff 0f ff 0f ff 0f 30 00 30 00 84 03 01
[20477.975913] i2c_hid_acpi i2c-FTSC1000:00: input: 3e 00 01 01 00 bb 03 bb 03 45 02 45 02 30 00 30 00 00 0f ff 0f ff 0f ff 0f ff 0f 30 00 30 00 00 0f ff 0f ff 0f ff 0f ff 0f 30 00 30 00 00 0f ff 0f ff 0f ff 0f ff 0f 30 00 30 00 c8 00 01
[20477.983271] i2c_hid_acpi i2c-FTSC1000:00: input: 3e 00 01 01 00 bb 03 bb 03 45 02 45 02 30 00 30 00 00 0f ff 0f ff 0f ff 0f ff 0f 30 00 30 00 00 0f ff 0f ff 0f ff 0f ff 0f 30 00 30 00 00 0f ff 0f ff 0f ff 0f ff 0f 30 00 30 00 2c 01 01
[20477.992359] i2c_hid_acpi i2c-FTSC1000:00: input: 3e 00 01 01 00 bb 03 bb 03 45 02 45 02 30 00 30 00 00 0f ff 0f ff 0f ff 0f ff 0f 30 00 30 00 00 0f ff 0f ff 0f ff 0f ff 0f 30 00 30 00 00 0f ff 0f ff 0f ff 0f ff 0f 30 00 30 00 90 01 01
[20478.001742] i2c_hid_acpi i2c-FTSC1000:00: input: 3e 00 01 01 00 bb 03 bb 03 45 02 45 02 30 00 30 00 00 0f ff 0f ff 0f ff 0f ff 0f 30 00 30 00 00 0f ff 0f ff 0f ff 0f ff 0f 30 00 30 00 00 0f ff 0f ff 0f ff 0f ff 0f 30 00 30 00 f4 01 01
[20478.010948] i2c_hid_acpi i2c-FTSC1000:00: input: 3e 00 01 01 00 bb 03 bb 03 45 02 45 02 30 00 30 00 00 0f ff 0f ff 0f ff 0f ff 0f 30 00 30 00 00 0f ff 0f ff 0f ff 0f ff 0f 30 00 30 00 00 0f ff 0f ff 0f ff 0f ff 0f 30 00 30 00 58 02 01
[20478.020080] i2c_hid_acpi i2c-FTSC1000:00: input: 3e 00 01 01 00 bb 03 bb 03 45 02 45 02 30 00 30 00 00 0f ff 0f ff 0f ff 0f ff 0f 30 00 30 00 00 0f ff 0f ff 0f ff 0f ff 0f 30 00 30 00 00 0f ff 0f ff 0f ff 0f ff 0f 30 00 30 00 bc 02 01
[20478.029127] i2c_hid_acpi i2c-FTSC1000:00: input: 3e 00 01 00 00 bb 03 bb 03 45 02 45 02 30 00 30 00 00 0f ff 0f ff 0f ff 0f ff 0f 30 00 30 00 00 0f ff 0f ff 0f ff 0f ff 0f 30 00 30 00 00 0f ff 0f ff 0f ff 0f ff 0f 30 00 30 00 20 03 01
[20478.403047] i2c_hid_acpi i2c-FTSC1000:00: input: 3e 00 01 01 00 90 03 90 03 bd 02 bd 02 30 00 30 00 00 0f ff 0f ff 0f ff 0f ff 0f 30 00 30 00 00 0f ff 0f ff 0f ff 0f ff 0f 30 00 30 00 00 0f ff 0f ff 0f ff 0f ff 0f 30 00 30 00 00 00 01
[20478.412032] i2c_hid_acpi i2c-FTSC1000:00: input: 3e 00 01 01 00 90 03 90 03 bd 02 bd 02 30 00 30 00 00 0f ff 0f ff 0f ff 0f ff 0f 30 00 30 00 00 0f ff 0f ff 0f ff 0f ff 0f 30 00 30 00 00 0f ff 0f ff 0f ff 0f ff 0f 30 00 30 00 64 00 01
[20478.421379] i2c_hid_acpi i2c-FTSC1000:00: input: 3e 00 01 01 00 90 03 90 03 bd 02 bd 02 30 00 30 00 00 0f ff 0f ff 0f ff 0f ff 0f 30 00 30 00 00 0f ff 0f ff 0f ff 0f ff 0f 30 00 30 00 00 0f ff 0f ff 0f ff 0f ff 0f 30 00 30 00 c8 00 01
[20478.430663] i2c_hid_acpi i2c-FTSC1000:00: input: 3e 00 01 01 00 90 03 90 03 bd 02 bd 02 30 00 30 00 00 0f ff 0f ff 0f ff 0f ff 0f 30 00 30 00 00 0f ff 0f ff 0f ff 0f ff 0f 30 00 30 00 00 0f ff 0f ff 0f ff 0f ff 0f 30 00 30 00 2c 01 01
[20478.439997] i2c_hid_acpi i2c-FTSC1000:00: input: 3e 00 01 01 00 90 03 90 03 bd 02 bd 02 30 00 30 00 00 0f ff 0f ff 0f ff 0f ff 0f 30 00 30 00 00 0f ff 0f ff 0f ff 0f ff 0f 30 00 30 00 00 0f ff 0f ff 0f ff 0f ff 0f 30 00 30 00 90 01 01
[20478.449095] i2c_hid_acpi i2c-FTSC1000:00: input: 3e 00 01 01 00 90 03 90 03 bd 02 bd 02 30 00 30 00 00 0f ff 0f ff 0f ff 0f ff 0f 30 00 30 00 00 0f ff 0f ff 0f ff 0f ff 0f 30 00 30 00 00 0f ff 0f ff 0f ff 0f ff 0f 30 00 30 00 f4 01 01
[20478.458146] i2c_hid_acpi i2c-FTSC1000:00: input: 3e 00 01 00 00 90 03 90 03 bd 02 bd 02 30 00 30 00 00 0f ff 0f ff 0f ff 0f ff 0f 30 00 30 00 00 0f ff 0f ff 0f ff 0f ff 0f 30 00 30 00 00 0f ff 0f ff 0f ff 0f ff 0f 30 00 30 00 58 02 01
[20479.205027] i2c_hid_acpi i2c-FTSC1000:00: input: 3e 00 01 01 00 61 02 61 02 49 02 49 02 30 00 30 00 00 0f ff 0f ff 0f ff 0f ff 0f 30 00 30 00 00 0f ff 0f ff 0f ff 0f ff 0f 30 00 30 00 00 0f ff 0f ff 0f ff 0f ff 0f 30 00 30 00 00 00 01
[20479.214043] i2c_hid_acpi i2c-FTSC1000:00: input: 3e 00 01 01 00 61 02 61 02 49 02 49 02 30 00 30 00 00 0f ff 0f ff 0f ff 0f ff 0f 30 00 30 00 00 0f ff 0f ff 0f ff 0f ff 0f 30 00 30 00 00 0f ff 0f ff 0f ff 0f ff 0f 30 00 30 00 64 00 01
[20479.223380] i2c_hid_acpi i2c-FTSC1000:00: input: 3e 00 01 01 00 61 02 61 02 49 02 49 02 30 00 30 00 00 0f ff 0f ff 0f ff 0f ff 0f 30 00 30 00 00 0f ff 0f ff 0f ff 0f ff 0f 30 00 30 00 00 0f ff 0f ff 0f ff 0f ff 0f 30 00 30 00 c8 00 01
[20479.232709] i2c_hid_acpi i2c-FTSC1000:00: input: 3e 00 01 01 00 61 02 61 02 49 02 49 02 30 00 30 00 00 0f ff 0f ff 0f ff 0f ff 0f 30 00 30 00 00 0f ff 0f ff 0f ff 0f ff 0f 30 00 30 00 00 0f ff 0f ff 0f ff 0f ff 0f 30 00 30 00 2c 01 01
[20479.242058] i2c_hid_acpi i2c-FTSC1000:00: input: 3e 00 01 01 00 61 02 61 02 49 02 49 02 30 00 30 00 00 0f ff 0f ff 0f ff 0f ff 0f 30 00 30 00 00 0f ff 0f ff 0f ff 0f ff 0f 30 00 30 00 00 0f ff 0f ff 0f ff 0f ff 0f 30 00 30 00 90 01 01
[20479.251536] i2c_hid_acpi i2c-FTSC1000:00: input: 3e 00 01 01 00 61 02 61 02 49 02 49 02 30 00 30 00 00 0f ff 0f ff 0f ff 0f ff 0f 30 00 30 00 00 0f ff 0f ff 0f ff 0f ff 0f 30 00 30 00 00 0f ff 0f ff 0f ff 0f ff 0f 30 00 30 00 f4 01 01
[20479.260622] i2c_hid_acpi i2c-FTSC1000:00: input: 3e 00 01 01 00 61 02 61 02 49 02 49 02 30 00 30 00 00 0f ff 0f ff 0f ff 0f ff 0f 30 00 30 00 00 0f ff 0f ff 0f ff 0f ff 0f 30 00 30 00 00 0f ff 0f ff 0f ff 0f ff 0f 30 00 30 00 58 02 01
[20479.270051] i2c_hid_acpi i2c-FTSC1000:00: input: 3e 00 01 01 00 61 02 61 02 49 02 49 02 30 00 30 00 00 0f ff 0f ff 0f ff 0f ff 0f 30 00 30 00 00 0f ff 0f ff 0f ff 0f ff 0f 30 00 30 00 00 0f ff 0f ff 0f ff 0f ff 0f 30 00 30 00 bc 02 01
[20479.279125] i2c_hid_acpi i2c-FTSC1000:00: input: 3e 00 01 01 00 61 02 61 02 49 02 49 02 30 00 30 00 00 0f ff 0f ff 0f ff 0f ff 0f 30 00 30 00 00 0f ff 0f ff 0f ff 0f ff 0f 30 00 30 00 00 0f ff 0f ff 0f ff 0f ff 0f 30 00 30 00 20 03 01
[20479.288094] i2c_hid_acpi i2c-FTSC1000:00: input: 3e 00 01 00 00 61 02 61 02 49 02 49 02 30 00 30 00 00 0f ff 0f ff 0f ff 0f ff 0f 30 00 30 00 00 0f ff 0f ff 0f ff 0f ff 0f 30 00 30 00 00 0f ff 0f ff 0f ff 0f ff 0f 30 00 30 00 84 03 01
[20479.736411] i2c_hid_acpi i2c-FTSC1000:00: input: 3e 00 01 01 00 54 03 54 03 88 02 88 02 30 00 30 00 00 0f ff 0f ff 0f ff 0f ff 0f 30 00 30 00 00 0f ff 0f ff 0f ff 0f ff 0f 30 00 30 00 00 0f ff 0f ff 0f ff 0f ff 0f 30 00 30 00 00 00 01
[20479.745516] i2c_hid_acpi i2c-FTSC1000:00: input: 3e 00 01 01 00 54 03 54 03 88 02 88 02 30 00 30 00 00 0f ff 0f ff 0f ff 0f ff 0f 30 00 30 00 00 0f ff 0f ff 0f ff 0f ff 0f 30 00 30 00 00 0f ff 0f ff 0f ff 0f ff 0f 30 00 30 00 64 00 01
[20479.754940] i2c_hid_acpi i2c-FTSC1000:00: input: 3e 00 01 01 00 54 03 54 03 88 02 88 02 30 00 30 00 00 0f ff 0f ff 0f ff 0f ff 0f 30 00 30 00 00 0f ff 0f ff 0f ff 0f ff 0f 30 00 30 00 00 0f ff 0f ff 0f ff 0f ff 0f 30 00 30 00 c8 00 01
[20479.764152] i2c_hid_acpi i2c-FTSC1000:00: input: 3e 00 01 01 00 54 03 54 03 88 02 88 02 30 00 30 00 00 0f ff 0f ff 0f ff 0f ff 0f 30 00 30 00 00 0f ff 0f ff 0f ff 0f ff 0f 30 00 30 00 00 0f ff 0f ff 0f ff 0f ff 0f 30 00 30 00 2c 01 01
[20479.773599] i2c_hid_acpi i2c-FTSC1000:00: input: 3e 00 01 01 00 54 03 54 03 88 02 88 02 30 00 30 00 00 0f ff 0f ff 0f ff 0f ff 0f 30 00 30 00 00 0f ff 0f ff 0f ff 0f ff 0f 30 00 30 00 00 0f ff 0f ff 0f ff 0f ff 0f 30 00 30 00 90 01 01
[20479.782830] i2c_hid_acpi i2c-FTSC1000:00: input: 3e 00 01 01 00 54 03 54 03 88 02 88 02 30 00 30 00 00 0f ff 0f ff 0f ff 0f ff 0f 30 00 30 00 00 0f ff 0f ff 0f ff 0f ff 0f 30 00 30 00 00 0f ff 0f ff 0f ff 0f ff 0f 30 00 30 00 f4 01 01
[20479.792489] i2c_hid_acpi i2c-FTSC1000:00: input: 3e 00 01 01 00 54 03 54 03 88 02 88 02 30 00 30 00 00 0f ff 0f ff 0f ff 0f ff 0f 30 00 30 00 00 0f ff 0f ff 0f ff 0f ff 0f 30 00 30 00 00 0f ff 0f ff 0f ff 0f ff 0f 30 00 30 00 58 02 01
[20479.801535] i2c_hid_acpi i2c-FTSC1000:00: input: 3e 00 01 01 00 54 03 54 03 88 02 88 02 30 00 30 00 00 0f ff 0f ff 0f ff 0f ff 0f 30 00 30 00 00 0f ff 0f ff 0f ff 0f ff 0f 30 00 30 00 00 0f ff 0f ff 0f ff 0f ff 0f 30 00 30 00 bc 02 01
[20479.810974] i2c_hid_acpi i2c-FTSC1000:00: input: 3e 00 01 01 00 54 03 54 03 88 02 88 02 30 00 30 00 00 0f ff 0f ff 0f ff 0f ff 0f 30 00 30 00 00 0f ff 0f ff 0f ff 0f ff 0f 30 00 30 00 00 0f ff 0f ff 0f ff 0f ff 0f 30 00 30 00 20 03 01
[20479.819682] i2c_hid_acpi i2c-FTSC1000:00: input: 3e 00 01 00 00 54 03 54 03 88 02 88 02 30 00 30 00 00 0f ff 0f ff 0f ff 0f ff 0f 30 00 30 00 00 0f ff 0f ff 0f ff 0f ff 0f 30 00 30 00 00 0f ff 0f ff 0f ff 0f ff 0f 30 00 30 00 84 03 01
[20480.342949] i2c_hid_acpi i2c-FTSC1000:00: input: 3e 00 01 01 00 c1 01 c1 01 88 02 88 02 30 00 30 00 00 0f ff 0f ff 0f ff 0f ff 0f 30 00 30 00 00 0f ff 0f ff 0f ff 0f ff 0f 30 00 30 00 00 0f ff 0f ff 0f ff 0f ff 0f 30 00 30 00 00 00 01
[20480.351749] i2c_hid_acpi i2c-FTSC1000:00: input: 3e 00 01 01 00 c1 01 c1 01 88 02 88 02 30 00 30 00 00 0f ff 0f ff 0f ff 0f ff 0f 30 00 30 00 00 0f ff 0f ff 0f ff 0f ff 0f 30 00 30 00 00 0f ff 0f ff 0f ff 0f ff 0f 30 00 30 00 64 00 01
[20480.361032] i2c_hid_acpi i2c-FTSC1000:00: input: 3e 00 01 01 00 c1 01 c1 01 88 02 88 02 30 00 30 00 00 0f ff 0f ff 0f ff 0f ff 0f 30 00 30 00 00 0f ff 0f ff 0f ff 0f ff 0f 30 00 30 00 00 0f ff 0f ff 0f ff 0f ff 0f 30 00 30 00 c8 00 01
[20480.370389] i2c_hid_acpi i2c-FTSC1000:00: input: 3e 00 01 01 00 c1 01 c1 01 88 02 88 02 30 00 30 00 00 0f ff 0f ff 0f ff 0f ff 0f 30 00 30 00 00 0f ff 0f ff 0f ff 0f ff 0f 30 00 30 00 00 0f ff 0f ff 0f ff 0f ff 0f 30 00 30 00 2c 01 01
[20480.379720] i2c_hid_acpi i2c-FTSC1000:00: input: 3e 00 01 01 00 c1 01 c1 01 88 02 88 02 30 00 30 00 00 0f ff 0f ff 0f ff 0f ff 0f 30 00 30 00 00 0f ff 0f ff 0f ff 0f ff 0f 30 00 30 00 00 0f ff 0f ff 0f ff 0f ff 0f 30 00 30 00 90 01 01
[20480.388884] i2c_hid_acpi i2c-FTSC1000:00: input: 3e 00 01 01 00 c1 01 c1 01 88 02 88 02 30 00 30 00 00 0f ff 0f ff 0f ff 0f ff 0f 30 00 30 00 00 0f ff 0f ff 0f ff 0f ff 0f 30 00 30 00 00 0f ff 0f ff 0f ff 0f ff 0f 30 00 30 00 f4 01 01
[20480.397806] i2c_hid_acpi i2c-FTSC1000:00: input: 3e 00 01 00 00 c1 01 c1 01 88 02 88 02 30 00 30 00 00 0f ff 0f ff 0f ff 0f ff 0f 30 00 30 00 00 0f ff 0f ff 0f ff 0f ff 0f 30 00 30 00 00 0f ff 0f ff 0f ff 0f ff 0f 30 00 30 00 58 02 01
[20481.089862] i2c_hid_acpi i2c-FTSC1000:00: input: 3e 00 01 01 00 ed 02 ed 02 b8 02 b8 02 30 00 30 00 00 0f ff 0f ff 0f ff 0f ff 0f 30 00 30 00 00 0f ff 0f ff 0f ff 0f ff 0f 30 00 30 00 00 0f ff 0f ff 0f ff 0f ff 0f 30 00 30 00 00 00 01
[20481.098928] i2c_hid_acpi i2c-FTSC1000:00: input: 3e 00 01 01 00 ed 02 ed 02 b8 02 b8 02 30 00 30 00 00 0f ff 0f ff 0f ff 0f ff 0f 30 00 30 00 00 0f ff 0f ff 0f ff 0f ff 0f 30 00 30 00 00 0f ff 0f ff 0f ff 0f ff 0f 30 00 30 00 64 00 01
[20481.108458] i2c_hid_acpi i2c-FTSC1000:00: input: 3e 00 01 01 00 ed 02 ed 02 b8 02 b8 02 30 00 30 00 00 0f ff 0f ff 0f ff 0f ff 0f 30 00 30 00 00 0f ff 0f ff 0f ff 0f ff 0f 30 00 30 00 00 0f ff 0f ff 0f ff 0f ff 0f 30 00 30 00 c8 00 01
[20481.117501] i2c_hid_acpi i2c-FTSC1000:00: input: 3e 00 01 01 00 ed 02 ed 02 b8 02 b8 02 30 00 30 00 00 0f ff 0f ff 0f ff 0f ff 0f 30 00 30 00 00 0f ff 0f ff 0f ff 0f ff 0f 30 00 30 00 00 0f ff 0f ff 0f ff 0f ff 0f 30 00 30 00 2c 01 01
[20481.127946] i2c_hid_acpi i2c-FTSC1000:00: input: 3e 00 01 01 00 ed 02 ed 02 b8 02 b8 02 30 00 30 00 00 0f ff 0f ff 0f ff 0f ff 0f 30 00 30 00 00 0f ff 0f ff 0f ff 0f ff 0f 30 00 30 00 00 0f ff 0f ff 0f ff 0f ff 0f 30 00 30 00 90 01 01
[20481.136421] i2c_hid_acpi i2c-FTSC1000:00: input: 3e 00 01 01 00 ed 02 ed 02 b8 02 b8 02 30 00 30 00 00 0f ff 0f ff 0f ff 0f ff 0f 30 00 30 00 00 0f ff 0f ff 0f ff 0f ff 0f 30 00 30 00 00 0f ff 0f ff 0f ff 0f ff 0f 30 00 30 00 f4 01 01
[20481.145549] i2c_hid_acpi i2c-FTSC1000:00: input: 3e 00 01 01 00 ed 02 ed 02 b8 02 b8 02 30 00 30 00 00 0f ff 0f ff 0f ff 0f ff 0f 30 00 30 00 00 0f ff 0f ff 0f ff 0f ff 0f 30 00 30 00 00 0f ff 0f ff 0f ff 0f ff 0f 30 00 30 00 58 02 01
[20481.154669] i2c_hid_acpi i2c-FTSC1000:00: input: 3e 00 01 01 00 ed 02 ed 02 b8 02 b8 02 30 00 30 00 00 0f ff 0f ff 0f ff 0f ff 0f 30 00 30 00 00 0f ff 0f ff 0f ff 0f ff 0f 30 00 30 00 00 0f ff 0f ff 0f ff 0f ff 0f 30 00 30 00 bc 02 01
[20481.163779] i2c_hid_acpi i2c-FTSC1000:00: input: 3e 00 01 00 00 ed 02 ed 02 b8 02 b8 02 30 00 30 00 00 0f ff 0f ff 0f ff 0f ff 0f 30 00 30 00 00 0f ff 0f ff 0f ff 0f ff 0f 30 00 30 00 00 0f ff 0f ff 0f ff 0f ff 0f 30 00 30 00 20 03 01
[20481.826942] i2c_hid_acpi i2c-FTSC1000:00: input: 3e 00 01 01 00 ac 03 ac 03 8a 02 8a 02 30 00 30 00 00 0f ff 0f ff 0f ff 0f ff 0f 30 00 30 00 00 0f ff 0f ff 0f ff 0f ff 0f 30 00 30 00 00 0f ff 0f ff 0f ff 0f ff 0f 30 00 30 00 00 00 01
[20481.835810] i2c_hid_acpi i2c-FTSC1000:00: input: 3e 00 01 01 00 ac 03 ac 03 8a 02 8a 02 30 00 30 00 00 0f ff 0f ff 0f ff 0f ff 0f 30 00 30 00 00 0f ff 0f ff 0f ff 0f ff 0f 30 00 30 00 00 0f ff 0f ff 0f ff 0f ff 0f 30 00 30 00 64 00 01
[20481.845165] i2c_hid_acpi i2c-FTSC1000:00: input: 3e 00 01 01 00 ac 03 ac 03 8a 02 8a 02 30 00 30 00 00 0f ff 0f ff 0f ff 0f ff 0f 30 00 30 00 00 0f ff 0f ff 0f ff 0f ff 0f 30 00 30 00 00 0f ff 0f ff 0f ff 0f ff 0f 30 00 30 00 c8 00 01
[20481.854723] i2c_hid_acpi i2c-FTSC1000:00: input: 3e 00 01 01 00 ac 03 ac 03 8a 02 8a 02 30 00 30 00 00 0f ff 0f ff 0f ff 0f ff 0f 30 00 30 00 00 0f ff 0f ff 0f ff 0f ff 0f 30 00 30 00 00 0f ff 0f ff 0f ff 0f ff 0f 30 00 30 00 2c 01 01
[20481.864753] i2c_hid_acpi i2c-FTSC1000:00: input: 3e 00 01 01 00 ac 03 ac 03 8a 02 8a 02 30 00 30 00 00 0f ff 0f ff 0f ff 0f ff 0f 30 00 30 00 00 0f ff 0f ff 0f ff 0f ff 0f 30 00 30 00 00 0f ff 0f ff 0f ff 0f ff 0f 30 00 30 00 90 01 01
[20481.873566] i2c_hid_acpi i2c-FTSC1000:00: input: 3e 00 01 00 00 ac 03 ac 03 8a 02 8a 02 30 00 30 00 00 0f ff 0f ff 0f ff 0f ff 0f 30 00 30 00 00 0f ff 0f ff 0f ff 0f ff 0f 30 00 30 00 00 0f ff 0f ff 0f ff 0f ff 0f 30 00 30 00 f4 01 01
[20487.157242] i2c_hid_acpi i2c-FTSC1000:00: input: 3e 00 01 01 00 15 01 15 01 9e 01 9e 01 30 00 30 00 00 0f ff 0f ff 0f ff 0f ff 0f 30 00 30 00 00 0f ff 0f ff 0f ff 0f ff 0f 30 00 30 00 00 0f ff 0f ff 0f ff 0f ff 0f 30 00 30 00 c8 00 01
[20487.165361] i2c_hid_acpi i2c-FTSC1000:00: input: 3e 00 01 01 00 15 01 15 01 9e 01 9e 01 30 00 30 00 00 0f ff 0f ff 0f ff 0f ff 0f 30 00 30 00 00 0f ff 0f ff 0f ff 0f ff 0f 30 00 30 00 00 0f ff 0f ff 0f ff 0f ff 0f 30 00 30 00 2c 01 01
[20487.174500] i2c_hid_acpi i2c-FTSC1000:00: input: 3e 00 01 01 00 15 01 15 01 9e 01 9e 01 30 00 30 00 00 0f ff 0f ff 0f ff 0f ff 0f 30 00 30 00 00 0f ff 0f ff 0f ff 0f ff 0f 30 00 30 00 00 0f ff 0f ff 0f ff 0f ff 0f 30 00 30 00 90 01 01
[20487.183836] i2c_hid_acpi i2c-FTSC1000:00: input: 3e 00 01 01 00 15 01 15 01 9e 01 9e 01 30 00 30 00 00 0f ff 0f ff 0f ff 0f ff 0f 30 00 30 00 00 0f ff 0f ff 0f ff 0f ff 0f 30 00 30 00 00 0f ff 0f ff 0f ff 0f ff 0f 30 00 30 00 f4 01 01
[20487.193172] i2c_hid_acpi i2c-FTSC1000:00: input: 3e 00 01 01 00 15 01 15 01 9e 01 9e 01 30 00 30 00 00 0f ff 0f ff 0f ff 0f ff 0f 30 00 30 00 00 0f ff 0f ff 0f ff 0f ff 0f 30 00 30 00 00 0f ff 0f ff 0f ff 0f ff 0f 30 00 30 00 58 02 01
[20487.202910] i2c_hid_acpi i2c-FTSC1000:00: input: 3e 00 01 01 00 15 01 15 01 9e 01 9e 01 30 00 30 00 00 0f ff 0f ff 0f ff 0f ff 0f 30 00 30 00 00 0f ff 0f ff 0f ff 0f ff 0f 30 00 30 00 00 0f ff 0f ff 0f ff 0f ff 0f 30 00 30 00 bc 02 01
[20487.211682] i2c_hid_acpi i2c-FTSC1000:00: input: 3e 00 01 01 00 15 01 15 01 9e 01 9e 01 30 00 30 00 00 0f ff 0f ff 0f ff 0f ff 0f 30 00 30 00 00 0f ff 0f ff 0f ff 0f ff 0f 30 00 30 00 00 0f ff 0f ff 0f ff 0f ff 0f 30 00 30 00 20 03 01
[20487.220649] i2c_hid_acpi i2c-FTSC1000:00: input: 3e 00 01 00 00 15 01 15 01 9e 01 9e 01 30 00 30 00 00 0f ff 0f ff 0f ff 0f ff 0f 30 00 30 00 00 0f ff 0f ff 0f ff 0f ff 0f 30 00 30 00 00 0f ff 0f ff 0f ff 0f ff 0f 30 00 30 00 84 03 01
[20488.034170] ACPI Error: AE_ERROR, Returned by Handler for [UserDefinedRegion] (20210730/evregion-281)

[20488.034222] No Local Variables are initialized for Method [_TMP]

[20488.034230] No Arguments are initialized for method [_TMP]

[20488.034243] ACPI Error: Aborting method \_SB.SXP1._TMP due to previous error (AE_ERROR) (20210730/psparse-529)
[20494.367479] i2c_hid_acpi i2c-FTSC1000:00: input: 3e 00 01 01 00 f4 01 f4 01 18 02 18 02 30 00 30 00 00 0f ff 0f ff 0f ff 0f ff 0f 30 00 30 00 00 0f ff 0f ff 0f ff 0f ff 0f 30 00 30 00 00 0f ff 0f ff 0f ff 0f ff 0f 30 00 30 00 c8 00 01
[20494.376414] i2c_hid_acpi i2c-FTSC1000:00: input: 3e 00 01 01 00 f4 01 f4 01 18 02 18 02 30 00 30 00 00 0f ff 0f ff 0f ff 0f ff 0f 30 00 30 00 00 0f ff 0f ff 0f ff 0f ff 0f 30 00 30 00 00 0f ff 0f ff 0f ff 0f ff 0f 30 00 30 00 2c 01 01
[20494.385050] i2c_hid_acpi i2c-FTSC1000:00: input: 3e 00 01 01 00 f4 01 f4 01 18 02 18 02 30 00 30 00 00 0f ff 0f ff 0f ff 0f ff 0f 30 00 30 00 00 0f ff 0f ff 0f ff 0f ff 0f 30 00 30 00 00 0f ff 0f ff 0f ff 0f ff 0f 30 00 30 00 90 01 01
[20494.394297] i2c_hid_acpi i2c-FTSC1000:00: input: 3e 00 01 01 00 f4 01 f4 01 18 02 18 02 30 00 30 00 00 0f ff 0f ff 0f ff 0f ff 0f 30 00 30 00 00 0f ff 0f ff 0f ff 0f ff 0f 30 00 30 00 00 0f ff 0f ff 0f ff 0f ff 0f 30 00 30 00 f4 01 01
[20494.403616] i2c_hid_acpi i2c-FTSC1000:00: input: 3e 00 01 01 00 f4 01 f4 01 18 02 18 02 30 00 30 00 00 0f ff 0f ff 0f ff 0f ff 0f 30 00 30 00 00 0f ff 0f ff 0f ff 0f ff 0f 30 00 30 00 00 0f ff 0f ff 0f ff 0f ff 0f 30 00 30 00 58 02 01
[20494.412961] i2c_hid_acpi i2c-FTSC1000:00: input: 3e 00 01 01 00 f4 01 f4 01 18 02 18 02 30 00 30 00 00 0f ff 0f ff 0f ff 0f ff 0f 30 00 30 00 00 0f ff 0f ff 0f ff 0f ff 0f 30 00 30 00 00 0f ff 0f ff 0f ff 0f ff 0f 30 00 30 00 bc 02 01
[20494.422251] i2c_hid_acpi i2c-FTSC1000:00: input: 3e 00 01 01 00 f4 01 f4 01 18 02 18 02 30 00 30 00 00 0f ff 0f ff 0f ff 0f ff 0f 30 00 30 00 00 0f ff 0f ff 0f ff 0f ff 0f 30 00 30 00 00 0f ff 0f ff 0f ff 0f ff 0f 30 00 30 00 20 03 01
[20494.432320] i2c_hid_acpi i2c-FTSC1000:00: input: 3e 00 01 01 00 f4 01 f4 01 18 02 18 02 30 00 30 00 00 0f ff 0f ff 0f ff 0f ff 0f 30 00 30 00 00 0f ff 0f ff 0f ff 0f ff 0f 30 00 30 00 00 0f ff 0f ff 0f ff 0f ff 0f 30 00 30 00 84 03 01
[20494.441877] i2c_hid_acpi i2c-FTSC1000:00: input: 3e 00 01 01 00 f4 01 f4 01 18 02 18 02 30 00 30 00 00 0f ff 0f ff 0f ff 0f ff 0f 30 00 30 00 00 0f ff 0f ff 0f ff 0f ff 0f 30 00 30 00 00 0f ff 0f ff 0f ff 0f ff 0f 30 00 30 00 e8 03 01
[20494.451344] i2c_hid_acpi i2c-FTSC1000:00: input: 3e 00 01 00 00 f4 01 f4 01 18 02 18 02 30 00 30 00 00 0f ff 0f ff 0f ff 0f ff 0f 30 00 30 00 00 0f ff 0f ff 0f ff 0f ff 0f 30 00 30 00 00 0f ff 0f ff 0f ff 0f ff 0f 30 00 30 00 4c 04 01
[20495.684022] i2c_hid_acpi i2c-FTSC1000:00: input: 3e 00 01 01 00 4f 02 4f 02 ff 02 ff 02 30 00 30 00 00 0f ff 0f ff 0f ff 0f ff 0f 30 00 30 00 00 0f ff 0f ff 0f ff 0f ff 0f 30 00 30 00 00 0f ff 0f ff 0f ff 0f ff 0f 30 00 30 00 c8 00 01
[20495.692199] i2c_hid_acpi i2c-FTSC1000:00: input: 3e 00 01 01 00 4f 02 4f 02 ff 02 ff 02 30 00 30 00 00 0f ff 0f ff 0f ff 0f ff 0f 30 00 30 00 00 0f ff 0f ff 0f ff 0f ff 0f 30 00 30 00 00 0f ff 0f ff 0f ff 0f ff 0f 30 00 30 00 2c 01 01
[20495.701158] i2c_hid_acpi i2c-FTSC1000:00: input: 3e 00 01 01 00 4f 02 4f 02 ff 02 ff 02 30 00 30 00 00 0f ff 0f ff 0f ff 0f ff 0f 30 00 30 00 00 0f ff 0f ff 0f ff 0f ff 0f 30 00 30 00 00 0f ff 0f ff 0f ff 0f ff 0f 30 00 30 00 90 01 01
[20495.710458] i2c_hid_acpi i2c-FTSC1000:00: input: 3e 00 01 01 00 4f 02 4f 02 ff 02 ff 02 30 00 30 00 00 0f ff 0f ff 0f ff 0f ff 0f 30 00 30 00 00 0f ff 0f ff 0f ff 0f ff 0f 30 00 30 00 00 0f ff 0f ff 0f ff 0f ff 0f 30 00 30 00 f4 01 01
[20495.720015] i2c_hid_acpi i2c-FTSC1000:00: input: 3e 00 01 01 00 50 02 50 02 fc 02 fc 02 30 00 30 00 00 0f ff 0f ff 0f ff 0f ff 0f 30 00 30 00 00 0f ff 0f ff 0f ff 0f ff 0f 30 00 30 00 00 0f ff 0f ff 0f ff 0f ff 0f 30 00 30 00 58 02 01
[20495.729261] i2c_hid_acpi i2c-FTSC1000:00: input: 3e 00 01 01 00 50 02 50 02 fc 02 fc 02 30 00 30 00 00 0f ff 0f ff 0f ff 0f ff 0f 30 00 30 00 00 0f ff 0f ff 0f ff 0f ff 0f 30 00 30 00 00 0f ff 0f ff 0f ff 0f ff 0f 30 00 30 00 bc 02 01
[20495.738477] i2c_hid_acpi i2c-FTSC1000:00: input: 3e 00 01 01 00 51 02 51 02 fa 02 fa 02 30 00 30 00 00 0f ff 0f ff 0f ff 0f ff 0f 30 00 30 00 00 0f ff 0f ff 0f ff 0f ff 0f 30 00 30 00 00 0f ff 0f ff 0f ff 0f ff 0f 30 00 30 00 20 03 01
[20495.747954] i2c_hid_acpi i2c-FTSC1000:00: input: 3e 00 01 01 00 51 02 51 02 f9 02 f9 02 30 00 30 00 00 0f ff 0f ff 0f ff 0f ff 0f 30 00 30 00 00 0f ff 0f ff 0f ff 0f ff 0f 30 00 30 00 00 0f ff 0f ff 0f ff 0f ff 0f 30 00 30 00 84 03 01
[20495.757513] i2c_hid_acpi i2c-FTSC1000:00: input: 3e 00 01 01 00 52 02 52 02 f9 02 f9 02 30 00 30 00 00 0f ff 0f ff 0f ff 0f ff 0f 30 00 30 00 00 0f ff 0f ff 0f ff 0f ff 0f 30 00 30 00 00 0f ff 0f ff 0f ff 0f ff 0f 30 00 30 00 e8 03 01
[20495.766481] i2c_hid_acpi i2c-FTSC1000:00: input: 3e 00 01 01 00 52 02 52 02 f8 02 f8 02 30 00 30 00 00 0f ff 0f ff 0f ff 0f ff 0f 30 00 30 00 00 0f ff 0f ff 0f ff 0f ff 0f 30 00 30 00 00 0f ff 0f ff 0f ff 0f ff 0f 30 00 30 00 4c 04 01
[20495.775856] i2c_hid_acpi i2c-FTSC1000:00: input: 3e 00 01 01 00 53 02 53 02 f8 02 f8 02 30 00 30 00 00 0f ff 0f ff 0f ff 0f ff 0f 30 00 30 00 00 0f ff 0f ff 0f ff 0f ff 0f 30 00 30 00 00 0f ff 0f ff 0f ff 0f ff 0f 30 00 30 00 b0 04 01
[20495.785463] i2c_hid_acpi i2c-FTSC1000:00: input: 3e 00 01 01 00 53 02 53 02 f7 02 f7 02 30 00 30 00 00 0f ff 0f ff 0f ff 0f ff 0f 30 00 30 00 00 0f ff 0f ff 0f ff 0f ff 0f 30 00 30 00 00 0f ff 0f ff 0f ff 0f ff 0f 30 00 30 00 14 05 01
[20495.794459] i2c_hid_acpi i2c-FTSC1000:00: input: 3e 00 01 01 00 53 02 53 02 f6 02 f6 02 30 00 30 00 00 0f ff 0f ff 0f ff 0f ff 0f 30 00 30 00 00 0f ff 0f ff 0f ff 0f ff 0f 30 00 30 00 00 0f ff 0f ff 0f ff 0f ff 0f 30 00 30 00 78 05 01
[20495.804144] i2c_hid_acpi i2c-FTSC1000:00: input: 3e 00 01 01 00 54 02 54 02 f5 02 f5 02 30 00 30 00 00 0f ff 0f ff 0f ff 0f ff 0f 30 00 30 00 00 0f ff 0f ff 0f ff 0f ff 0f 30 00 30 00 00 0f ff 0f ff 0f ff 0f ff 0f 30 00 30 00 dc 05 01
[20495.812713] i2c_hid_acpi i2c-FTSC1000:00: input: 3e 00 01 00 00 54 02 54 02 f5 02 f5 02 30 00 30 00 00 0f ff 0f ff 0f ff 0f ff 0f 30 00 30 00 00 0f ff 0f ff 0f ff 0f ff 0f 30 00 30 00 00 0f ff 0f ff 0f ff 0f ff 0f 30 00 30 00 40 06 01
[20502.409424] i2c_hid_acpi i2c-FTSC1000:00: input: 3e 00 01 01 00 40 03 40 03 f8 01 f8 01 30 00 30 00 00 0f ff 0f ff 0f ff 0f ff 0f 30 00 30 00 00 0f ff 0f ff 0f ff 0f ff 0f 30 00 30 00 00 0f ff 0f ff 0f ff 0f ff 0f 30 00 30 00 c8 00 01
[20502.418199] i2c_hid_acpi i2c-FTSC1000:00: input: 3e 00 01 01 00 40 03 40 03 f8 01 f8 01 30 00 30 00 00 0f ff 0f ff 0f ff 0f ff 0f 30 00 30 00 00 0f ff 0f ff 0f ff 0f ff 0f 30 00 30 00 00 0f ff 0f ff 0f ff 0f ff 0f 30 00 30 00 2c 01 01
[20502.427516] i2c_hid_acpi i2c-FTSC1000:00: input: 3e 00 01 01 00 40 03 40 03 f8 01 f8 01 30 00 30 00 00 0f ff 0f ff 0f ff 0f ff 0f 30 00 30 00 00 0f ff 0f ff 0f ff 0f ff 0f 30 00 30 00 00 0f ff 0f ff 0f ff 0f ff 0f 30 00 30 00 90 01 01
[20502.437094] i2c_hid_acpi i2c-FTSC1000:00: input: 3e 00 01 01 00 40 03 40 03 f8 01 f8 01 30 00 30 00 00 0f ff 0f ff 0f ff 0f ff 0f 30 00 30 00 00 0f ff 0f ff 0f ff 0f ff 0f 30 00 30 00 00 0f ff 0f ff 0f ff 0f ff 0f 30 00 30 00 f4 01 01
[20502.446267] i2c_hid_acpi i2c-FTSC1000:00: input: 3e 00 01 01 00 40 03 40 03 f8 01 f8 01 30 00 30 00 00 0f ff 0f ff 0f ff 0f ff 0f 30 00 30 00 00 0f ff 0f ff 0f ff 0f ff 0f 30 00 30 00 00 0f ff 0f ff 0f ff 0f ff 0f 30 00 30 00 58 02 01
[20502.455583] i2c_hid_acpi i2c-FTSC1000:00: input: 3e 00 01 01 00 40 03 40 03 f8 01 f8 01 30 00 30 00 00 0f ff 0f ff 0f ff 0f ff 0f 30 00 30 00 00 0f ff 0f ff 0f ff 0f ff 0f 30 00 30 00 00 0f ff 0f ff 0f ff 0f ff 0f 30 00 30 00 bc 02 01
[20502.465032] i2c_hid_acpi i2c-FTSC1000:00: input: 3e 00 01 01 00 40 03 40 03 f8 01 f8 01 30 00 30 00 00 0f ff 0f ff 0f ff 0f ff 0f 30 00 30 00 00 0f ff 0f ff 0f ff 0f ff 0f 30 00 30 00 00 0f ff 0f ff 0f ff 0f ff 0f 30 00 30 00 20 03 01
[20502.474279] i2c_hid_acpi i2c-FTSC1000:00: input: 3e 00 01 01 00 40 03 40 03 f8 01 f8 01 30 00 30 00 00 0f ff 0f ff 0f ff 0f ff 0f 30 00 30 00 00 0f ff 0f ff 0f ff 0f ff 0f 30 00 30 00 00 0f ff 0f ff 0f ff 0f ff 0f 30 00 30 00 84 03 01
[20502.483846] i2c_hid_acpi i2c-FTSC1000:00: input: 3e 00 01 01 00 40 03 40 03 f8 01 f8 01 30 00 30 00 00 0f ff 0f ff 0f ff 0f ff 0f 30 00 30 00 00 0f ff 0f ff 0f ff 0f ff 0f 30 00 30 00 00 0f ff 0f ff 0f ff 0f ff 0f 30 00 30 00 e8 03 01
[20502.492869] i2c_hid_acpi i2c-FTSC1000:00: input: 3e 00 01 01 00 40 03 40 03 f8 01 f8 01 30 00 30 00 00 0f ff 0f ff 0f ff 0f ff 0f 30 00 30 00 00 0f ff 0f ff 0f ff 0f ff 0f 30 00 30 00 00 0f ff 0f ff 0f ff 0f ff 0f 30 00 30 00 4c 04 01
[20502.502246] i2c_hid_acpi i2c-FTSC1000:00: input: 3e 00 01 01 00 3f 03 3f 03 f5 01 f5 01 30 00 30 00 00 0f ff 0f ff 0f ff 0f ff 0f 30 00 30 00 00 0f ff 0f ff 0f ff 0f ff 0f 30 00 30 00 00 0f ff 0f ff 0f ff 0f ff 0f 30 00 30 00 b0 04 01
[20502.511716] i2c_hid_acpi i2c-FTSC1000:00: input: 3e 00 01 01 00 3f 03 3f 03 f5 01 f5 01 30 00 30 00 00 0f ff 0f ff 0f ff 0f ff 0f 30 00 30 00 00 0f ff 0f ff 0f ff 0f ff 0f 30 00 30 00 00 0f ff 0f ff 0f ff 0f ff 0f 30 00 30 00 14 05 01
[20502.520956] i2c_hid_acpi i2c-FTSC1000:00: input: 3e 00 01 01 00 3f 03 3f 03 f3 01 f3 01 30 00 30 00 00 0f ff 0f ff 0f ff 0f ff 0f 30 00 30 00 00 0f ff 0f ff 0f ff 0f ff 0f 30 00 30 00 00 0f ff 0f ff 0f ff 0f ff 0f 30 00 30 00 78 05 01
[20502.530253] i2c_hid_acpi i2c-FTSC1000:00: input: 3e 00 01 01 00 40 03 40 03 f2 01 f2 01 30 00 30 00 00 0f ff 0f ff 0f ff 0f ff 0f 30 00 30 00 00 0f ff 0f ff 0f ff 0f ff 0f 30 00 30 00 00 0f ff 0f ff 0f ff 0f ff 0f 30 00 30 00 dc 05 01
[20502.539540] i2c_hid_acpi i2c-FTSC1000:00: input: 3e 00 01 01 00 40 03 40 03 f1 01 f1 01 30 00 30 00 00 0f ff 0f ff 0f ff 0f ff 0f 30 00 30 00 00 0f ff 0f ff 0f ff 0f ff 0f 30 00 30 00 00 0f ff 0f ff 0f ff 0f ff 0f 30 00 30 00 40 06 01
[20502.549358] i2c_hid_acpi i2c-FTSC1000:00: input: 3e 00 01 01 00 40 03 40 03 f0 01 f0 01 30 00 30 00 00 0f ff 0f ff 0f ff 0f ff 0f 30 00 30 00 00 0f ff 0f ff 0f ff 0f ff 0f 30 00 30 00 00 0f ff 0f ff 0f ff 0f ff 0f 30 00 30 00 a4 06 01
[20502.558409] i2c_hid_acpi i2c-FTSC1000:00: input: 3e 00 01 01 00 41 03 41 03 ee 01 ee 01 30 00 30 00 00 0f ff 0f ff 0f ff 0f ff 0f 30 00 30 00 00 0f ff 0f ff 0f ff 0f ff 0f 30 00 30 00 00 0f ff 0f ff 0f ff 0f ff 0f 30 00 30 00 08 07 01
[20502.567711] i2c_hid_acpi i2c-FTSC1000:00: input: 3e 00 01 01 00 41 03 41 03 ec 01 ec 01 30 00 30 00 00 0f ff 0f ff 0f ff 0f ff 0f 30 00 30 00 00 0f ff 0f ff 0f ff 0f ff 0f 30 00 30 00 00 0f ff 0f ff 0f ff 0f ff 0f 30 00 30 00 6c 07 01
[20502.576946] i2c_hid_acpi i2c-FTSC1000:00: input: 3e 00 01 01 00 41 03 41 03 ea 01 ea 01 30 00 30 00 00 0f ff 0f ff 0f ff 0f ff 0f 30 00 30 00 00 0f ff 0f ff 0f ff 0f ff 0f 30 00 30 00 00 0f ff 0f ff 0f ff 0f ff 0f 30 00 30 00 d0 07 01
[20502.586464] i2c_hid_acpi i2c-FTSC1000:00: input: 3e 00 01 01 00 42 03 42 03 e8 01 e8 01 30 00 30 00 00 0f ff 0f ff 0f ff 0f ff 0f 30 00 30 00 00 0f ff 0f ff 0f ff 0f ff 0f 30 00 30 00 00 0f ff 0f ff 0f ff 0f ff 0f 30 00 30 00 34 08 01
[20502.595570] i2c_hid_acpi i2c-FTSC1000:00: input: 3e 00 01 01 00 42 03 42 03 e6 01 e6 01 30 00 30 00 00 0f ff 0f ff 0f ff 0f ff 0f 30 00 30 00 00 0f ff 0f ff 0f ff 0f ff 0f 30 00 30 00 00 0f ff 0f ff 0f ff 0f ff 0f 30 00 30 00 98 08 01
[20502.604918] i2c_hid_acpi i2c-FTSC1000:00: input: 3e 00 01 01 00 42 03 42 03 e4 01 e4 01 30 00 30 00 00 0f ff 0f ff 0f ff 0f ff 0f 30 00 30 00 00 0f ff 0f ff 0f ff 0f ff 0f 30 00 30 00 00 0f ff 0f ff 0f ff 0f ff 0f 30 00 30 00 fc 08 01
[20502.614241] i2c_hid_acpi i2c-FTSC1000:00: input: 3e 00 01 01 00 43 03 43 03 e2 01 e2 01 30 00 30 00 00 0f ff 0f ff 0f ff 0f ff 0f 30 00 30 00 00 0f ff 0f ff 0f ff 0f ff 0f 30 00 30 00 00 0f ff 0f ff 0f ff 0f ff 0f 30 00 30 00 60 09 01
[20502.623627] i2c_hid_acpi i2c-FTSC1000:00: input: 3e 00 01 01 00 43 03 43 03 e1 01 e1 01 30 00 30 00 00 0f ff 0f ff 0f ff 0f ff 0f 30 00 30 00 00 0f ff 0f ff 0f ff 0f ff 0f 30 00 30 00 00 0f ff 0f ff 0f ff 0f ff 0f 30 00 30 00 c4 09 01
[20502.632917] i2c_hid_acpi i2c-FTSC1000:00: input: 3e 00 01 01 00 44 03 44 03 df 01 df 01 30 00 30 00 00 0f ff 0f ff 0f ff 0f ff 0f 30 00 30 00 00 0f ff 0f ff 0f ff 0f ff 0f 30 00 30 00 00 0f ff 0f ff 0f ff 0f ff 0f 30 00 30 00 28 0a 01
[20502.642598] i2c_hid_acpi i2c-FTSC1000:00: input: 3e 00 01 01 00 44 03 44 03 dd 01 dd 01 30 00 30 00 00 0f ff 0f ff 0f ff 0f ff 0f 30 00 30 00 00 0f ff 0f ff 0f ff 0f ff 0f 30 00 30 00 00 0f ff 0f ff 0f ff 0f ff 0f 30 00 30 00 8c 0a 01
[20502.651993] i2c_hid_acpi i2c-FTSC1000:00: input: 3e 00 01 01 00 44 03 44 03 dc 01 dc 01 30 00 30 00 00 0f ff 0f ff 0f ff 0f ff 0f 30 00 30 00 00 0f ff 0f ff 0f ff 0f ff 0f 30 00 30 00 00 0f ff 0f ff 0f ff 0f ff 0f 30 00 30 00 f0 0a 01
[20502.661167] i2c_hid_acpi i2c-FTSC1000:00: input: 3e 00 01 01 00 44 03 44 03 db 01 db 01 30 00 30 00 00 0f ff 0f ff 0f ff 0f ff 0f 30 00 30 00 00 0f ff 0f ff 0f ff 0f ff 0f 30 00 30 00 00 0f ff 0f ff 0f ff 0f ff 0f 30 00 30 00 54 0b 01
[20502.670329] i2c_hid_acpi i2c-FTSC1000:00: input: 3e 00 01 01 00 44 03 44 03 da 01 da 01 30 00 30 00 00 0f ff 0f ff 0f ff 0f ff 0f 30 00 30 00 00 0f ff 0f ff 0f ff 0f ff 0f 30 00 30 00 00 0f ff 0f ff 0f ff 0f ff 0f 30 00 30 00 b8 0b 01
[20502.679593] i2c_hid_acpi i2c-FTSC1000:00: input: 3e 00 01 01 00 44 03 44 03 d9 01 d9 01 30 00 30 00 00 0f ff 0f ff 0f ff 0f ff 0f 30 00 30 00 00 0f ff 0f ff 0f ff 0f ff 0f 30 00 30 00 00 0f ff 0f ff 0f ff 0f ff 0f 30 00 30 00 1c 0c 01
[20502.689804] i2c_hid_acpi i2c-FTSC1000:00: input: 3e 00 01 01 00 44 03 44 03 d8 01 d8 01 30 00 30 00 00 0f ff 0f ff 0f ff 0f ff 0f 30 00 30 00 00 0f ff 0f ff 0f ff 0f ff 0f 30 00 30 00 00 0f ff 0f ff 0f ff 0f ff 0f 30 00 30 00 80 0c 01
[20502.698785] i2c_hid_acpi i2c-FTSC1000:00: input: 3e 00 01 01 00 44 03 44 03 d8 01 d8 01 30 00 30 00 00 0f ff 0f ff 0f ff 0f ff 0f 30 00 30 00 00 0f ff 0f ff 0f ff 0f ff 0f 30 00 30 00 00 0f ff 0f ff 0f ff 0f ff 0f 30 00 30 00 e4 0c 01
[20502.708114] i2c_hid_acpi i2c-FTSC1000:00: input: 3e 00 01 01 00 44 03 44 03 d7 01 d7 01 30 00 30 00 00 0f ff 0f ff 0f ff 0f ff 0f 30 00 30 00 00 0f ff 0f ff 0f ff 0f ff 0f 30 00 30 00 00 0f ff 0f ff 0f ff 0f ff 0f 30 00 30 00 48 0d 01
[20502.717732] i2c_hid_acpi i2c-FTSC1000:00: input: 3e 00 01 01 00 44 03 44 03 d6 01 d6 01 30 00 30 00 00 0f ff 0f ff 0f ff 0f ff 0f 30 00 30 00 00 0f ff 0f ff 0f ff 0f ff 0f 30 00 30 00 00 0f ff 0f ff 0f ff 0f ff 0f 30 00 30 00 ac 0d 01
[20502.726637] i2c_hid_acpi i2c-FTSC1000:00: input: 3e 00 01 01 00 44 03 44 03 d5 01 d5 01 30 00 30 00 00 0f ff 0f ff 0f ff 0f ff 0f 30 00 30 00 00 0f ff 0f ff 0f ff 0f ff 0f 30 00 30 00 00 0f ff 0f ff 0f ff 0f ff 0f 30 00 30 00 10 0e 01
[20502.735931] i2c_hid_acpi i2c-FTSC1000:00: input: 3e 00 01 01 00 44 03 44 03 d5 01 d5 01 30 00 30 00 00 0f ff 0f ff 0f ff 0f ff 0f 30 00 30 00 00 0f ff 0f ff 0f ff 0f ff 0f 30 00 30 00 00 0f ff 0f ff 0f ff 0f ff 0f 30 00 30 00 74 0e 01
[20502.745150] i2c_hid_acpi i2c-FTSC1000:00: input: 3e 00 01 01 00 44 03 44 03 d4 01 d4 01 30 00 30 00 00 0f ff 0f ff 0f ff 0f ff 0f 30 00 30 00 00 0f ff 0f ff 0f ff 0f ff 0f 30 00 30 00 00 0f ff 0f ff 0f ff 0f ff 0f 30 00 30 00 d8 0e 01
[20502.754499] i2c_hid_acpi i2c-FTSC1000:00: input: 3e 00 01 01 00 44 03 44 03 d3 01 d3 01 30 00 30 00 00 0f ff 0f ff 0f ff 0f ff 0f 30 00 30 00 00 0f ff 0f ff 0f ff 0f ff 0f 30 00 30 00 00 0f ff 0f ff 0f ff 0f ff 0f 30 00 30 00 3c 0f 01
[20502.763823] i2c_hid_acpi i2c-FTSC1000:00: input: 3e 00 01 01 00 44 03 44 03 d3 01 d3 01 30 00 30 00 00 0f ff 0f ff 0f ff 0f ff 0f 30 00 30 00 00 0f ff 0f ff 0f ff 0f ff 0f 30 00 30 00 00 0f ff 0f ff 0f ff 0f ff 0f 30 00 30 00 a0 0f 01
[20502.773166] i2c_hid_acpi i2c-FTSC1000:00: input: 3e 00 01 01 00 44 03 44 03 d2 01 d2 01 30 00 30 00 00 0f ff 0f ff 0f ff 0f ff 0f 30 00 30 00 00 0f ff 0f ff 0f ff 0f ff 0f 30 00 30 00 00 0f ff 0f ff 0f ff 0f ff 0f 30 00 30 00 04 10 01
[20502.782520] i2c_hid_acpi i2c-FTSC1000:00: input: 3e 00 01 01 00 44 03 44 03 d2 01 d2 01 30 00 30 00 00 0f ff 0f ff 0f ff 0f ff 0f 30 00 30 00 00 0f ff 0f ff 0f ff 0f ff 0f 30 00 30 00 00 0f ff 0f ff 0f ff 0f ff 0f 30 00 30 00 68 10 01
[20502.791860] i2c_hid_acpi i2c-FTSC1000:00: input: 3e 00 01 01 00 44 03 44 03 d1 01 d1 01 30 00 30 00 00 0f ff 0f ff 0f ff 0f ff 0f 30 00 30 00 00 0f ff 0f ff 0f ff 0f ff 0f 30 00 30 00 00 0f ff 0f ff 0f ff 0f ff 0f 30 00 30 00 cc 10 01
[20502.801749] i2c_hid_acpi i2c-FTSC1000:00: input: 3e 00 01 01 00 44 03 44 03 d1 01 d1 01 30 00 30 00 00 0f ff 0f ff 0f ff 0f ff 0f 30 00 30 00 00 0f ff 0f ff 0f ff 0f ff 0f 30 00 30 00 00 0f ff 0f ff 0f ff 0f ff 0f 30 00 30 00 30 11 01
[20502.810958] i2c_hid_acpi i2c-FTSC1000:00: input: 3e 00 01 01 00 44 03 44 03 d0 01 d0 01 30 00 30 00 00 0f ff 0f ff 0f ff 0f ff 0f 30 00 30 00 00 0f ff 0f ff 0f ff 0f ff 0f 30 00 30 00 00 0f ff 0f ff 0f ff 0f ff 0f 30 00 30 00 94 11 01
[20502.819935] i2c_hid_acpi i2c-FTSC1000:00: input: 3e 00 01 01 00 44 03 44 03 cf 01 cf 01 30 00 30 00 00 0f ff 0f ff 0f ff 0f ff 0f 30 00 30 00 00 0f ff 0f ff 0f ff 0f ff 0f 30 00 30 00 00 0f ff 0f ff 0f ff 0f ff 0f 30 00 30 00 f8 11 01
[20502.829291] i2c_hid_acpi i2c-FTSC1000:00: input: 3e 00 01 01 00 44 03 44 03 ce 01 ce 01 30 00 30 00 00 0f ff 0f ff 0f ff 0f ff 0f 30 00 30 00 00 0f ff 0f ff 0f ff 0f ff 0f 30 00 30 00 00 0f ff 0f ff 0f ff 0f ff 0f 30 00 30 00 5c 12 01
[20502.838635] i2c_hid_acpi i2c-FTSC1000:00: input: 3e 00 01 01 00 43 03 43 03 ce 01 ce 01 30 00 30 00 00 0f ff 0f ff 0f ff 0f ff 0f 30 00 30 00 00 0f ff 0f ff 0f ff 0f ff 0f 30 00 30 00 00 0f ff 0f ff 0f ff 0f ff 0f 30 00 30 00 c0 12 01
[20502.847930] i2c_hid_acpi i2c-FTSC1000:00: input: 3e 00 01 01 00 43 03 43 03 cd 01 cd 01 30 00 30 00 00 0f ff 0f ff 0f ff 0f ff 0f 30 00 30 00 00 0f ff 0f ff 0f ff 0f ff 0f 30 00 30 00 00 0f ff 0f ff 0f ff 0f ff 0f 30 00 30 00 24 13 01
[20502.857274] i2c_hid_acpi i2c-FTSC1000:00: input: 3e 00 01 01 00 43 03 43 03 cc 01 cc 01 30 00 30 00 00 0f ff 0f ff 0f ff 0f ff 0f 30 00 30 00 00 0f ff 0f ff 0f ff 0f ff 0f 30 00 30 00 00 0f ff 0f ff 0f ff 0f ff 0f 30 00 30 00 88 13 01
[20502.866637] i2c_hid_acpi i2c-FTSC1000:00: input: 3e 00 01 01 00 42 03 42 03 cb 01 cb 01 30 00 30 00 00 0f ff 0f ff 0f ff 0f ff 0f 30 00 30 00 00 0f ff 0f ff 0f ff 0f ff 0f 30 00 30 00 00 0f ff 0f ff 0f ff 0f ff 0f 30 00 30 00 ec 13 01
[20502.875945] i2c_hid_acpi i2c-FTSC1000:00: input: 3e 00 01 01 00 42 03 42 03 cb 01 cb 01 30 00 30 00 00 0f ff 0f ff 0f ff 0f ff 0f 30 00 30 00 00 0f ff 0f ff 0f ff 0f ff 0f 30 00 30 00 00 0f ff 0f ff 0f ff 0f ff 0f 30 00 30 00 50 14 01
[20502.885342] i2c_hid_acpi i2c-FTSC1000:00: input: 3e 00 01 01 00 42 03 42 03 ca 01 ca 01 30 00 30 00 00 0f ff 0f ff 0f ff 0f ff 0f 30 00 30 00 00 0f ff 0f ff 0f ff 0f ff 0f 30 00 30 00 00 0f ff 0f ff 0f ff 0f ff 0f 30 00 30 00 b4 14 01
[20502.894567] i2c_hid_acpi i2c-FTSC1000:00: input: 3e 00 01 01 00 42 03 42 03 ca 01 ca 01 30 00 30 00 00 0f ff 0f ff 0f ff 0f ff 0f 30 00 30 00 00 0f ff 0f ff 0f ff 0f ff 0f 30 00 30 00 00 0f ff 0f ff 0f ff 0f ff 0f 30 00 30 00 18 15 01
[20502.903929] i2c_hid_acpi i2c-FTSC1000:00: input: 3e 00 01 01 00 42 03 42 03 c9 01 c9 01 30 00 30 00 00 0f ff 0f ff 0f ff 0f ff 0f 30 00 30 00 00 0f ff 0f ff 0f ff 0f ff 0f 30 00 30 00 00 0f ff 0f ff 0f ff 0f ff 0f 30 00 30 00 7c 15 01
[20502.913259] i2c_hid_acpi i2c-FTSC1000:00: input: 3e 00 01 01 00 42 03 42 03 c9 01 c9 01 30 00 30 00 00 0f ff 0f ff 0f ff 0f ff 0f 30 00 30 00 00 0f ff 0f ff 0f ff 0f ff 0f 30 00 30 00 00 0f ff 0f ff 0f ff 0f ff 0f 30 00 30 00 e0 15 01
[20502.922910] i2c_hid_acpi i2c-FTSC1000:00: input: 3e 00 01 01 00 42 03 42 03 c9 01 c9 01 30 00 30 00 00 0f ff 0f ff 0f ff 0f ff 0f 30 00 30 00 00 0f ff 0f ff 0f ff 0f ff 0f 30 00 30 00 00 0f ff 0f ff 0f ff 0f ff 0f 30 00 30 00 44 16 01
[20502.931903] i2c_hid_acpi i2c-FTSC1000:00: input: 3e 00 01 01 00 42 03 42 03 c8 01 c8 01 30 00 30 00 00 0f ff 0f ff 0f ff 0f ff 0f 30 00 30 00 00 0f ff 0f ff 0f ff 0f ff 0f 30 00 30 00 00 0f ff 0f ff 0f ff 0f ff 0f 30 00 30 00 a8 16 01
[20502.941287] i2c_hid_acpi i2c-FTSC1000:00: input: 3e 00 01 01 00 42 03 42 03 c8 01 c8 01 30 00 30 00 00 0f ff 0f ff 0f ff 0f ff 0f 30 00 30 00 00 0f ff 0f ff 0f ff 0f ff 0f 30 00 30 00 00 0f ff 0f ff 0f ff 0f ff 0f 30 00 30 00 0c 17 01
[20502.950961] i2c_hid_acpi i2c-FTSC1000:00: input: 3e 00 01 01 00 42 03 42 03 c8 01 c8 01 30 00 30 00 00 0f ff 0f ff 0f ff 0f ff 0f 30 00 30 00 00 0f ff 0f ff 0f ff 0f ff 0f 30 00 30 00 00 0f ff 0f ff 0f ff 0f ff 0f 30 00 30 00 70 17 01
[20502.959931] i2c_hid_acpi i2c-FTSC1000:00: input: 3e 00 01 01 00 41 03 41 03 c7 01 c7 01 30 00 30 00 00 0f ff 0f ff 0f ff 0f ff 0f 30 00 30 00 00 0f ff 0f ff 0f ff 0f ff 0f 30 00 30 00 00 0f ff 0f ff 0f ff 0f ff 0f 30 00 30 00 d4 17 01
[20502.969509] i2c_hid_acpi i2c-FTSC1000:00: input: 3e 00 01 01 00 41 03 41 03 c7 01 c7 01 30 00 30 00 00 0f ff 0f ff 0f ff 0f ff 0f 30 00 30 00 00 0f ff 0f ff 0f ff 0f ff 0f 30 00 30 00 00 0f ff 0f ff 0f ff 0f ff 0f 30 00 30 00 38 18 01
[20502.978607] i2c_hid_acpi i2c-FTSC1000:00: input: 3e 00 01 01 00 41 03 41 03 c7 01 c7 01 30 00 30 00 00 0f ff 0f ff 0f ff 0f ff 0f 30 00 30 00 00 0f ff 0f ff 0f ff 0f ff 0f 30 00 30 00 00 0f ff 0f ff 0f ff 0f ff 0f 30 00 30 00 9c 18 01
[20502.987933] i2c_hid_acpi i2c-FTSC1000:00: input: 3e 00 01 01 00 41 03 41 03 c7 01 c7 01 30 00 30 00 00 0f ff 0f ff 0f ff 0f ff 0f 30 00 30 00 00 0f ff 0f ff 0f ff 0f ff 0f 30 00 30 00 00 0f ff 0f ff 0f ff 0f ff 0f 30 00 30 00 00 19 01
[20502.997625] i2c_hid_acpi i2c-FTSC1000:00: input: 3e 00 01 01 00 41 03 41 03 c7 01 c7 01 30 00 30 00 00 0f ff 0f ff 0f ff 0f ff 0f 30 00 30 00 00 0f ff 0f ff 0f ff 0f ff 0f 30 00 30 00 00 0f ff 0f ff 0f ff 0f ff 0f 30 00 30 00 64 19 01
[20503.007070] i2c_hid_acpi i2c-FTSC1000:00: input: 3e 00 01 01 00 41 03 41 03 c7 01 c7 01 30 00 30 00 00 0f ff 0f ff 0f ff 0f ff 0f 30 00 30 00 00 0f ff 0f ff 0f ff 0f ff 0f 30 00 30 00 00 0f ff 0f ff 0f ff 0f ff 0f 30 00 30 00 c8 19 01
[20503.016014] i2c_hid_acpi i2c-FTSC1000:00: input: 3e 00 01 01 00 41 03 41 03 c7 01 c7 01 30 00 30 00 00 0f ff 0f ff 0f ff 0f ff 0f 30 00 30 00 00 0f ff 0f ff 0f ff 0f ff 0f 30 00 30 00 00 0f ff 0f ff 0f ff 0f ff 0f 30 00 30 00 2c 1a 01
[20503.025432] i2c_hid_acpi i2c-FTSC1000:00: input: 3e 00 01 01 00 41 03 41 03 c7 01 c7 01 30 00 30 00 00 0f ff 0f ff 0f ff 0f ff 0f 30 00 30 00 00 0f ff 0f ff 0f ff 0f ff 0f 30 00 30 00 00 0f ff 0f ff 0f ff 0f ff 0f 30 00 30 00 90 1a 01
[20503.035405] i2c_hid_acpi i2c-FTSC1000:00: input: 3e 00 01 01 00 41 03 41 03 c7 01 c7 01 30 00 30 00 00 0f ff 0f ff 0f ff 0f ff 0f 30 00 30 00 00 0f ff 0f ff 0f ff 0f ff 0f 30 00 30 00 00 0f ff 0f ff 0f ff 0f ff 0f 30 00 30 00 f4 1a 01
[20503.044522] i2c_hid_acpi i2c-FTSC1000:00: input: 3e 00 01 01 00 41 03 41 03 c6 01 c6 01 30 00 30 00 00 0f ff 0f ff 0f ff 0f ff 0f 30 00 30 00 00 0f ff 0f ff 0f ff 0f ff 0f 30 00 30 00 00 0f ff 0f ff 0f ff 0f ff 0f 30 00 30 00 58 1b 01
[20503.053788] i2c_hid_acpi i2c-FTSC1000:00: input: 3e 00 01 01 00 41 03 41 03 c6 01 c6 01 30 00 30 00 00 0f ff 0f ff 0f ff 0f ff 0f 30 00 30 00 00 0f ff 0f ff 0f ff 0f ff 0f 30 00 30 00 00 0f ff 0f ff 0f ff 0f ff 0f 30 00 30 00 bc 1b 01
[20503.062771] i2c_hid_acpi i2c-FTSC1000:00: input: 3e 00 01 01 00 41 03 41 03 c6 01 c6 01 30 00 30 00 00 0f ff 0f ff 0f ff 0f ff 0f 30 00 30 00 00 0f ff 0f ff 0f ff 0f ff 0f 30 00 30 00 00 0f ff 0f ff 0f ff 0f ff 0f 30 00 30 00 20 1c 01
[20503.072177] i2c_hid_acpi i2c-FTSC1000:00: input: 3e 00 01 01 00 41 03 41 03 c6 01 c6 01 30 00 30 00 00 0f ff 0f ff 0f ff 0f ff 0f 30 00 30 00 00 0f ff 0f ff 0f ff 0f ff 0f 30 00 30 00 00 0f ff 0f ff 0f ff 0f ff 0f 30 00 30 00 84 1c 01
[20503.081912] i2c_hid_acpi i2c-FTSC1000:00: input: 3e 00 01 01 00 41 03 41 03 c6 01 c6 01 30 00 30 00 00 0f ff 0f ff 0f ff 0f ff 0f 30 00 30 00 00 0f ff 0f ff 0f ff 0f ff 0f 30 00 30 00 00 0f ff 0f ff 0f ff 0f ff 0f 30 00 30 00 e8 1c 01
[20503.091267] i2c_hid_acpi i2c-FTSC1000:00: input: 3e 00 01 01 00 41 03 41 03 c6 01 c6 01 30 00 30 00 00 0f ff 0f ff 0f ff 0f ff 0f 30 00 30 00 00 0f ff 0f ff 0f ff 0f ff 0f 30 00 30 00 00 0f ff 0f ff 0f ff 0f ff 0f 30 00 30 00 4c 1d 01
[20503.100192] i2c_hid_acpi i2c-FTSC1000:00: input: 3e 00 01 01 00 41 03 41 03 c6 01 c6 01 30 00 30 00 00 0f ff 0f ff 0f ff 0f ff 0f 30 00 30 00 00 0f ff 0f ff 0f ff 0f ff 0f 30 00 30 00 00 0f ff 0f ff 0f ff 0f ff 0f 30 00 30 00 b0 1d 01
[20503.109516] i2c_hid_acpi i2c-FTSC1000:00: input: 3e 00 01 01 00 41 03 41 03 c6 01 c6 01 30 00 30 00 00 0f ff 0f ff 0f ff 0f ff 0f 30 00 30 00 00 0f ff 0f ff 0f ff 0f ff 0f 30 00 30 00 00 0f ff 0f ff 0f ff 0f ff 0f 30 00 30 00 14 1e 01
[20503.118854] i2c_hid_acpi i2c-FTSC1000:00: input: 3e 00 01 01 00 41 03 41 03 c6 01 c6 01 30 00 30 00 00 0f ff 0f ff 0f ff 0f ff 0f 30 00 30 00 00 0f ff 0f ff 0f ff 0f ff 0f 30 00 30 00 00 0f ff 0f ff 0f ff 0f ff 0f 30 00 30 00 78 1e 01
[20503.128192] i2c_hid_acpi i2c-FTSC1000:00: input: 3e 00 01 01 00 41 03 41 03 c6 01 c6 01 30 00 30 00 00 0f ff 0f ff 0f ff 0f ff 0f 30 00 30 00 00 0f ff 0f ff 0f ff 0f ff 0f 30 00 30 00 00 0f ff 0f ff 0f ff 0f ff 0f 30 00 30 00 dc 1e 01
[20503.137520] i2c_hid_acpi i2c-FTSC1000:00: input: 3e 00 01 01 00 41 03 41 03 c6 01 c6 01 30 00 30 00 00 0f ff 0f ff 0f ff 0f ff 0f 30 00 30 00 00 0f ff 0f ff 0f ff 0f ff 0f 30 00 30 00 00 0f ff 0f ff 0f ff 0f ff 0f 30 00 30 00 40 1f 01
[20503.146869] i2c_hid_acpi i2c-FTSC1000:00: input: 3e 00 01 01 00 41 03 41 03 c6 01 c6 01 30 00 30 00 00 0f ff 0f ff 0f ff 0f ff 0f 30 00 30 00 00 0f ff 0f ff 0f ff 0f ff 0f 30 00 30 00 00 0f ff 0f ff 0f ff 0f ff 0f 30 00 30 00 a4 1f 01
[20503.156180] i2c_hid_acpi i2c-FTSC1000:00: input: 3e 00 01 01 00 41 03 41 03 c6 01 c6 01 30 00 30 00 00 0f ff 0f ff 0f ff 0f ff 0f 30 00 30 00 00 0f ff 0f ff 0f ff 0f ff 0f 30 00 30 00 00 0f ff 0f ff 0f ff 0f ff 0f 30 00 30 00 08 20 01
[20503.165500] i2c_hid_acpi i2c-FTSC1000:00: input: 3e 00 01 01 00 41 03 41 03 c6 01 c6 01 30 00 30 00 00 0f ff 0f ff 0f ff 0f ff 0f 30 00 30 00 00 0f ff 0f ff 0f ff 0f ff 0f 30 00 30 00 00 0f ff 0f ff 0f ff 0f ff 0f 30 00 30 00 6c 20 01
[20503.174835] i2c_hid_acpi i2c-FTSC1000:00: input: 3e 00 01 01 00 41 03 41 03 c6 01 c6 01 30 00 30 00 00 0f ff 0f ff 0f ff 0f ff 0f 30 00 30 00 00 0f ff 0f ff 0f ff 0f ff 0f 30 00 30 00 00 0f ff 0f ff 0f ff 0f ff 0f 30 00 30 00 d0 20 01
[20503.184210] i2c_hid_acpi i2c-FTSC1000:00: input: 3e 00 01 01 00 41 03 41 03 c7 01 c7 01 30 00 30 00 00 0f ff 0f ff 0f ff 0f ff 0f 30 00 30 00 00 0f ff 0f ff 0f ff 0f ff 0f 30 00 30 00 00 0f ff 0f ff 0f ff 0f ff 0f 30 00 30 00 34 21 01
[20503.193508] i2c_hid_acpi i2c-FTSC1000:00: input: 3e 00 01 01 00 41 03 41 03 c8 01 c8 01 30 00 30 00 00 0f ff 0f ff 0f ff 0f ff 0f 30 00 30 00 00 0f ff 0f ff 0f ff 0f ff 0f 30 00 30 00 00 0f ff 0f ff 0f ff 0f ff 0f 30 00 30 00 98 21 01
[20503.203251] i2c_hid_acpi i2c-FTSC1000:00: input: 3e 00 01 01 00 41 03 41 03 c9 01 c9 01 30 00 30 00 00 0f ff 0f ff 0f ff 0f ff 0f 30 00 30 00 00 0f ff 0f ff 0f ff 0f ff 0f 30 00 30 00 00 0f ff 0f ff 0f ff 0f ff 0f 30 00 30 00 fc 21 01
[20503.212219] i2c_hid_acpi i2c-FTSC1000:00: input: 3e 00 01 01 00 41 03 41 03 cb 01 cb 01 30 00 30 00 00 0f ff 0f ff 0f ff 0f ff 0f 30 00 30 00 00 0f ff 0f ff 0f ff 0f ff 0f 30 00 30 00 00 0f ff 0f ff 0f ff 0f ff 0f 30 00 30 00 60 22 01
[20503.221557] i2c_hid_acpi i2c-FTSC1000:00: input: 3e 00 01 01 00 41 03 41 03 cd 01 cd 01 30 00 30 00 00 0f ff 0f ff 0f ff 0f ff 0f 30 00 30 00 00 0f ff 0f ff 0f ff 0f ff 0f 30 00 30 00 00 0f ff 0f ff 0f ff 0f ff 0f 30 00 30 00 c4 22 01
[20503.230858] i2c_hid_acpi i2c-FTSC1000:00: input: 3e 00 01 01 00 41 03 41 03 cf 01 cf 01 30 00 30 00 00 0f ff 0f ff 0f ff 0f ff 0f 30 00 30 00 00 0f ff 0f ff 0f ff 0f ff 0f 30 00 30 00 00 0f ff 0f ff 0f ff 0f ff 0f 30 00 30 00 28 23 01
[20503.240167] i2c_hid_acpi i2c-FTSC1000:00: input: 3e 00 01 01 00 40 03 40 03 d2 01 d2 01 30 00 30 00 00 0f ff 0f ff 0f ff 0f ff 0f 30 00 30 00 00 0f ff 0f ff 0f ff 0f ff 0f 30 00 30 00 00 0f ff 0f ff 0f ff 0f ff 0f 30 00 30 00 8c 23 01
[20503.249471] i2c_hid_acpi i2c-FTSC1000:00: input: 3e 00 01 01 00 40 03 40 03 d5 01 d5 01 30 00 30 00 00 0f ff 0f ff 0f ff 0f ff 0f 30 00 30 00 00 0f ff 0f ff 0f ff 0f ff 0f 30 00 30 00 00 0f ff 0f ff 0f ff 0f ff 0f 30 00 30 00 f0 23 01
[20503.258788] i2c_hid_acpi i2c-FTSC1000:00: input: 3e 00 01 01 00 40 03 40 03 d8 01 d8 01 30 00 30 00 00 0f ff 0f ff 0f ff 0f ff 0f 30 00 30 00 00 0f ff 0f ff 0f ff 0f ff 0f 30 00 30 00 00 0f ff 0f ff 0f ff 0f ff 0f 30 00 30 00 54 24 01
[20503.268170] i2c_hid_acpi i2c-FTSC1000:00: input: 3e 00 01 01 00 40 03 40 03 db 01 db 01 30 00 30 00 00 0f ff 0f ff 0f ff 0f ff 0f 30 00 30 00 00 0f ff 0f ff 0f ff 0f ff 0f 30 00 30 00 00 0f ff 0f ff 0f ff 0f ff 0f 30 00 30 00 b8 24 01
[20503.277799] i2c_hid_acpi i2c-FTSC1000:00: input: 3e 00 01 01 00 40 03 40 03 de 01 de 01 30 00 30 00 00 0f ff 0f ff 0f ff 0f ff 0f 30 00 30 00 00 0f ff 0f ff 0f ff 0f ff 0f 30 00 30 00 00 0f ff 0f ff 0f ff 0f ff 0f 30 00 30 00 1c 25 01
[20503.286867] i2c_hid_acpi i2c-FTSC1000:00: input: 3e 00 01 01 00 40 03 40 03 e1 01 e1 01 30 00 30 00 00 0f ff 0f ff 0f ff 0f ff 0f 30 00 30 00 00 0f ff 0f ff 0f ff 0f ff 0f 30 00 30 00 00 0f ff 0f ff 0f ff 0f ff 0f 30 00 30 00 80 25 01
[20503.296565] i2c_hid_acpi i2c-FTSC1000:00: input: 3e 00 01 01 00 3f 03 3f 03 e3 01 e3 01 30 00 30 00 00 0f ff 0f ff 0f ff 0f ff 0f 30 00 30 00 00 0f ff 0f ff 0f ff 0f ff 0f 30 00 30 00 00 0f ff 0f ff 0f ff 0f ff 0f 30 00 30 00 e4 25 01
[20503.305968] i2c_hid_acpi i2c-FTSC1000:00: input: 3e 00 01 01 00 3f 03 3f 03 e5 01 e5 01 30 00 30 00 00 0f ff 0f ff 0f ff 0f ff 0f 30 00 30 00 00 0f ff 0f ff 0f ff 0f ff 0f 30 00 30 00 00 0f ff 0f ff 0f ff 0f ff 0f 30 00 30 00 48 26 01
[20503.314879] i2c_hid_acpi i2c-FTSC1000:00: input: 3e 00 01 01 00 3f 03 3f 03 e7 01 e7 01 30 00 30 00 00 0f ff 0f ff 0f ff 0f ff 0f 30 00 30 00 00 0f ff 0f ff 0f ff 0f ff 0f 30 00 30 00 00 0f ff 0f ff 0f ff 0f ff 0f 30 00 30 00 ac 26 01
[20503.324251] i2c_hid_acpi i2c-FTSC1000:00: input: 3e 00 01 01 00 3f 03 3f 03 e9 01 e9 01 30 00 30 00 00 0f ff 0f ff 0f ff 0f ff 0f 30 00 30 00 00 0f ff 0f ff 0f ff 0f ff 0f 30 00 30 00 00 0f ff 0f ff 0f ff 0f ff 0f 30 00 30 00 10 27 01
[20503.333925] i2c_hid_acpi i2c-FTSC1000:00: input: 3e 00 01 01 00 3f 03 3f 03 eb 01 eb 01 30 00 30 00 00 0f ff 0f ff 0f ff 0f ff 0f 30 00 30 00 00 0f ff 0f ff 0f ff 0f ff 0f 30 00 30 00 00 0f ff 0f ff 0f ff 0f ff 0f 30 00 30 00 74 27 01
[20503.343089] i2c_hid_acpi i2c-FTSC1000:00: input: 3e 00 01 01 00 3f 03 3f 03 ec 01 ec 01 30 00 30 00 00 0f ff 0f ff 0f ff 0f ff 0f 30 00 30 00 00 0f ff 0f ff 0f ff 0f ff 0f 30 00 30 00 00 0f ff 0f ff 0f ff 0f ff 0f 30 00 30 00 d8 27 01
[20503.352315] i2c_hid_acpi i2c-FTSC1000:00: input: 3e 00 01 01 00 3f 03 3f 03 ed 01 ed 01 30 00 30 00 00 0f ff 0f ff 0f ff 0f ff 0f 30 00 30 00 00 0f ff 0f ff 0f ff 0f ff 0f 30 00 30 00 00 0f ff 0f ff 0f ff 0f ff 0f 30 00 30 00 3c 28 01
[20503.361611] i2c_hid_acpi i2c-FTSC1000:00: input: 3e 00 01 01 00 3f 03 3f 03 ee 01 ee 01 30 00 30 00 00 0f ff 0f ff 0f ff 0f ff 0f 30 00 30 00 00 0f ff 0f ff 0f ff 0f ff 0f 30 00 30 00 00 0f ff 0f ff 0f ff 0f ff 0f 30 00 30 00 a0 28 01
[20503.371290] i2c_hid_acpi i2c-FTSC1000:00: input: 3e 00 01 01 00 3f 03 3f 03 ee 01 ee 01 30 00 30 00 00 0f ff 0f ff 0f ff 0f ff 0f 30 00 30 00 00 0f ff 0f ff 0f ff 0f ff 0f 30 00 30 00 00 0f ff 0f ff 0f ff 0f ff 0f 30 00 30 00 04 29 01
[20503.380285] i2c_hid_acpi i2c-FTSC1000:00: input: 3e 00 01 01 00 3f 03 3f 03 ee 01 ee 01 30 00 30 00 00 0f ff 0f ff 0f ff 0f ff 0f 30 00 30 00 00 0f ff 0f ff 0f ff 0f ff 0f 30 00 30 00 00 0f ff 0f ff 0f ff 0f ff 0f 30 00 30 00 68 29 01
[20503.389661] i2c_hid_acpi i2c-FTSC1000:00: input: 3e 00 01 01 00 3f 03 3f 03 ef 01 ef 01 30 00 30 00 00 0f ff 0f ff 0f ff 0f ff 0f 30 00 30 00 00 0f ff 0f ff 0f ff 0f ff 0f 30 00 30 00 00 0f ff 0f ff 0f ff 0f ff 0f 30 00 30 00 cc 29 01
[20503.398978] i2c_hid_acpi i2c-FTSC1000:00: input: 3e 00 01 01 00 3f 03 3f 03 ef 01 ef 01 30 00 30 00 00 0f ff 0f ff 0f ff 0f ff 0f 30 00 30 00 00 0f ff 0f ff 0f ff 0f ff 0f 30 00 30 00 00 0f ff 0f ff 0f ff 0f ff 0f 30 00 30 00 30 2a 01
[20503.408313] i2c_hid_acpi i2c-FTSC1000:00: input: 3e 00 01 01 00 3f 03 3f 03 f0 01 f0 01 30 00 30 00 00 0f ff 0f ff 0f ff 0f ff 0f 30 00 30 00 00 0f ff 0f ff 0f ff 0f ff 0f 30 00 30 00 00 0f ff 0f ff 0f ff 0f ff 0f 30 00 30 00 94 2a 01
[20503.417597] i2c_hid_acpi i2c-FTSC1000:00: input: 3e 00 01 01 00 40 03 40 03 f1 01 f1 01 30 00 30 00 00 0f ff 0f ff 0f ff 0f ff 0f 30 00 30 00 00 0f ff 0f ff 0f ff 0f ff 0f 30 00 30 00 00 0f ff 0f ff 0f ff 0f ff 0f 30 00 30 00 f8 2a 01
[20503.427196] i2c_hid_acpi i2c-FTSC1000:00: input: 3e 00 01 01 00 40 03 40 03 f2 01 f2 01 30 00 30 00 00 0f ff 0f ff 0f ff 0f ff 0f 30 00 30 00 00 0f ff 0f ff 0f ff 0f ff 0f 30 00 30 00 00 0f ff 0f ff 0f ff 0f ff 0f 30 00 30 00 5c 2b 01
[20503.435715] i2c_hid_acpi i2c-FTSC1000:00: input: 3e 00 01 00 00 40 03 40 03 f2 01 f2 01 30 00 30 00 00 0f ff 0f ff 0f ff 0f ff 0f 30 00 30 00 00 0f ff 0f ff 0f ff 0f ff 0f 30 00 30 00 00 0f ff 0f ff 0f ff 0f ff 0f 30 00 30 00 c0 2b 01
[20504.042937] i2c_hid_acpi i2c-FTSC1000:00: input: 3e 00 01 01 00 4e 03 4e 03 f5 01 f5 01 30 00 30 00 00 0f ff 0f ff 0f ff 0f ff 0f 30 00 30 00 00 0f ff 0f ff 0f ff 0f ff 0f 30 00 30 00 00 0f ff 0f ff 0f ff 0f ff 0f 30 00 30 00 00 00 01
[20504.052248] i2c_hid_acpi i2c-FTSC1000:00: input: 3e 00 01 01 00 4e 03 4e 03 f5 01 f5 01 30 00 30 00 00 0f ff 0f ff 0f ff 0f ff 0f 30 00 30 00 00 0f ff 0f ff 0f ff 0f ff 0f 30 00 30 00 00 0f ff 0f ff 0f ff 0f ff 0f 30 00 30 00 64 00 01
[20504.061479] i2c_hid_acpi i2c-FTSC1000:00: input: 3e 00 01 01 00 4e 03 4e 03 f5 01 f5 01 30 00 30 00 00 0f ff 0f ff 0f ff 0f ff 0f 30 00 30 00 00 0f ff 0f ff 0f ff 0f ff 0f 30 00 30 00 00 0f ff 0f ff 0f ff 0f ff 0f 30 00 30 00 c8 00 01
[20504.070616] i2c_hid_acpi i2c-FTSC1000:00: input: 3e 00 01 01 00 4e 03 4e 03 f5 01 f5 01 30 00 30 00 00 0f ff 0f ff 0f ff 0f ff 0f 30 00 30 00 00 0f ff 0f ff 0f ff 0f ff 0f 30 00 30 00 00 0f ff 0f ff 0f ff 0f ff 0f 30 00 30 00 2c 01 01
[20504.079960] i2c_hid_acpi i2c-FTSC1000:00: input: 3e 00 01 01 00 4e 03 4e 03 f5 01 f5 01 30 00 30 00 00 0f ff 0f ff 0f ff 0f ff 0f 30 00 30 00 00 0f ff 0f ff 0f ff 0f ff 0f 30 00 30 00 00 0f ff 0f ff 0f ff 0f ff 0f 30 00 30 00 90 01 01
[20504.090259] i2c_hid_acpi i2c-FTSC1000:00: input: 3e 00 01 01 00 4e 03 4e 03 f5 01 f5 01 30 00 30 00 00 0f ff 0f ff 0f ff 0f ff 0f 30 00 30 00 00 0f ff 0f ff 0f ff 0f ff 0f 30 00 30 00 00 0f ff 0f ff 0f ff 0f ff 0f 30 00 30 00 f4 01 01
[20504.098785] i2c_hid_acpi i2c-FTSC1000:00: input: 3e 00 01 01 00 4e 03 4e 03 f5 01 f5 01 30 00 30 00 00 0f ff 0f ff 0f ff 0f ff 0f 30 00 30 00 00 0f ff 0f ff 0f ff 0f ff 0f 30 00 30 00 00 0f ff 0f ff 0f ff 0f ff 0f 30 00 30 00 58 02 01
[20504.108011] i2c_hid_acpi i2c-FTSC1000:00: input: 3e 00 01 01 00 4e 03 4e 03 f5 01 f5 01 30 00 30 00 00 0f ff 0f ff 0f ff 0f ff 0f 30 00 30 00 00 0f ff 0f ff 0f ff 0f ff 0f 30 00 30 00 00 0f ff 0f ff 0f ff 0f ff 0f 30 00 30 00 bc 02 01
[20504.117597] i2c_hid_acpi i2c-FTSC1000:00: input: 3e 00 01 01 00 4e 03 4e 03 f5 01 f5 01 30 00 30 00 00 0f ff 0f ff 0f ff 0f ff 0f 30 00 30 00 00 0f ff 0f ff 0f ff 0f ff 0f 30 00 30 00 00 0f ff 0f ff 0f ff 0f ff 0f 30 00 30 00 20 03 01
[20504.126800] i2c_hid_acpi i2c-FTSC1000:00: input: 3e 00 01 01 00 4e 03 4e 03 f5 01 f5 01 30 00 30 00 00 0f ff 0f ff 0f ff 0f ff 0f 30 00 30 00 00 0f ff 0f ff 0f ff 0f ff 0f 30 00 30 00 00 0f ff 0f ff 0f ff 0f ff 0f 30 00 30 00 84 03 01
[20504.136008] i2c_hid_acpi i2c-FTSC1000:00: input: 3e 00 01 01 00 4e 03 4e 03 f5 01 f5 01 30 00 30 00 00 0f ff 0f ff 0f ff 0f ff 0f 30 00 30 00 00 0f ff 0f ff 0f ff 0f ff 0f 30 00 30 00 00 0f ff 0f ff 0f ff 0f ff 0f 30 00 30 00 e8 03 01
[20504.145332] i2c_hid_acpi i2c-FTSC1000:00: input: 3e 00 01 01 00 4e 03 4e 03 f5 01 f5 01 30 00 30 00 00 0f ff 0f ff 0f ff 0f ff 0f 30 00 30 00 00 0f ff 0f ff 0f ff 0f ff 0f 30 00 30 00 00 0f ff 0f ff 0f ff 0f ff 0f 30 00 30 00 4c 04 01
[20504.154685] i2c_hid_acpi i2c-FTSC1000:00: input: 3e 00 01 01 00 4e 03 4e 03 f5 01 f5 01 30 00 30 00 00 0f ff 0f ff 0f ff 0f ff 0f 30 00 30 00 00 0f ff 0f ff 0f ff 0f ff 0f 30 00 30 00 00 0f ff 0f ff 0f ff 0f ff 0f 30 00 30 00 b0 04 01
[20504.164005] i2c_hid_acpi i2c-FTSC1000:00: input: 3e 00 01 01 00 4e 03 4e 03 f5 01 f5 01 30 00 30 00 00 0f ff 0f ff 0f ff 0f ff 0f 30 00 30 00 00 0f ff 0f ff 0f ff 0f ff 0f 30 00 30 00 00 0f ff 0f ff 0f ff 0f ff 0f 30 00 30 00 14 05 01
[20504.174375] i2c_hid_acpi i2c-FTSC1000:00: input: 3e 00 01 01 00 4e 03 4e 03 f5 01 f5 01 30 00 30 00 00 0f ff 0f ff 0f ff 0f ff 0f 30 00 30 00 00 0f ff 0f ff 0f ff 0f ff 0f 30 00 30 00 00 0f ff 0f ff 0f ff 0f ff 0f 30 00 30 00 78 05 01
[20504.182668] i2c_hid_acpi i2c-FTSC1000:00: input: 3e 00 01 01 00 4e 03 4e 03 f5 01 f5 01 30 00 30 00 00 0f ff 0f ff 0f ff 0f ff 0f 30 00 30 00 00 0f ff 0f ff 0f ff 0f ff 0f 30 00 30 00 00 0f ff 0f ff 0f ff 0f ff 0f 30 00 30 00 dc 05 01
[20504.192021] i2c_hid_acpi i2c-FTSC1000:00: input: 3e 00 01 01 00 4e 03 4e 03 f2 01 f2 01 30 00 30 00 00 0f ff 0f ff 0f ff 0f ff 0f 30 00 30 00 00 0f ff 0f ff 0f ff 0f ff 0f 30 00 30 00 00 0f ff 0f ff 0f ff 0f ff 0f 30 00 30 00 40 06 01
[20504.201332] i2c_hid_acpi i2c-FTSC1000:00: input: 3e 00 01 01 00 4e 03 4e 03 f2 01 f2 01 30 00 30 00 00 0f ff 0f ff 0f ff 0f ff 0f 30 00 30 00 00 0f ff 0f ff 0f ff 0f ff 0f 30 00 30 00 00 0f ff 0f ff 0f ff 0f ff 0f 30 00 30 00 a4 06 01
[20504.210623] i2c_hid_acpi i2c-FTSC1000:00: input: 3e 00 01 01 00 4f 03 4f 03 ef 01 ef 01 30 00 30 00 00 0f ff 0f ff 0f ff 0f ff 0f 30 00 30 00 00 0f ff 0f ff 0f ff 0f ff 0f 30 00 30 00 00 0f ff 0f ff 0f ff 0f ff 0f 30 00 30 00 08 07 01
[20504.220023] i2c_hid_acpi i2c-FTSC1000:00: input: 3e 00 01 01 00 4f 03 4f 03 ee 01 ee 01 30 00 30 00 00 0f ff 0f ff 0f ff 0f ff 0f 30 00 30 00 00 0f ff 0f ff 0f ff 0f ff 0f 30 00 30 00 00 0f ff 0f ff 0f ff 0f ff 0f 30 00 30 00 6c 07 01
[20504.229807] i2c_hid_acpi i2c-FTSC1000:00: input: 3e 00 01 01 00 4f 03 4f 03 ec 01 ec 01 30 00 30 00 00 0f ff 0f ff 0f ff 0f ff 0f 30 00 30 00 00 0f ff 0f ff 0f ff 0f ff 0f 30 00 30 00 00 0f ff 0f ff 0f ff 0f ff 0f 30 00 30 00 d0 07 01
[20504.238740] i2c_hid_acpi i2c-FTSC1000:00: input: 3e 00 01 01 00 50 03 50 03 ea 01 ea 01 30 00 30 00 00 0f ff 0f ff 0f ff 0f ff 0f 30 00 30 00 00 0f ff 0f ff 0f ff 0f ff 0f 30 00 30 00 00 0f ff 0f ff 0f ff 0f ff 0f 30 00 30 00 34 08 01
[20504.248055] i2c_hid_acpi i2c-FTSC1000:00: input: 3e 00 01 01 00 50 03 50 03 e8 01 e8 01 30 00 30 00 00 0f ff 0f ff 0f ff 0f ff 0f 30 00 30 00 00 0f ff 0f ff 0f ff 0f ff 0f 30 00 30 00 00 0f ff 0f ff 0f ff 0f ff 0f 30 00 30 00 98 08 01
[20504.258202] i2c_hid_acpi i2c-FTSC1000:00: input: 3e 00 01 01 00 50 03 50 03 e6 01 e6 01 30 00 30 00 00 0f ff 0f ff 0f ff 0f ff 0f 30 00 30 00 00 0f ff 0f ff 0f ff 0f ff 0f 30 00 30 00 00 0f ff 0f ff 0f ff 0f ff 0f 30 00 30 00 fc 08 01
[20504.266872] i2c_hid_acpi i2c-FTSC1000:00: input: 3e 00 01 01 00 51 03 51 03 e5 01 e5 01 30 00 30 00 00 0f ff 0f ff 0f ff 0f ff 0f 30 00 30 00 00 0f ff 0f ff 0f ff 0f ff 0f 30 00 30 00 00 0f ff 0f ff 0f ff 0f ff 0f 30 00 30 00 60 09 01
[20504.276187] i2c_hid_acpi i2c-FTSC1000:00: input: 3e 00 01 01 00 51 03 51 03 e3 01 e3 01 30 00 30 00 00 0f ff 0f ff 0f ff 0f ff 0f 30 00 30 00 00 0f ff 0f ff 0f ff 0f ff 0f 30 00 30 00 00 0f ff 0f ff 0f ff 0f ff 0f 30 00 30 00 c4 09 01
[20504.285419] i2c_hid_acpi i2c-FTSC1000:00: input: 3e 00 01 01 00 51 03 51 03 e2 01 e2 01 30 00 30 00 00 0f ff 0f ff 0f ff 0f ff 0f 30 00 30 00 00 0f ff 0f ff 0f ff 0f ff 0f 30 00 30 00 00 0f ff 0f ff 0f ff 0f ff 0f 30 00 30 00 28 0a 01
[20504.294865] i2c_hid_acpi i2c-FTSC1000:00: input: 3e 00 01 01 00 52 03 52 03 e0 01 e0 01 30 00 30 00 00 0f ff 0f ff 0f ff 0f ff 0f 30 00 30 00 00 0f ff 0f ff 0f ff 0f ff 0f 30 00 30 00 00 0f ff 0f ff 0f ff 0f ff 0f 30 00 30 00 8c 0a 01
[20504.304490] i2c_hid_acpi i2c-FTSC1000:00: input: 3e 00 01 01 00 53 03 53 03 de 01 de 01 30 00 30 00 00 0f ff 0f ff 0f ff 0f ff 0f 30 00 30 00 00 0f ff 0f ff 0f ff 0f ff 0f 30 00 30 00 00 0f ff 0f ff 0f ff 0f ff 0f 30 00 30 00 f0 0a 01
[20504.313453] i2c_hid_acpi i2c-FTSC1000:00: input: 3e 00 01 01 00 53 03 53 03 dd 01 dd 01 30 00 30 00 00 0f ff 0f ff 0f ff 0f ff 0f 30 00 30 00 00 0f ff 0f ff 0f ff 0f ff 0f 30 00 30 00 00 0f ff 0f ff 0f ff 0f ff 0f 30 00 30 00 54 0b 01
[20504.322919] i2c_hid_acpi i2c-FTSC1000:00: input: 3e 00 01 01 00 53 03 53 03 dc 01 dc 01 30 00 30 00 00 0f ff 0f ff 0f ff 0f ff 0f 30 00 30 00 00 0f ff 0f ff 0f ff 0f ff 0f 30 00 30 00 00 0f ff 0f ff 0f ff 0f ff 0f 30 00 30 00 b8 0b 01
[20504.332249] i2c_hid_acpi i2c-FTSC1000:00: input: 3e 00 01 01 00 54 03 54 03 db 01 db 01 30 00 30 00 00 0f ff 0f ff 0f ff 0f ff 0f 30 00 30 00 00 0f ff 0f ff 0f ff 0f ff 0f 30 00 30 00 00 0f ff 0f ff 0f ff 0f ff 0f 30 00 30 00 1c 0c 01
[20504.341498] i2c_hid_acpi i2c-FTSC1000:00: input: 3e 00 01 01 00 54 03 54 03 da 01 da 01 30 00 30 00 00 0f ff 0f ff 0f ff 0f ff 0f 30 00 30 00 00 0f ff 0f ff 0f ff 0f ff 0f 30 00 30 00 00 0f ff 0f ff 0f ff 0f ff 0f 30 00 30 00 80 0c 01
[20504.350829] i2c_hid_acpi i2c-FTSC1000:00: input: 3e 00 01 01 00 54 03 54 03 d9 01 d9 01 30 00 30 00 00 0f ff 0f ff 0f ff 0f ff 0f 30 00 30 00 00 0f ff 0f ff 0f ff 0f ff 0f 30 00 30 00 00 0f ff 0f ff 0f ff 0f ff 0f 30 00 30 00 e4 0c 01
[20504.360191] i2c_hid_acpi i2c-FTSC1000:00: input: 3e 00 01 01 00 54 03 54 03 d8 01 d8 01 30 00 30 00 00 0f ff 0f ff 0f ff 0f ff 0f 30 00 30 00 00 0f ff 0f ff 0f ff 0f ff 0f 30 00 30 00 00 0f ff 0f ff 0f ff 0f ff 0f 30 00 30 00 48 0d 01
[20504.369735] i2c_hid_acpi i2c-FTSC1000:00: input: 3e 00 01 01 00 55 03 55 03 d8 01 d8 01 30 00 30 00 00 0f ff 0f ff 0f ff 0f ff 0f 30 00 30 00 00 0f ff 0f ff 0f ff 0f ff 0f 30 00 30 00 00 0f ff 0f ff 0f ff 0f ff 0f 30 00 30 00 ac 0d 01
[20504.378845] i2c_hid_acpi i2c-FTSC1000:00: input: 3e 00 01 01 00 55 03 55 03 d7 01 d7 01 30 00 30 00 00 0f ff 0f ff 0f ff 0f ff 0f 30 00 30 00 00 0f ff 0f ff 0f ff 0f ff 0f 30 00 30 00 00 0f ff 0f ff 0f ff 0f ff 0f 30 00 30 00 10 0e 01
[20504.388183] i2c_hid_acpi i2c-FTSC1000:00: input: 3e 00 01 01 00 55 03 55 03 d7 01 d7 01 30 00 30 00 00 0f ff 0f ff 0f ff 0f ff 0f 30 00 30 00 00 0f ff 0f ff 0f ff 0f ff 0f 30 00 30 00 00 0f ff 0f ff 0f ff 0f ff 0f 30 00 30 00 74 0e 01
[20504.397574] i2c_hid_acpi i2c-FTSC1000:00: input: 3e 00 01 01 00 55 03 55 03 d6 01 d6 01 30 00 30 00 00 0f ff 0f ff 0f ff 0f ff 0f 30 00 30 00 00 0f ff 0f ff 0f ff 0f ff 0f 30 00 30 00 00 0f ff 0f ff 0f ff 0f ff 0f 30 00 30 00 d8 0e 01
[20504.406836] i2c_hid_acpi i2c-FTSC1000:00: input: 3e 00 01 01 00 55 03 55 03 d5 01 d5 01 30 00 30 00 00 0f ff 0f ff 0f ff 0f ff 0f 30 00 30 00 00 0f ff 0f ff 0f ff 0f ff 0f 30 00 30 00 00 0f ff 0f ff 0f ff 0f ff 0f 30 00 30 00 3c 0f 01
[20504.416146] i2c_hid_acpi i2c-FTSC1000:00: input: 3e 00 01 01 00 55 03 55 03 d5 01 d5 01 30 00 30 00 00 0f ff 0f ff 0f ff 0f ff 0f 30 00 30 00 00 0f ff 0f ff 0f ff 0f ff 0f 30 00 30 00 00 0f ff 0f ff 0f ff 0f ff 0f 30 00 30 00 a0 0f 01
[20504.425492] i2c_hid_acpi i2c-FTSC1000:00: input: 3e 00 01 01 00 55 03 55 03 d5 01 d5 01 30 00 30 00 00 0f ff 0f ff 0f ff 0f ff 0f 30 00 30 00 00 0f ff 0f ff 0f ff 0f ff 0f 30 00 30 00 00 0f ff 0f ff 0f ff 0f ff 0f 30 00 30 00 04 10 01
[20504.434844] i2c_hid_acpi i2c-FTSC1000:00: input: 3e 00 01 01 00 55 03 55 03 d4 01 d4 01 30 00 30 00 00 0f ff 0f ff 0f ff 0f ff 0f 30 00 30 00 00 0f ff 0f ff 0f ff 0f ff 0f 30 00 30 00 00 0f ff 0f ff 0f ff 0f ff 0f 30 00 30 00 68 10 01
[20504.444148] i2c_hid_acpi i2c-FTSC1000:00: input: 3e 00 01 01 00 55 03 55 03 d4 01 d4 01 30 00 30 00 00 0f ff 0f ff 0f ff 0f ff 0f 30 00 30 00 00 0f ff 0f ff 0f ff 0f ff 0f 30 00 30 00 00 0f ff 0f ff 0f ff 0f ff 0f 30 00 30 00 cc 10 01
[20504.453467] i2c_hid_acpi i2c-FTSC1000:00: input: 3e 00 01 01 00 55 03 55 03 d4 01 d4 01 30 00 30 00 00 0f ff 0f ff 0f ff 0f ff 0f 30 00 30 00 00 0f ff 0f ff 0f ff 0f ff 0f 30 00 30 00 00 0f ff 0f ff 0f ff 0f ff 0f 30 00 30 00 30 11 01
[20504.462873] i2c_hid_acpi i2c-FTSC1000:00: input: 3e 00 01 01 00 55 03 55 03 d4 01 d4 01 30 00 30 00 00 0f ff 0f ff 0f ff 0f ff 0f 30 00 30 00 00 0f ff 0f ff 0f ff 0f ff 0f 30 00 30 00 00 0f ff 0f ff 0f ff 0f ff 0f 30 00 30 00 94 11 01
[20504.472150] i2c_hid_acpi i2c-FTSC1000:00: input: 3e 00 01 01 00 55 03 55 03 d3 01 d3 01 30 00 30 00 00 0f ff 0f ff 0f ff 0f ff 0f 30 00 30 00 00 0f ff 0f ff 0f ff 0f ff 0f 30 00 30 00 00 0f ff 0f ff 0f ff 0f ff 0f 30 00 30 00 f8 11 01
[20504.481431] i2c_hid_acpi i2c-FTSC1000:00: input: 3e 00 01 01 00 55 03 55 03 d3 01 d3 01 30 00 30 00 00 0f ff 0f ff 0f ff 0f ff 0f 30 00 30 00 00 0f ff 0f ff 0f ff 0f ff 0f 30 00 30 00 00 0f ff 0f ff 0f ff 0f ff 0f 30 00 30 00 5c 12 01
[20504.491315] i2c_hid_acpi i2c-FTSC1000:00: input: 3e 00 01 01 00 55 03 55 03 d3 01 d3 01 30 00 30 00 00 0f ff 0f ff 0f ff 0f ff 0f 30 00 30 00 00 0f ff 0f ff 0f ff 0f ff 0f 30 00 30 00 00 0f ff 0f ff 0f ff 0f ff 0f 30 00 30 00 c0 12 01
[20504.500232] i2c_hid_acpi i2c-FTSC1000:00: input: 3e 00 01 01 00 55 03 55 03 d3 01 d3 01 30 00 30 00 00 0f ff 0f ff 0f ff 0f ff 0f 30 00 30 00 00 0f ff 0f ff 0f ff 0f ff 0f 30 00 30 00 00 0f ff 0f ff 0f ff 0f ff 0f 30 00 30 00 24 13 01
[20504.509539] i2c_hid_acpi i2c-FTSC1000:00: input: 3e 00 01 01 00 55 03 55 03 d2 01 d2 01 30 00 30 00 00 0f ff 0f ff 0f ff 0f ff 0f 30 00 30 00 00 0f ff 0f ff 0f ff 0f ff 0f 30 00 30 00 00 0f ff 0f ff 0f ff 0f ff 0f 30 00 30 00 88 13 01
[20504.518875] i2c_hid_acpi i2c-FTSC1000:00: input: 3e 00 01 01 00 55 03 55 03 d2 01 d2 01 30 00 30 00 00 0f ff 0f ff 0f ff 0f ff 0f 30 00 30 00 00 0f ff 0f ff 0f ff 0f ff 0f 30 00 30 00 00 0f ff 0f ff 0f ff 0f ff 0f 30 00 30 00 ec 13 01
[20504.528216] i2c_hid_acpi i2c-FTSC1000:00: input: 3e 00 01 01 00 55 03 55 03 d2 01 d2 01 30 00 30 00 00 0f ff 0f ff 0f ff 0f ff 0f 30 00 30 00 00 0f ff 0f ff 0f ff 0f ff 0f 30 00 30 00 00 0f ff 0f ff 0f ff 0f ff 0f 30 00 30 00 50 14 01
[20504.537458] i2c_hid_acpi i2c-FTSC1000:00: input: 3e 00 01 01 00 55 03 55 03 d2 01 d2 01 30 00 30 00 00 0f ff 0f ff 0f ff 0f ff 0f 30 00 30 00 00 0f ff 0f ff 0f ff 0f ff 0f 30 00 30 00 00 0f ff 0f ff 0f ff 0f ff 0f 30 00 30 00 b4 14 01
[20504.546986] i2c_hid_acpi i2c-FTSC1000:00: input: 3e 00 01 01 00 55 03 55 03 d2 01 d2 01 30 00 30 00 00 0f ff 0f ff 0f ff 0f ff 0f 30 00 30 00 00 0f ff 0f ff 0f ff 0f ff 0f 30 00 30 00 00 0f ff 0f ff 0f ff 0f ff 0f 30 00 30 00 18 15 01
[20504.556135] i2c_hid_acpi i2c-FTSC1000:00: input: 3e 00 01 01 00 55 03 55 03 d1 01 d1 01 30 00 30 00 00 0f ff 0f ff 0f ff 0f ff 0f 30 00 30 00 00 0f ff 0f ff 0f ff 0f ff 0f 30 00 30 00 00 0f ff 0f ff 0f ff 0f ff 0f 30 00 30 00 7c 15 01
[20504.565856] i2c_hid_acpi i2c-FTSC1000:00: input: 3e 00 01 01 00 55 03 55 03 d1 01 d1 01 30 00 30 00 00 0f ff 0f ff 0f ff 0f ff 0f 30 00 30 00 00 0f ff 0f ff 0f ff 0f ff 0f 30 00 30 00 00 0f ff 0f ff 0f ff 0f ff 0f 30 00 30 00 e0 15 01
[20504.574823] i2c_hid_acpi i2c-FTSC1000:00: input: 3e 00 01 01 00 55 03 55 03 d1 01 d1 01 30 00 30 00 00 0f ff 0f ff 0f ff 0f ff 0f 30 00 30 00 00 0f ff 0f ff 0f ff 0f ff 0f 30 00 30 00 00 0f ff 0f ff 0f ff 0f ff 0f 30 00 30 00 44 16 01
[20504.584143] i2c_hid_acpi i2c-FTSC1000:00: input: 3e 00 01 01 00 55 03 55 03 d1 01 d1 01 30 00 30 00 00 0f ff 0f ff 0f ff 0f ff 0f 30 00 30 00 00 0f ff 0f ff 0f ff 0f ff 0f 30 00 30 00 00 0f ff 0f ff 0f ff 0f ff 0f 30 00 30 00 a8 16 01
[20504.593493] i2c_hid_acpi i2c-FTSC1000:00: input: 3e 00 01 01 00 55 03 55 03 d1 01 d1 01 30 00 30 00 00 0f ff 0f ff 0f ff 0f ff 0f 30 00 30 00 00 0f ff 0f ff 0f ff 0f ff 0f 30 00 30 00 00 0f ff 0f ff 0f ff 0f ff 0f 30 00 30 00 0c 17 01
[20504.603156] i2c_hid_acpi i2c-FTSC1000:00: input: 3e 00 01 01 00 55 03 55 03 d1 01 d1 01 30 00 30 00 00 0f ff 0f ff 0f ff 0f ff 0f 30 00 30 00 00 0f ff 0f ff 0f ff 0f ff 0f 30 00 30 00 00 0f ff 0f ff 0f ff 0f ff 0f 30 00 30 00 70 17 01
[20504.612165] i2c_hid_acpi i2c-FTSC1000:00: input: 3e 00 01 01 00 55 03 55 03 d1 01 d1 01 30 00 30 00 00 0f ff 0f ff 0f ff 0f ff 0f 30 00 30 00 00 0f ff 0f ff 0f ff 0f ff 0f 30 00 30 00 00 0f ff 0f ff 0f ff 0f ff 0f 30 00 30 00 d4 17 01
[20504.621501] i2c_hid_acpi i2c-FTSC1000:00: input: 3e 00 01 01 00 55 03 55 03 d1 01 d1 01 30 00 30 00 00 0f ff 0f ff 0f ff 0f ff 0f 30 00 30 00 00 0f ff 0f ff 0f ff 0f ff 0f 30 00 30 00 00 0f ff 0f ff 0f ff 0f ff 0f 30 00 30 00 38 18 01
[20504.630837] i2c_hid_acpi i2c-FTSC1000:00: input: 3e 00 01 01 00 55 03 55 03 d1 01 d1 01 30 00 30 00 00 0f ff 0f ff 0f ff 0f ff 0f 30 00 30 00 00 0f ff 0f ff 0f ff 0f ff 0f 30 00 30 00 00 0f ff 0f ff 0f ff 0f ff 0f 30 00 30 00 9c 18 01
[20504.640166] i2c_hid_acpi i2c-FTSC1000:00: input: 3e 00 01 01 00 55 03 55 03 d0 01 d0 01 30 00 30 00 00 0f ff 0f ff 0f ff 0f ff 0f 30 00 30 00 00 0f ff 0f ff 0f ff 0f ff 0f 30 00 30 00 00 0f ff 0f ff 0f ff 0f ff 0f 30 00 30 00 00 19 01
[20504.649485] i2c_hid_acpi i2c-FTSC1000:00: input: 3e 00 01 01 00 55 03 55 03 d0 01 d0 01 30 00 30 00 00 0f ff 0f ff 0f ff 0f ff 0f 30 00 30 00 00 0f ff 0f ff 0f ff 0f ff 0f 30 00 30 00 00 0f ff 0f ff 0f ff 0f ff 0f 30 00 30 00 64 19 01
[20504.658816] i2c_hid_acpi i2c-FTSC1000:00: input: 3e 00 01 01 00 55 03 55 03 d0 01 d0 01 30 00 30 00 00 0f ff 0f ff 0f ff 0f ff 0f 30 00 30 00 00 0f ff 0f ff 0f ff 0f ff 0f 30 00 30 00 00 0f ff 0f ff 0f ff 0f ff 0f 30 00 30 00 c8 19 01
[20504.669019] i2c_hid_acpi i2c-FTSC1000:00: input: 3e 00 01 01 00 55 03 55 03 d0 01 d0 01 30 00 30 00 00 0f ff 0f ff 0f ff 0f ff 0f 30 00 30 00 00 0f ff 0f ff 0f ff 0f ff 0f 30 00 30 00 00 0f ff 0f ff 0f ff 0f ff 0f 30 00 30 00 2c 1a 01
[20504.677694] i2c_hid_acpi i2c-FTSC1000:00: input: 3e 00 01 01 00 55 03 55 03 d0 01 d0 01 30 00 30 00 00 0f ff 0f ff 0f ff 0f ff 0f 30 00 30 00 00 0f ff 0f ff 0f ff 0f ff 0f 30 00 30 00 00 0f ff 0f ff 0f ff 0f ff 0f 30 00 30 00 90 1a 01
[20504.687009] i2c_hid_acpi i2c-FTSC1000:00: input: 3e 00 01 01 00 55 03 55 03 d0 01 d0 01 30 00 30 00 00 0f ff 0f ff 0f ff 0f ff 0f 30 00 30 00 00 0f ff 0f ff 0f ff 0f ff 0f 30 00 30 00 00 0f ff 0f ff 0f ff 0f ff 0f 30 00 30 00 f4 1a 01
[20504.696230] i2c_hid_acpi i2c-FTSC1000:00: input: 3e 00 01 01 00 55 03 55 03 d0 01 d0 01 30 00 30 00 00 0f ff 0f ff 0f ff 0f ff 0f 30 00 30 00 00 0f ff 0f ff 0f ff 0f ff 0f 30 00 30 00 00 0f ff 0f ff 0f ff 0f ff 0f 30 00 30 00 58 1b 01
[20504.705566] i2c_hid_acpi i2c-FTSC1000:00: input: 3e 00 01 01 00 55 03 55 03 d0 01 d0 01 30 00 30 00 00 0f ff 0f ff 0f ff 0f ff 0f 30 00 30 00 00 0f ff 0f ff 0f ff 0f ff 0f 30 00 30 00 00 0f ff 0f ff 0f ff 0f ff 0f 30 00 30 00 bc 1b 01
[20504.714876] i2c_hid_acpi i2c-FTSC1000:00: input: 3e 00 01 01 00 55 03 55 03 d0 01 d0 01 30 00 30 00 00 0f ff 0f ff 0f ff 0f ff 0f 30 00 30 00 00 0f ff 0f ff 0f ff 0f ff 0f 30 00 30 00 00 0f ff 0f ff 0f ff 0f ff 0f 30 00 30 00 20 1c 01
[20504.724263] i2c_hid_acpi i2c-FTSC1000:00: input: 3e 00 01 01 00 55 03 55 03 d0 01 d0 01 30 00 30 00 00 0f ff 0f ff 0f ff 0f ff 0f 30 00 30 00 00 0f ff 0f ff 0f ff 0f ff 0f 30 00 30 00 00 0f ff 0f ff 0f ff 0f ff 0f 30 00 30 00 84 1c 01
[20504.733501] i2c_hid_acpi i2c-FTSC1000:00: input: 3e 00 01 01 00 55 03 55 03 d0 01 d0 01 30 00 30 00 00 0f ff 0f ff 0f ff 0f ff 0f 30 00 30 00 00 0f ff 0f ff 0f ff 0f ff 0f 30 00 30 00 00 0f ff 0f ff 0f ff 0f ff 0f 30 00 30 00 e8 1c 01
[20504.742837] i2c_hid_acpi i2c-FTSC1000:00: input: 3e 00 01 01 00 55 03 55 03 d0 01 d0 01 30 00 30 00 00 0f ff 0f ff 0f ff 0f ff 0f 30 00 30 00 00 0f ff 0f ff 0f ff 0f ff 0f 30 00 30 00 00 0f ff 0f ff 0f ff 0f ff 0f 30 00 30 00 4c 1d 01
[20504.752368] i2c_hid_acpi i2c-FTSC1000:00: input: 3e 00 01 01 00 55 03 55 03 d0 01 d0 01 30 00 30 00 00 0f ff 0f ff 0f ff 0f ff 0f 30 00 30 00 00 0f ff 0f ff 0f ff 0f ff 0f 30 00 30 00 00 0f ff 0f ff 0f ff 0f ff 0f 30 00 30 00 b0 1d 01
[20504.761504] i2c_hid_acpi i2c-FTSC1000:00: input: 3e 00 01 01 00 55 03 55 03 cf 01 cf 01 30 00 30 00 00 0f ff 0f ff 0f ff 0f ff 0f 30 00 30 00 00 0f ff 0f ff 0f ff 0f ff 0f 30 00 30 00 00 0f ff 0f ff 0f ff 0f ff 0f 30 00 30 00 14 1e 01
[20504.770814] i2c_hid_acpi i2c-FTSC1000:00: input: 3e 00 01 01 00 55 03 55 03 cf 01 cf 01 30 00 30 00 00 0f ff 0f ff 0f ff 0f ff 0f 30 00 30 00 00 0f ff 0f ff 0f ff 0f ff 0f 30 00 30 00 00 0f ff 0f ff 0f ff 0f ff 0f 30 00 30 00 78 1e 01
[20504.780279] i2c_hid_acpi i2c-FTSC1000:00: input: 3e 00 01 01 00 55 03 55 03 cf 01 cf 01 30 00 30 00 00 0f ff 0f ff 0f ff 0f ff 0f 30 00 30 00 00 0f ff 0f ff 0f ff 0f ff 0f 30 00 30 00 00 0f ff 0f ff 0f ff 0f ff 0f 30 00 30 00 dc 1e 01
[20504.789566] i2c_hid_acpi i2c-FTSC1000:00: input: 3e 00 01 01 00 55 03 55 03 cf 01 cf 01 30 00 30 00 00 0f ff 0f ff 0f ff 0f ff 0f 30 00 30 00 00 0f ff 0f ff 0f ff 0f ff 0f 30 00 30 00 00 0f ff 0f ff 0f ff 0f ff 0f 30 00 30 00 40 1f 01
[20504.798961] i2c_hid_acpi i2c-FTSC1000:00: input: 3e 00 01 01 00 55 03 55 03 cf 01 cf 01 30 00 30 00 00 0f ff 0f ff 0f ff 0f ff 0f 30 00 30 00 00 0f ff 0f ff 0f ff 0f ff 0f 30 00 30 00 00 0f ff 0f ff 0f ff 0f ff 0f 30 00 30 00 a4 1f 01
[20504.808186] i2c_hid_acpi i2c-FTSC1000:00: input: 3e 00 01 01 00 55 03 55 03 cf 01 cf 01 30 00 30 00 00 0f ff 0f ff 0f ff 0f ff 0f 30 00 30 00 00 0f ff 0f ff 0f ff 0f ff 0f 30 00 30 00 00 0f ff 0f ff 0f ff 0f ff 0f 30 00 30 00 08 20 01
[20504.817504] i2c_hid_acpi i2c-FTSC1000:00: input: 3e 00 01 01 00 55 03 55 03 cf 01 cf 01 30 00 30 00 00 0f ff 0f ff 0f ff 0f ff 0f 30 00 30 00 00 0f ff 0f ff 0f ff 0f ff 0f 30 00 30 00 00 0f ff 0f ff 0f ff 0f ff 0f 30 00 30 00 6c 20 01
[20504.826810] i2c_hid_acpi i2c-FTSC1000:00: input: 3e 00 01 01 00 55 03 55 03 cf 01 cf 01 30 00 30 00 00 0f ff 0f ff 0f ff 0f ff 0f 30 00 30 00 00 0f ff 0f ff 0f ff 0f ff 0f 30 00 30 00 00 0f ff 0f ff 0f ff 0f ff 0f 30 00 30 00 d0 20 01
[20504.836142] i2c_hid_acpi i2c-FTSC1000:00: input: 3e 00 01 01 00 55 03 55 03 cf 01 cf 01 30 00 30 00 00 0f ff 0f ff 0f ff 0f ff 0f 30 00 30 00 00 0f ff 0f ff 0f ff 0f ff 0f 30 00 30 00 00 0f ff 0f ff 0f ff 0f ff 0f 30 00 30 00 34 21 01
[20504.845898] i2c_hid_acpi i2c-FTSC1000:00: input: 3e 00 01 01 00 55 03 55 03 ce 01 ce 01 30 00 30 00 00 0f ff 0f ff 0f ff 0f ff 0f 30 00 30 00 00 0f ff 0f ff 0f ff 0f ff 0f 30 00 30 00 00 0f ff 0f ff 0f ff 0f ff 0f 30 00 30 00 98 21 01
[20504.855213] i2c_hid_acpi i2c-FTSC1000:00: input: 3e 00 01 01 00 55 03 55 03 ce 01 ce 01 30 00 30 00 00 0f ff 0f ff 0f ff 0f ff 0f 30 00 30 00 00 0f ff 0f ff 0f ff 0f ff 0f 30 00 30 00 00 0f ff 0f ff 0f ff 0f ff 0f 30 00 30 00 fc 21 01
[20504.864222] i2c_hid_acpi i2c-FTSC1000:00: input: 3e 00 01 01 00 55 03 55 03 ce 01 ce 01 30 00 30 00 00 0f ff 0f ff 0f ff 0f ff 0f 30 00 30 00 00 0f ff 0f ff 0f ff 0f ff 0f 30 00 30 00 00 0f ff 0f ff 0f ff 0f ff 0f 30 00 30 00 60 22 01
[20504.873746] i2c_hid_acpi i2c-FTSC1000:00: input: 3e 00 01 01 00 55 03 55 03 ce 01 ce 01 30 00 30 00 00 0f ff 0f ff 0f ff 0f ff 0f 30 00 30 00 00 0f ff 0f ff 0f ff 0f ff 0f 30 00 30 00 00 0f ff 0f ff 0f ff 0f ff 0f 30 00 30 00 c4 22 01
[20504.882942] i2c_hid_acpi i2c-FTSC1000:00: input: 3e 00 01 01 00 55 03 55 03 ce 01 ce 01 30 00 30 00 00 0f ff 0f ff 0f ff 0f ff 0f 30 00 30 00 00 0f ff 0f ff 0f ff 0f ff 0f 30 00 30 00 00 0f ff 0f ff 0f ff 0f ff 0f 30 00 30 00 28 23 01
[20504.892198] i2c_hid_acpi i2c-FTSC1000:00: input: 3e 00 01 01 00 54 03 54 03 ce 01 ce 01 30 00 30 00 00 0f ff 0f ff 0f ff 0f ff 0f 30 00 30 00 00 0f ff 0f ff 0f ff 0f ff 0f 30 00 30 00 00 0f ff 0f ff 0f ff 0f ff 0f 30 00 30 00 8c 23 01
[20504.901892] i2c_hid_acpi i2c-FTSC1000:00: input: 3e 00 01 01 00 54 03 54 03 ce 01 ce 01 30 00 30 00 00 0f ff 0f ff 0f ff 0f ff 0f 30 00 30 00 00 0f ff 0f ff 0f ff 0f ff 0f 30 00 30 00 00 0f ff 0f ff 0f ff 0f ff 0f 30 00 30 00 f0 23 01
