[ 2802.397364] i2c_hid i2c-ELAN0501:00: input: 0e 00 04 01 0c 07 fd 03 12 b3 01 80 12 11
[ 2802.740134] i2c_hid i2c-ELAN0501:00: input: 0e 00 04 03 3c 07 ff 03 78 c0 01 80 16 43
[ 2802.746910] i2c_hid i2c-ELAN0501:00: input: 0e 00 04 03 3c 07 ff 03 be c0 01 80 16 43
[ 2802.753862] i2c_hid i2c-ELAN0501:00: input: 0e 00 04 03 3c 07 ff 03 04 c1 01 80 16 43
[ 2802.761139] i2c_hid i2c-ELAN0501:00: input: 0e 00 04 03 3c 07 ff 03 4a c1 01 80 16 43
[ 2802.767867] i2c_hid i2c-ELAN0501:00: input: 0e 00 04 03 3c 07 ff 03 90 c1 01 80 16 43
[ 2802.774836] i2c_hid i2c-ELAN0501:00: input: 0e 00 04 03 3c 07 ff 03 d6 c1 01 80 16 43
[ 2802.781936] i2c_hid i2c-ELAN0501:00: input: 0e 00 04 03 3c 07 ff 03 1c c2 01 80 16 43
[ 2802.789011] i2c_hid i2c-ELAN0501:00: input: 0e 00 04 03 3c 07 ff 03 62 c2 01 80 16 43
[ 2802.796079] i2c_hid i2c-ELAN0501:00: input: 0e 00 04 03 3c 07 ff 03 a8 c2 01 80 16 43
[ 2802.802881] i2c_hid i2c-ELAN0501:00: input: 0e 00 04 03 3c 07 ff 03 ee c2 01 80 16 43
[ 2802.810001] i2c_hid i2c-ELAN0501:00: input: 0e 00 04 03 3c 07 ff 03 34 c3 01 80 16 43
[ 2802.817089] i2c_hid i2c-ELAN0501:00: input: 0e 00 04 03 3b 07 fe 03 7a c3 01 80 16 43
[ 2802.823996] i2c_hid i2c-ELAN0501:00: input: 0e 00 04 03 39 07 fc 03 c0 c3 01 80 16 43
[ 2802.831061] i2c_hid i2c-ELAN0501:00: input: 0e 00 04 03 33 07 f5 03 06 c4 01 80 17 33
[ 2802.837844] i2c_hid i2c-ELAN0501:00: input: 0e 00 04 03 2a 07 eb 03 4c c4 01 80 17 33
[ 2802.844868] i2c_hid i2c-ELAN0501:00: input: 0e 00 04 03 1c 07 dd 03 92 c4 01 80 17 33
[ 2802.851988] i2c_hid i2c-ELAN0501:00: input: 0e 00 04 03 0c 07 cd 03 d8 c4 01 80 17 33
[ 2802.858814] i2c_hid i2c-ELAN0501:00: input: 0e 00 04 03 00 07 c2 03 1e c5 01 80 18 32
[ 2802.865814] i2c_hid i2c-ELAN0501:00: input: 0e 00 04 03 f7 06 ba 03 64 c5 01 80 18 32
[ 2802.872822] i2c_hid i2c-ELAN0501:00: input: 0e 00 04 03 f1 06 b5 03 aa c5 01 80 18 32
[ 2802.879756] i2c_hid i2c-ELAN0501:00: input: 0e 00 04 03 ed 06 b1 03 f0 c5 01 80 18 32
[ 2802.886747] i2c_hid i2c-ELAN0501:00: input: 0e 00 04 03 ea 06 af 03 36 c6 01 80 18 32
[ 2802.893585] i2c_hid i2c-ELAN0501:00: input: 0e 00 04 03 e8 06 ae 03 7c c6 01 80 18 32
[ 2802.900728] i2c_hid i2c-ELAN0501:00: input: 0e 00 04 03 e6 06 ad 03 c2 c6 01 80 18 32
[ 2802.907649] i2c_hid i2c-ELAN0501:00: input: 0e 00 04 03 e5 06 ad 03 08 c7 01 80 18 32
[ 2802.914762] i2c_hid i2c-ELAN0501:00: input: 0e 00 04 03 e4 06 ad 03 4e c7 01 80 18 32
[ 2802.921728] i2c_hid i2c-ELAN0501:00: input: 0e 00 04 03 e3 06 ad 03 94 c7 01 80 18 32
[ 2802.928704] i2c_hid i2c-ELAN0501:00: input: 0e 00 04 03 e2 06 ad 03 da c7 01 80 18 32
[ 2802.935650] i2c_hid i2c-ELAN0501:00: input: 0e 00 04 03 e1 06 ad 03 20 c8 01 80 19 32
[ 2802.942668] i2c_hid i2c-ELAN0501:00: input: 0e 00 04 03 e0 06 ad 03 66 c8 01 80 19 32
[ 2802.949775] i2c_hid i2c-ELAN0501:00: input: 0e 00 04 03 df 06 ad 03 ac c8 01 80 19 32
[ 2802.956811] i2c_hid i2c-ELAN0501:00: input: 0e 00 04 03 de 06 ad 03 f2 c8 01 80 19 32
[ 2802.963568] i2c_hid i2c-ELAN0501:00: input: 0e 00 04 03 dd 06 ad 03 38 c9 01 80 19 32
[ 2802.970598] i2c_hid i2c-ELAN0501:00: input: 0e 00 04 03 dc 06 ad 03 7e c9 01 80 19 32
[ 2802.977632] i2c_hid i2c-ELAN0501:00: input: 0e 00 04 03 db 06 ad 03 c4 c9 01 80 19 32
[ 2802.984575] i2c_hid i2c-ELAN0501:00: input: 0e 00 04 03 da 06 ad 03 0a ca 01 80 19 32
[ 2802.991409] i2c_hid i2c-ELAN0501:00: input: 0e 00 04 03 d9 06 ad 03 50 ca 01 80 19 32
[ 2802.998562] i2c_hid i2c-ELAN0501:00: input: 0e 00 04 03 d8 06 ad 03 96 ca 01 80 19 32
[ 2803.005545] i2c_hid i2c-ELAN0501:00: input: 0e 00 04 03 d8 06 ae 03 dc ca 01 80 19 32
[ 2803.012556] i2c_hid i2c-ELAN0501:00: input: 0e 00 04 03 d8 06 af 03 22 cb 01 80 19 32
[ 2803.019489] i2c_hid i2c-ELAN0501:00: input: 0e 00 04 03 d8 06 b0 03 68 cb 01 80 1a 32
[ 2803.026567] i2c_hid i2c-ELAN0501:00: input: 0e 00 04 03 d8 06 b1 03 ae cb 01 80 1a 32
[ 2803.033646] i2c_hid i2c-ELAN0501:00: input: 0e 00 04 03 d8 06 b2 03 f4 cb 01 80 1a 32
[ 2803.040610] i2c_hid i2c-ELAN0501:00: input: 0e 00 04 03 d8 06 b3 03 3a cc 01 80 1a 32
[ 2803.047648] i2c_hid i2c-ELAN0501:00: input: 0e 00 04 03 d8 06 b4 03 80 cc 01 80 1a 32
[ 2803.054562] i2c_hid i2c-ELAN0501:00: input: 0e 00 04 03 d8 06 b5 03 c6 cc 01 80 1a 32
[ 2803.061497] i2c_hid i2c-ELAN0501:00: input: 0e 00 04 03 d8 06 b6 03 0c cd 01 80 1a 32
[ 2803.068419] i2c_hid i2c-ELAN0501:00: input: 0e 00 04 03 d8 06 b7 03 52 cd 01 80 1a 32
[ 2803.075532] i2c_hid i2c-ELAN0501:00: input: 0e 00 04 03 d8 06 b8 03 98 cd 01 80 1a 32
[ 2803.082396] i2c_hid i2c-ELAN0501:00: input: 0e 00 04 03 d8 06 b9 03 de cd 01 80 1a 32
[ 2803.089248] i2c_hid i2c-ELAN0501:00: input: 0e 00 04 03 d8 06 ba 03 24 ce 01 80 1a 32
[ 2803.096423] i2c_hid i2c-ELAN0501:00: input: 0e 00 04 03 d8 06 bb 03 6a ce 01 80 1a 32
[ 2803.103282] i2c_hid i2c-ELAN0501:00: input: 0e 00 04 03 d8 06 bc 03 b0 ce 01 80 1a 42
[ 2803.110495] i2c_hid i2c-ELAN0501:00: input: 0e 00 04 03 d8 06 bd 03 f6 ce 01 80 1a 32
[ 2803.117475] i2c_hid i2c-ELAN0501:00: input: 0e 00 04 03 d8 06 be 03 3c cf 01 80 1a 42
[ 2803.124445] i2c_hid i2c-ELAN0501:00: input: 0e 00 04 03 d8 06 bf 03 82 cf 01 80 1a 42
[ 2803.131469] i2c_hid i2c-ELAN0501:00: input: 0e 00 04 03 d7 06 c0 03 c8 cf 01 80 1a 42
[ 2803.138365] i2c_hid i2c-ELAN0501:00: input: 0e 00 04 03 d7 06 c1 03 0e d0 01 80 1a 42
[ 2803.145381] i2c_hid i2c-ELAN0501:00: input: 0e 00 04 03 d7 06 c2 03 54 d0 01 80 1a 42
[ 2803.152390] i2c_hid i2c-ELAN0501:00: input: 0e 00 04 03 d7 06 c3 03 9a d0 01 80 1a 42
[ 2803.159313] i2c_hid i2c-ELAN0501:00: input: 0e 00 04 03 d6 06 c4 03 e0 d0 01 80 1a 42
[ 2803.166233] i2c_hid i2c-ELAN0501:00: input: 0e 00 04 03 d6 06 c5 03 26 d1 01 80 1a 32
[ 2803.173068] i2c_hid i2c-ELAN0501:00: input: 0e 00 04 03 d5 06 c6 03 6c d1 01 80 1a 32
[ 2803.180196] i2c_hid i2c-ELAN0501:00: input: 0e 00 04 03 d4 06 c7 03 b2 d1 01 80 1a 32
[ 2803.187191] i2c_hid i2c-ELAN0501:00: input: 0e 00 04 03 d3 06 c7 03 f8 d1 01 80 1a 32
[ 2803.194321] i2c_hid i2c-ELAN0501:00: input: 0e 00 04 03 d2 06 c7 03 3e d2 01 80 1a 33
[ 2803.201323] i2c_hid i2c-ELAN0501:00: input: 0e 00 04 03 d1 06 c7 03 84 d2 01 80 1a 33
[ 2803.208315] i2c_hid i2c-ELAN0501:00: input: 0e 00 04 03 cf 06 c7 03 ca d2 01 80 1a 33
[ 2803.215142] i2c_hid i2c-ELAN0501:00: input: 0e 00 04 03 cb 06 c7 03 10 d3 01 80 1a 33
[ 2803.222147] i2c_hid i2c-ELAN0501:00: input: 0e 00 04 03 c6 06 c6 03 56 d3 01 80 1a 33
[ 2803.229216] i2c_hid i2c-ELAN0501:00: input: 0e 00 04 03 bf 06 c5 03 9c d3 01 80 1a 33
[ 2803.235876] i2c_hid i2c-ELAN0501:00: input: 0e 00 04 03 b8 06 c3 03 e2 d3 01 80 1a 33
[ 2803.243106] i2c_hid i2c-ELAN0501:00: input: 0e 00 04 03 b1 06 c1 03 28 d4 01 80 1a 33
[ 2803.249952] i2c_hid i2c-ELAN0501:00: input: 0e 00 04 03 ac 06 c0 03 6e d4 01 80 1a 33
[ 2803.256963] i2c_hid i2c-ELAN0501:00: input: 0e 00 04 03 a8 06 bf 03 b4 d4 01 80 1a 33
[ 2803.264087] i2c_hid i2c-ELAN0501:00: input: 0e 00 04 03 a4 06 be 03 fa d4 01 80 1a 33
[ 2803.271011] i2c_hid i2c-ELAN0501:00: input: 0e 00 04 03 a1 06 be 03 40 d5 01 80 1a 33
[ 2803.277833] i2c_hid i2c-ELAN0501:00: input: 0e 00 04 03 9f 06 be 03 86 d5 01 80 1a 33
[ 2803.284901] i2c_hid i2c-ELAN0501:00: input: 0e 00 04 03 9d 06 be 03 cc d5 01 80 1a 33
[ 2803.291939] i2c_hid i2c-ELAN0501:00: input: 0e 00 04 03 9b 06 be 03 12 d6 01 80 1a 33
[ 2803.298882] i2c_hid i2c-ELAN0501:00: input: 0e 00 04 03 99 06 be 03 58 d6 01 80 1a 33
[ 2803.305994] i2c_hid i2c-ELAN0501:00: input: 0e 00 04 03 97 06 be 03 9e d6 01 80 1a 33
[ 2803.313183] i2c_hid i2c-ELAN0501:00: input: 0e 00 04 03 95 06 be 03 e4 d6 01 80 1a 33
[ 2803.319925] i2c_hid i2c-ELAN0501:00: input: 0e 00 04 03 94 06 be 03 2a d7 01 80 1a 33
[ 2803.326939] i2c_hid i2c-ELAN0501:00: input: 0e 00 04 03 93 06 be 03 70 d7 01 80 1a 33
[ 2803.334074] i2c_hid i2c-ELAN0501:00: input: 0e 00 04 03 92 06 be 03 b6 d7 01 80 1a 33
[ 2803.341055] i2c_hid i2c-ELAN0501:00: input: 0e 00 04 03 91 06 be 03 fc d7 01 80 1a 33
[ 2803.347988] i2c_hid i2c-ELAN0501:00: input: 0e 00 04 03 90 06 be 03 42 d8 01 80 1a 33
[ 2803.354925] i2c_hid i2c-ELAN0501:00: input: 0e 00 04 03 8f 06 be 03 88 d8 01 80 1a 33
[ 2803.361873] i2c_hid i2c-ELAN0501:00: input: 0e 00 04 03 8e 06 be 03 ce d8 01 80 1a 33
[ 2803.368842] i2c_hid i2c-ELAN0501:00: input: 0e 00 04 03 8d 06 be 03 14 d9 01 80 1a 33
[ 2803.375849] i2c_hid i2c-ELAN0501:00: input: 0e 00 04 03 8c 06 be 03 5a d9 01 80 1a 33
[ 2803.382751] i2c_hid i2c-ELAN0501:00: input: 0e 00 04 03 8b 06 be 03 a0 d9 01 80 19 33
[ 2803.389732] i2c_hid i2c-ELAN0501:00: input: 0e 00 04 03 8a 06 be 03 e6 d9 01 80 17 33
[ 2803.397009] i2c_hid i2c-ELAN0501:00: input: 0e 00 04 03 89 06 be 03 2c da 01 80 15 33
[ 2803.403737] i2c_hid i2c-ELAN0501:00: input: 0e 00 04 03 89 06 be 03 72 da 01 80 15 11
[ 2803.410779] i2c_hid i2c-ELAN0501:00: input: 0e 00 04 01 89 06 be 03 b8 da 01 80 15 11
[ 2803.508676] i2c_hid i2c-ELAN0501:00: input: 0e 00 04 03 98 06 e4 03 8c de 01 80 16 43
[ 2803.515718] i2c_hid i2c-ELAN0501:00: input: 0e 00 04 03 98 06 e4 03 d2 de 01 80 16 43
[ 2803.522564] i2c_hid i2c-ELAN0501:00: input: 0e 00 04 03 98 06 e4 03 18 df 01 80 17 43
[ 2803.529543] i2c_hid i2c-ELAN0501:00: input: 0e 00 04 03 98 06 e4 03 5e df 01 80 18 43
[ 2803.536541] i2c_hid i2c-ELAN0501:00: input: 0e 00 04 03 98 06 e4 03 a4 df 01 80 18 43
[ 2803.543662] i2c_hid i2c-ELAN0501:00: input: 0e 00 04 03 98 06 e4 03 ea df 01 80 19 43
[ 2803.550495] i2c_hid i2c-ELAN0501:00: input: 0e 00 04 03 98 06 e4 03 30 e0 01 80 19 43
[ 2803.557461] i2c_hid i2c-ELAN0501:00: input: 0e 00 04 03 98 06 e4 03 76 e0 01 80 19 43
[ 2803.564427] i2c_hid i2c-ELAN0501:00: input: 0e 00 04 03 98 06 e4 03 bc e0 01 80 19 43
[ 2803.571613] i2c_hid i2c-ELAN0501:00: input: 0e 00 04 03 98 06 e4 03 02 e1 01 80 19 43
[ 2803.578578] i2c_hid i2c-ELAN0501:00: input: 0e 00 04 03 98 06 e4 03 48 e1 01 80 19 43
[ 2803.585570] i2c_hid i2c-ELAN0501:00: input: 0e 00 04 03 98 06 e4 03 8e e1 01 80 19 43
[ 2803.592301] i2c_hid i2c-ELAN0501:00: input: 0e 00 04 03 98 06 e4 03 d4 e1 01 80 18 33
[ 2803.599499] i2c_hid i2c-ELAN0501:00: input: 0e 00 04 03 98 06 e4 03 1a e2 01 80 16 33
[ 2803.606405] i2c_hid i2c-ELAN0501:00: input: 0e 00 04 03 98 06 e4 03 60 e2 01 80 14 33
[ 2803.613502] i2c_hid i2c-ELAN0501:00: input: 0e 00 04 03 98 06 e4 03 a6 e2 01 80 14 11
[ 2803.620525] i2c_hid i2c-ELAN0501:00: input: 0e 00 04 01 98 06 e4 03 ec e2 01 80 14 11
[ 2804.018747] i2c_hid i2c-ELAN0501:00: input: 0e 00 04 03 08 06 d8 03 82 f2 01 80 17 33
[ 2804.025680] i2c_hid i2c-ELAN0501:00: input: 0e 00 04 03 08 06 d8 03 c8 f2 01 80 17 33
[ 2804.032943] i2c_hid i2c-ELAN0501:00: input: 0e 00 04 03 08 06 d8 03 0e f3 01 80 17 33
[ 2804.039798] i2c_hid i2c-ELAN0501:00: input: 0e 00 04 03 08 06 d8 03 54 f3 01 80 17 43
[ 2804.046601] i2c_hid i2c-ELAN0501:00: input: 0e 00 04 03 08 06 d8 03 9a f3 01 80 17 43
[ 2804.053641] i2c_hid i2c-ELAN0501:00: input: 0e 00 04 03 09 06 d7 03 e0 f3 01 80 17 33
[ 2804.060735] i2c_hid i2c-ELAN0501:00: input: 0e 00 04 03 0a 06 d5 03 26 f4 01 80 18 33
[ 2804.067696] i2c_hid i2c-ELAN0501:00: input: 0e 00 04 03 0d 06 d3 03 6c f4 01 80 18 33
[ 2804.074578] i2c_hid i2c-ELAN0501:00: input: 0e 00 04 03 11 06 d0 03 b2 f4 01 80 18 44
[ 2804.081674] i2c_hid i2c-ELAN0501:00: input: 0e 00 04 03 15 06 cd 03 f8 f4 01 80 18 34
[ 2804.088670] i2c_hid i2c-ELAN0501:00: input: 0e 00 04 03 1c 06 c9 03 3e f5 01 80 18 34
[ 2804.095613] i2c_hid i2c-ELAN0501:00: input: 0e 00 04 03 24 06 c4 03 84 f5 01 80 18 34
[ 2804.102476] i2c_hid i2c-ELAN0501:00: input: 0e 00 04 03 2e 06 bf 03 ca f5 01 80 18 34
[ 2804.109414] i2c_hid i2c-ELAN0501:00: input: 0e 00 04 03 3a 06 ba 03 10 f6 01 80 18 34
[ 2804.116264] i2c_hid i2c-ELAN0501:00: input: 0e 00 04 03 46 06 b6 03 56 f6 01 80 18 33
[ 2804.123420] i2c_hid i2c-ELAN0501:00: input: 0e 00 04 03 52 06 b3 03 9c f6 01 80 18 33
[ 2804.130316] i2c_hid i2c-ELAN0501:00: input: 0e 00 04 03 5e 06 b0 03 e2 f6 01 80 18 33
[ 2804.137553] i2c_hid i2c-ELAN0501:00: input: 0e 00 04 03 68 06 ae 03 28 f7 01 80 18 33
[ 2804.144453] i2c_hid i2c-ELAN0501:00: input: 0e 00 04 03 72 06 ad 03 6e f7 01 80 18 33
[ 2804.151332] i2c_hid i2c-ELAN0501:00: input: 0e 00 04 03 7c 06 ac 03 b4 f7 01 80 18 33
[ 2804.158408] i2c_hid i2c-ELAN0501:00: input: 0e 00 04 03 84 06 ab 03 fa f7 01 80 18 33
[ 2804.165428] i2c_hid i2c-ELAN0501:00: input: 0e 00 04 03 8b 06 ab 03 40 f8 01 80 18 33
[ 2804.172418] i2c_hid i2c-ELAN0501:00: input: 0e 00 04 03 90 06 ab 03 86 f8 01 80 18 33
[ 2804.179145] i2c_hid i2c-ELAN0501:00: input: 0e 00 04 03 94 06 ab 03 cc f8 01 80 18 33
[ 2804.186324] i2c_hid i2c-ELAN0501:00: input: 0e 00 04 03 98 06 ab 03 12 f9 01 80 18 33
[ 2804.193311] i2c_hid i2c-ELAN0501:00: input: 0e 00 04 03 9c 06 ab 03 58 f9 01 80 18 33
[ 2804.200280] i2c_hid i2c-ELAN0501:00: input: 0e 00 04 03 9f 06 ab 03 9e f9 01 80 18 33
[ 2804.207395] i2c_hid i2c-ELAN0501:00: input: 0e 00 04 03 a1 06 ab 03 e4 f9 01 80 18 33
[ 2804.214246] i2c_hid i2c-ELAN0501:00: input: 0e 00 04 03 a3 06 ab 03 2a fa 01 80 18 33
[ 2804.221259] i2c_hid i2c-ELAN0501:00: input: 0e 00 04 03 a5 06 ab 03 70 fa 01 80 18 32
[ 2804.228027] i2c_hid i2c-ELAN0501:00: input: 0e 00 04 03 a7 06 ab 03 b6 fa 01 80 18 32
[ 2804.235305] i2c_hid i2c-ELAN0501:00: input: 0e 00 04 03 a8 06 ab 03 fc fa 01 80 18 33
[ 2804.242231] i2c_hid i2c-ELAN0501:00: input: 0e 00 04 03 a9 06 ab 03 42 fb 01 80 18 33
[ 2804.249213] i2c_hid i2c-ELAN0501:00: input: 0e 00 04 03 aa 06 ab 03 88 fb 01 80 18 33
[ 2804.256243] i2c_hid i2c-ELAN0501:00: input: 0e 00 04 03 ab 06 ab 03 ce fb 01 80 18 33
[ 2804.263046] i2c_hid i2c-ELAN0501:00: input: 0e 00 04 03 ac 06 ab 03 14 fc 01 80 18 33
[ 2804.270176] i2c_hid i2c-ELAN0501:00: input: 0e 00 04 03 ad 06 ab 03 5a fc 01 80 18 33
[ 2804.277155] i2c_hid i2c-ELAN0501:00: input: 0e 00 04 03 ae 06 ab 03 a0 fc 01 80 18 33
[ 2804.284191] i2c_hid i2c-ELAN0501:00: input: 0e 00 04 03 af 06 ab 03 e6 fc 01 80 18 33
[ 2804.291155] i2c_hid i2c-ELAN0501:00: input: 0e 00 04 03 b0 06 ab 03 2c fd 01 80 18 33
[ 2804.298104] i2c_hid i2c-ELAN0501:00: input: 0e 00 04 03 b1 06 ab 03 72 fd 01 80 18 33
[ 2804.305117] i2c_hid i2c-ELAN0501:00: input: 0e 00 04 03 b2 06 ab 03 b8 fd 01 80 18 33
[ 2804.311926] i2c_hid i2c-ELAN0501:00: input: 0e 00 04 03 b3 06 ab 03 fe fd 01 80 18 33
[ 2804.319018] i2c_hid i2c-ELAN0501:00: input: 0e 00 04 03 b4 06 ab 03 44 fe 01 80 18 33
[ 2804.326140] i2c_hid i2c-ELAN0501:00: input: 0e 00 04 03 b5 06 ab 03 8a fe 01 80 18 33
[ 2804.333056] i2c_hid i2c-ELAN0501:00: input: 0e 00 04 03 b6 06 ab 03 d0 fe 01 80 17 33
[ 2804.340143] i2c_hid i2c-ELAN0501:00: input: 0e 00 04 03 b6 06 ab 03 16 ff 01 80 16 33
[ 2804.346932] i2c_hid i2c-ELAN0501:00: input: 0e 00 04 03 b6 06 ab 03 5c ff 01 80 14 33
[ 2804.353871] i2c_hid i2c-ELAN0501:00: input: 0e 00 04 03 b6 06 ab 03 a2 ff 01 80 11 32
[ 2804.360904] i2c_hid i2c-ELAN0501:00: input: 0e 00 04 03 b6 06 ab 03 e8 ff 01 80 11 11
[ 2804.368193] i2c_hid i2c-ELAN0501:00: input: 0e 00 04 01 b6 06 ab 03 2e 00 01 80 11 11
[ 2804.479931] i2c_hid i2c-ELAN0501:00: input: 0e 00 04 03 ba 06 bf 03 8e 04 01 80 1b 33
[ 2804.486827] i2c_hid i2c-ELAN0501:00: input: 0e 00 04 03 ba 06 bf 03 d4 04 01 80 1b 33
[ 2804.493878] i2c_hid i2c-ELAN0501:00: input: 0e 00 04 03 ba 06 bf 03 1a 05 01 80 1b 33
[ 2804.500742] i2c_hid i2c-ELAN0501:00: input: 0e 00 04 03 ba 06 bf 03 60 05 01 80 1b 33
[ 2804.507672] i2c_hid i2c-ELAN0501:00: input: 0e 00 04 03 ba 06 bf 03 a6 05 01 80 1b 33
[ 2804.514668] i2c_hid i2c-ELAN0501:00: input: 0e 00 04 03 ba 06 bf 03 ec 05 01 80 1b 33
[ 2804.521830] i2c_hid i2c-ELAN0501:00: input: 0e 00 04 03 ba 06 bf 03 32 06 01 80 1b 33
[ 2804.528876] i2c_hid i2c-ELAN0501:00: input: 0e 00 04 03 ba 06 bf 03 78 06 01 80 1b 33
[ 2804.535677] i2c_hid i2c-ELAN0501:00: input: 0e 00 04 03 ba 06 bf 03 be 06 01 80 1b 33
[ 2804.542706] i2c_hid i2c-ELAN0501:00: input: 0e 00 04 03 ba 06 bf 03 04 07 01 80 1a 33
[ 2804.549604] i2c_hid i2c-ELAN0501:00: input: 0e 00 04 03 ba 06 bf 03 4a 07 01 80 19 33
[ 2804.556593] i2c_hid i2c-ELAN0501:00: input: 0e 00 04 03 ba 06 bf 03 90 07 01 80 18 33
[ 2804.563776] i2c_hid i2c-ELAN0501:00: input: 0e 00 04 03 ba 06 bf 03 d6 07 01 80 16 33
[ 2804.570708] i2c_hid i2c-ELAN0501:00: input: 0e 00 04 03 ba 06 bf 03 1c 08 01 80 14 33
[ 2804.577774] i2c_hid i2c-ELAN0501:00: input: 0e 00 04 03 ba 06 bf 03 62 08 01 80 14 11
[ 2804.584814] i2c_hid i2c-ELAN0501:00: input: 0e 00 04 01 ba 06 bf 03 a8 08 01 80 14 11
[ 2805.563069] i2c_hid i2c-ELAN0501:00: input: 0e 00 04 03 8f 07 a9 03 f0 2e 01 80 10 33
[ 2805.569996] i2c_hid i2c-ELAN0501:00: input: 0e 00 04 03 8f 07 a9 03 36 2f 01 80 10 33
[ 2805.576996] i2c_hid i2c-ELAN0501:00: input: 0e 00 04 03 8f 07 a9 03 7c 2f 01 80 10 33
[ 2805.583925] i2c_hid i2c-ELAN0501:00: input: 0e 00 04 03 8f 07 a9 03 c2 2f 01 80 11 33
[ 2805.590703] i2c_hid i2c-ELAN0501:00: input: 0e 00 04 03 8f 07 a9 03 08 30 01 80 12 33
[ 2805.597685] i2c_hid i2c-ELAN0501:00: input: 0e 00 04 03 8c 07 a8 03 4e 30 01 80 14 34
[ 2805.604967] i2c_hid i2c-ELAN0501:00: input: 0e 00 04 03 86 07 a7 03 94 30 01 80 15 34
[ 2805.611925] i2c_hid i2c-ELAN0501:00: input: 0e 00 04 03 7d 07 a7 03 da 30 01 80 15 33
[ 2805.618908] i2c_hid i2c-ELAN0501:00: input: 0e 00 04 03 72 07 a7 03 20 31 01 80 16 33
[ 2805.625762] i2c_hid i2c-ELAN0501:00: input: 0e 00 04 03 64 07 a6 03 66 31 01 80 16 43
[ 2805.632770] i2c_hid i2c-ELAN0501:00: input: 0e 00 04 03 54 07 a6 03 ac 31 01 80 17 43
[ 2805.639814] i2c_hid i2c-ELAN0501:00: input: 0e 00 04 03 40 07 a6 03 f2 31 01 80 17 43
[ 2805.646585] i2c_hid i2c-ELAN0501:00: input: 0e 00 04 03 2b 07 a6 03 38 32 01 80 17 43
[ 2805.653743] i2c_hid i2c-ELAN0501:00: input: 0e 00 04 03 13 07 a7 03 7e 32 01 80 18 33
[ 2805.660695] i2c_hid i2c-ELAN0501:00: input: 0e 00 04 03 ff 06 a8 03 c4 32 01 80 18 32
[ 2805.667586] i2c_hid i2c-ELAN0501:00: input: 0e 00 04 03 f3 06 a8 03 0a 33 01 80 18 32
[ 2805.674683] i2c_hid i2c-ELAN0501:00: input: 0e 00 04 03 ec 06 a8 03 50 33 01 80 18 32
[ 2805.681666] i2c_hid i2c-ELAN0501:00: input: 0e 00 04 03 e5 06 a8 03 96 33 01 80 18 33
[ 2805.688501] i2c_hid i2c-ELAN0501:00: input: 0e 00 04 03 de 06 a8 03 dc 33 01 80 18 33
[ 2805.695442] i2c_hid i2c-ELAN0501:00: input: 0e 00 04 03 d7 06 a8 03 22 34 01 80 18 33
[ 2805.702665] i2c_hid i2c-ELAN0501:00: input: 0e 00 04 03 cf 06 a8 03 68 34 01 80 18 33
[ 2805.709635] i2c_hid i2c-ELAN0501:00: input: 0e 00 04 03 c7 06 a8 03 ae 34 01 80 19 33
[ 2805.716605] i2c_hid i2c-ELAN0501:00: input: 0e 00 04 03 c0 06 a8 03 f4 34 01 80 19 33
[ 2805.723474] i2c_hid i2c-ELAN0501:00: input: 0e 00 04 03 ba 06 a8 03 3a 35 01 80 19 33
[ 2805.730430] i2c_hid i2c-ELAN0501:00: input: 0e 00 04 03 b5 06 a8 03 80 35 01 80 19 43
[ 2805.737539] i2c_hid i2c-ELAN0501:00: input: 0e 00 04 03 b1 06 a8 03 c6 35 01 80 19 33
[ 2805.744414] i2c_hid i2c-ELAN0501:00: input: 0e 00 04 03 ae 06 a8 03 0c 36 01 80 1a 43
[ 2805.751297] i2c_hid i2c-ELAN0501:00: input: 0e 00 04 03 ab 06 a8 03 52 36 01 80 1a 43
[ 2805.758581] i2c_hid i2c-ELAN0501:00: input: 0e 00 04 03 a8 06 a9 03 98 36 01 80 1a 33
[ 2805.765524] i2c_hid i2c-ELAN0501:00: input: 0e 00 04 03 a5 06 a9 03 de 36 01 80 1a 43
[ 2805.772493] i2c_hid i2c-ELAN0501:00: input: 0e 00 04 03 a2 06 a9 03 24 37 01 80 1a 43
[ 2805.779184] i2c_hid i2c-ELAN0501:00: input: 0e 00 04 03 9f 06 a9 03 6a 37 01 80 1a 33
[ 2805.786463] i2c_hid i2c-ELAN0501:00: input: 0e 00 04 03 9c 06 aa 03 b0 37 01 80 1a 33
[ 2805.793450] i2c_hid i2c-ELAN0501:00: input: 0e 00 04 03 99 06 ab 03 f6 37 01 80 1a 33
[ 2805.800275] i2c_hid i2c-ELAN0501:00: input: 0e 00 04 03 95 06 ab 03 3c 38 01 80 1a 34
[ 2805.807422] i2c_hid i2c-ELAN0501:00: input: 0e 00 04 03 91 06 ac 03 82 38 01 80 1a 34
[ 2805.814383] i2c_hid i2c-ELAN0501:00: input: 0e 00 04 03 8d 06 ad 03 c8 38 01 80 1a 34
[ 2805.821444] i2c_hid i2c-ELAN0501:00: input: 0e 00 04 03 89 06 ae 03 0e 39 01 80 1a 34
[ 2805.828134] i2c_hid i2c-ELAN0501:00: input: 0e 00 04 03 85 06 ae 03 54 39 01 80 1a 34
[ 2805.835383] i2c_hid i2c-ELAN0501:00: input: 0e 00 04 03 81 06 ae 03 9a 39 01 80 1a 34
[ 2805.842286] i2c_hid i2c-ELAN0501:00: input: 0e 00 04 03 7d 06 ae 03 e0 39 01 80 1b 34
[ 2805.849401] i2c_hid i2c-ELAN0501:00: input: 0e 00 04 03 79 06 ae 03 26 3a 01 80 1b 34
[ 2805.856218] i2c_hid i2c-ELAN0501:00: input: 0e 00 04 03 75 06 ae 03 6c 3a 01 80 1b 44
[ 2805.863162] i2c_hid i2c-ELAN0501:00: input: 0e 00 04 03 71 06 ae 03 b2 3a 01 80 1b 44
[ 2805.870198] i2c_hid i2c-ELAN0501:00: input: 0e 00 04 03 6d 06 ae 03 f8 3a 01 80 1b 34
[ 2805.877189] i2c_hid i2c-ELAN0501:00: input: 0e 00 04 03 68 06 ae 03 3e 3b 01 80 1b 44
[ 2805.884318] i2c_hid i2c-ELAN0501:00: input: 0e 00 04 03 63 06 ae 03 84 3b 01 80 1b 43
[ 2805.891148] i2c_hid i2c-ELAN0501:00: input: 0e 00 04 03 5e 06 ae 03 ca 3b 01 80 1b 43
[ 2805.898326] i2c_hid i2c-ELAN0501:00: input: 0e 00 04 03 58 06 ae 03 10 3c 01 80 1b 43
[ 2805.905312] i2c_hid i2c-ELAN0501:00: input: 0e 00 04 03 52 06 ae 03 56 3c 01 80 1b 43
[ 2805.912111] i2c_hid i2c-ELAN0501:00: input: 0e 00 04 03 4c 06 ae 03 9c 3c 01 80 1b 43
[ 2805.919249] i2c_hid i2c-ELAN0501:00: input: 0e 00 04 03 46 06 ae 03 e2 3c 01 80 1b 43
[ 2805.926302] i2c_hid i2c-ELAN0501:00: input: 0e 00 04 03 40 06 ae 03 28 3d 01 80 1b 43
[ 2805.933259] i2c_hid i2c-ELAN0501:00: input: 0e 00 04 03 39 06 af 03 6e 3d 01 80 1b 43
[ 2805.940202] i2c_hid i2c-ELAN0501:00: input: 0e 00 04 03 30 06 b0 03 b4 3d 01 80 1b 43
[ 2805.947014] i2c_hid i2c-ELAN0501:00: input: 0e 00 04 03 25 06 b0 03 fa 3d 01 80 1b 43
[ 2805.954173] i2c_hid i2c-ELAN0501:00: input: 0e 00 04 03 1a 06 b1 03 40 3e 01 80 1b 43
[ 2805.961077] i2c_hid i2c-ELAN0501:00: input: 0e 00 04 03 0d 06 b2 03 86 3e 01 80 1b 43
[ 2805.968122] i2c_hid i2c-ELAN0501:00: input: 0e 00 04 03 01 06 b3 03 cc 3e 01 80 1b 43
[ 2805.975171] i2c_hid i2c-ELAN0501:00: input: 0e 00 04 03 f6 05 b3 03 12 3f 01 80 1b 43
[ 2805.982148] i2c_hid i2c-ELAN0501:00: input: 0e 00 04 03 eb 05 b4 03 58 3f 01 80 1b 33
[ 2805.989108] i2c_hid i2c-ELAN0501:00: input: 0e 00 04 03 e2 05 b4 03 9e 3f 01 80 1b 43
[ 2805.995952] i2c_hid i2c-ELAN0501:00: input: 0e 00 04 03 db 05 b4 03 e4 3f 01 80 1b 43
[ 2806.003082] i2c_hid i2c-ELAN0501:00: input: 0e 00 04 03 d5 05 b4 03 2a 40 01 80 1b 33
[ 2806.010057] i2c_hid i2c-ELAN0501:00: input: 0e 00 04 03 d1 05 b4 03 70 40 01 80 1b 33
[ 2806.017016] i2c_hid i2c-ELAN0501:00: input: 0e 00 04 03 ce 05 b4 03 b6 40 01 80 1b 43
[ 2806.024098] i2c_hid i2c-ELAN0501:00: input: 0e 00 04 03 cb 05 b4 03 fc 40 01 80 1b 43
[ 2806.031009] i2c_hid i2c-ELAN0501:00: input: 0e 00 04 03 c8 05 b4 03 42 41 01 80 1b 43
[ 2806.037989] i2c_hid i2c-ELAN0501:00: input: 0e 00 04 03 c6 05 b4 03 88 41 01 80 1b 43
[ 2806.045006] i2c_hid i2c-ELAN0501:00: input: 0e 00 04 03 c4 05 b4 03 ce 41 01 80 1b 43
[ 2806.052062] i2c_hid i2c-ELAN0501:00: input: 0e 00 04 03 c2 05 b4 03 14 42 01 80 1b 43
[ 2806.058834] i2c_hid i2c-ELAN0501:00: input: 0e 00 04 03 c0 05 b4 03 5a 42 01 80 1b 43
[ 2806.066000] i2c_hid i2c-ELAN0501:00: input: 0e 00 04 03 be 05 b4 03 a0 42 01 80 1b 43
[ 2806.072954] i2c_hid i2c-ELAN0501:00: input: 0e 00 04 03 bc 05 b4 03 e6 42 01 80 1b 43
[ 2806.079768] i2c_hid i2c-ELAN0501:00: input: 0e 00 04 03 ba 05 b4 03 2c 43 01 80 1b 43
[ 2806.086954] i2c_hid i2c-ELAN0501:00: input: 0e 00 04 03 b8 05 b4 03 72 43 01 80 1b 43
[ 2806.093775] i2c_hid i2c-ELAN0501:00: input: 0e 00 04 03 b6 05 b4 03 b8 43 01 80 1b 43
[ 2806.100887] i2c_hid i2c-ELAN0501:00: input: 0e 00 04 03 b4 05 b4 03 fe 43 01 80 1b 33
[ 2806.107928] i2c_hid i2c-ELAN0501:00: input: 0e 00 04 03 b3 05 b4 03 44 44 01 80 1b 33
[ 2806.114873] i2c_hid i2c-ELAN0501:00: input: 0e 00 04 03 b2 05 b4 03 8a 44 01 80 1b 33
[ 2806.121746] i2c_hid i2c-ELAN0501:00: input: 0e 00 04 03 b1 05 b4 03 d0 44 01 80 1b 33
[ 2806.128849] i2c_hid i2c-ELAN0501:00: input: 0e 00 04 03 b0 05 b4 03 16 45 01 80 1b 33
[ 2806.135865] i2c_hid i2c-ELAN0501:00: input: 0e 00 04 03 af 05 b4 03 5c 45 01 80 1b 33
[ 2806.142842] i2c_hid i2c-ELAN0501:00: input: 0e 00 04 03 ae 05 b4 03 a2 45 01 80 1b 33
[ 2806.149798] i2c_hid i2c-ELAN0501:00: input: 0e 00 04 03 ad 05 b4 03 e8 45 01 80 1b 33
[ 2806.156837] i2c_hid i2c-ELAN0501:00: input: 0e 00 04 03 ac 05 b4 03 2e 46 01 80 1b 43
[ 2806.163797] i2c_hid i2c-ELAN0501:00: input: 0e 00 04 03 ab 05 b4 03 74 46 01 80 1b 33
[ 2806.170729] i2c_hid i2c-ELAN0501:00: input: 0e 00 04 03 aa 05 b4 03 ba 46 01 80 1b 33
[ 2806.177697] i2c_hid i2c-ELAN0501:00: input: 0e 00 04 03 aa 05 b4 03 00 47 01 80 1b 43
[ 2806.184788] i2c_hid i2c-ELAN0501:00: input: 0e 00 04 03 aa 05 b4 03 46 47 01 80 1b 43
[ 2806.191586] i2c_hid i2c-ELAN0501:00: input: 0e 00 04 03 aa 05 b4 03 8c 47 01 80 1b 42
[ 2806.198677] i2c_hid i2c-ELAN0501:00: input: 0e 00 04 03 aa 05 b4 03 d2 47 01 80 1b 42
[ 2806.205608] i2c_hid i2c-ELAN0501:00: input: 0e 00 04 03 ab 05 b4 03 18 48 01 80 1b 43
[ 2806.212582] i2c_hid i2c-ELAN0501:00: input: 0e 00 04 03 ac 05 b3 03 5e 48 01 80 1b 43
[ 2806.219559] i2c_hid i2c-ELAN0501:00: input: 0e 00 04 03 ae 05 b2 03 a4 48 01 80 1b 43
[ 2806.226745] i2c_hid i2c-ELAN0501:00: input: 0e 00 04 03 b1 05 b1 03 ea 48 01 80 1b 43
[ 2806.233527] i2c_hid i2c-ELAN0501:00: input: 0e 00 04 03 b4 05 b0 03 30 49 01 80 1b 43
[ 2806.240644] i2c_hid i2c-ELAN0501:00: input: 0e 00 04 03 b7 05 af 03 76 49 01 80 1b 43
[ 2806.247521] i2c_hid i2c-ELAN0501:00: input: 0e 00 04 03 ba 05 ae 03 bc 49 01 80 1b 43
[ 2806.254643] i2c_hid i2c-ELAN0501:00: input: 0e 00 04 03 bd 05 ad 03 02 4a 01 80 1b 43
[ 2806.261660] i2c_hid i2c-ELAN0501:00: input: 0e 00 04 03 c0 05 ac 03 48 4a 01 80 1b 43
[ 2806.268599] i2c_hid i2c-ELAN0501:00: input: 0e 00 04 03 c2 05 ac 03 8e 4a 01 80 1b 43
[ 2806.275453] i2c_hid i2c-ELAN0501:00: input: 0e 00 04 03 c4 05 ac 03 d4 4a 01 80 1b 43
[ 2806.282648] i2c_hid i2c-ELAN0501:00: input: 0e 00 04 03 c6 05 ac 03 1a 4b 01 80 1b 43
[ 2806.289527] i2c_hid i2c-ELAN0501:00: input: 0e 00 04 03 c8 05 ac 03 60 4b 01 80 1b 43
[ 2806.296365] i2c_hid i2c-ELAN0501:00: input: 0e 00 04 03 ca 05 ac 03 a6 4b 01 80 1b 43
[ 2806.303452] i2c_hid i2c-ELAN0501:00: input: 0e 00 04 03 cc 05 ac 03 ec 4b 01 80 1b 43
[ 2806.310514] i2c_hid i2c-ELAN0501:00: input: 0e 00 04 03 cd 05 ac 03 32 4c 01 80 1b 43
[ 2806.317501] i2c_hid i2c-ELAN0501:00: input: 0e 00 04 03 ce 05 ac 03 78 4c 01 80 1b 43
[ 2806.324474] i2c_hid i2c-ELAN0501:00: input: 0e 00 04 03 cf 05 ac 03 be 4c 01 80 1b 43
[ 2806.331396] i2c_hid i2c-ELAN0501:00: input: 0e 00 04 03 d0 05 ac 03 04 4d 01 80 1b 43
[ 2806.338467] i2c_hid i2c-ELAN0501:00: input: 0e 00 04 03 d1 05 ac 03 4a 4d 01 80 1b 43
[ 2806.345357] i2c_hid i2c-ELAN0501:00: input: 0e 00 04 03 d2 05 ac 03 90 4d 01 80 1b 43
[ 2806.352479] i2c_hid i2c-ELAN0501:00: input: 0e 00 04 03 d3 05 ac 03 d6 4d 01 80 1b 43
[ 2806.359435] i2c_hid i2c-ELAN0501:00: input: 0e 00 04 03 d4 05 ac 03 1c 4e 01 80 1b 43
[ 2806.366416] i2c_hid i2c-ELAN0501:00: input: 0e 00 04 03 d5 05 ac 03 62 4e 01 80 1b 43
[ 2806.373456] i2c_hid i2c-ELAN0501:00: input: 0e 00 04 03 d6 05 ac 03 a8 4e 01 80 1b 43
[ 2806.380418] i2c_hid i2c-ELAN0501:00: input: 0e 00 04 03 d7 05 ac 03 ee 4e 01 80 1b 43
[ 2806.387395] i2c_hid i2c-ELAN0501:00: input: 0e 00 04 03 d8 05 ac 03 34 4f 01 80 1b 43
[ 2806.394276] i2c_hid i2c-ELAN0501:00: input: 0e 00 04 03 d9 05 ac 03 7a 4f 01 80 1b 43
[ 2806.401243] i2c_hid i2c-ELAN0501:00: input: 0e 00 04 03 da 05 ac 03 c0 4f 01 80 1b 43
[ 2806.408278] i2c_hid i2c-ELAN0501:00: input: 0e 00 04 03 db 05 ac 03 06 50 01 80 1b 43
[ 2806.415329] i2c_hid i2c-ELAN0501:00: input: 0e 00 04 03 dc 05 ac 03 4c 50 01 80 1b 43
[ 2806.422210] i2c_hid i2c-ELAN0501:00: input: 0e 00 04 03 dd 05 ac 03 92 50 01 80 1b 43
[ 2806.429147] i2c_hid i2c-ELAN0501:00: input: 0e 00 04 03 de 05 ac 03 d8 50 01 80 1b 43
[ 2806.436290] i2c_hid i2c-ELAN0501:00: input: 0e 00 04 03 df 05 ac 03 1e 51 01 80 1b 43
[ 2806.443260] i2c_hid i2c-ELAN0501:00: input: 0e 00 04 03 e0 05 ac 03 64 51 01 80 1b 43
[ 2806.450281] i2c_hid i2c-ELAN0501:00: input: 0e 00 04 03 e1 05 ac 03 aa 51 01 80 1b 43
[ 2806.457270] i2c_hid i2c-ELAN0501:00: input: 0e 00 04 03 e2 05 ac 03 f0 51 01 80 1b 43
[ 2806.464285] i2c_hid i2c-ELAN0501:00: input: 0e 00 04 03 e3 05 ac 03 36 52 01 80 1b 43
[ 2806.471255] i2c_hid i2c-ELAN0501:00: input: 0e 00 04 03 e4 05 ac 03 7c 52 01 80 1b 43
[ 2806.478078] i2c_hid i2c-ELAN0501:00: input: 0e 00 04 03 e5 05 ac 03 c2 52 01 80 1b 43
[ 2806.485199] i2c_hid i2c-ELAN0501:00: input: 0e 00 04 03 e6 05 ac 03 08 53 01 80 1b 43
[ 2806.492230] i2c_hid i2c-ELAN0501:00: input: 0e 00 04 03 e7 05 ac 03 4e 53 01 80 1b 43
[ 2806.499224] i2c_hid i2c-ELAN0501:00: input: 0e 00 04 03 e8 05 ac 03 94 53 01 80 1b 43
[ 2806.506044] i2c_hid i2c-ELAN0501:00: input: 0e 00 04 03 e9 05 ac 03 da 53 01 80 1b 43
[ 2806.513171] i2c_hid i2c-ELAN0501:00: input: 0e 00 04 03 ea 05 ac 03 20 54 01 80 1b 43
[ 2806.520205] i2c_hid i2c-ELAN0501:00: input: 0e 00 04 03 eb 05 ac 03 66 54 01 80 1b 43
[ 2806.526993] i2c_hid i2c-ELAN0501:00: input: 0e 00 04 03 eb 05 ac 03 ac 54 01 80 1b 43
[ 2806.534221] i2c_hid i2c-ELAN0501:00: input: 0e 00 04 03 eb 05 ac 03 f2 54 01 80 1b 43
[ 2806.541185] i2c_hid i2c-ELAN0501:00: input: 0e 00 04 03 ec 05 ac 03 38 55 01 80 1b 43
[ 2806.548158] i2c_hid i2c-ELAN0501:00: input: 0e 00 04 03 ec 05 ac 03 7e 55 01 80 1b 43
[ 2806.555100] i2c_hid i2c-ELAN0501:00: input: 0e 00 04 03 ec 05 ac 03 c4 55 01 80 1b 43
[ 2806.561921] i2c_hid i2c-ELAN0501:00: input: 0e 00 04 03 ed 05 ac 03 0a 56 01 80 1b 43
[ 2806.569067] i2c_hid i2c-ELAN0501:00: input: 0e 00 04 03 ee 05 ac 03 50 56 01 80 1b 33
[ 2806.575874] i2c_hid i2c-ELAN0501:00: input: 0e 00 04 03 ee 05 ac 03 96 56 01 80 1b 43
[ 2806.582933] i2c_hid i2c-ELAN0501:00: input: 0e 00 04 03 ef 05 ac 03 dc 56 01 80 1b 43
[ 2806.589877] i2c_hid i2c-ELAN0501:00: input: 0e 00 04 03 f0 05 ac 03 22 57 01 80 1b 43
[ 2806.597040] i2c_hid i2c-ELAN0501:00: input: 0e 00 04 03 f1 05 ac 03 68 57 01 80 1b 43
[ 2806.603970] i2c_hid i2c-ELAN0501:00: input: 0e 00 04 03 f1 05 ab 03 ae 57 01 80 1b 43
[ 2806.610757] i2c_hid i2c-ELAN0501:00: input: 0e 00 04 03 f2 05 ab 03 f4 57 01 80 1b 43
[ 2806.618031] i2c_hid i2c-ELAN0501:00: input: 0e 00 04 03 f3 05 ab 03 3a 58 01 80 1b 43
[ 2806.624968] i2c_hid i2c-ELAN0501:00: input: 0e 00 04 03 f3 05 ab 03 80 58 01 80 1b 43
[ 2806.631962] i2c_hid i2c-ELAN0501:00: input: 0e 00 04 03 f4 05 ab 03 c6 58 01 80 1b 43
[ 2806.638919] i2c_hid i2c-ELAN0501:00: input: 0e 00 04 03 f5 05 ab 03 0c 59 01 80 1b 43
[ 2806.645745] i2c_hid i2c-ELAN0501:00: input: 0e 00 04 03 f6 05 ab 03 52 59 01 80 1b 43
[ 2806.652897] i2c_hid i2c-ELAN0501:00: input: 0e 00 04 03 f7 05 ab 03 98 59 01 80 1b 43
[ 2806.659952] i2c_hid i2c-ELAN0501:00: input: 0e 00 04 03 f8 05 ab 03 de 59 01 80 1b 43
[ 2806.666786] i2c_hid i2c-ELAN0501:00: input: 0e 00 04 03 f9 05 ab 03 24 5a 01 80 1b 44
[ 2806.673758] i2c_hid i2c-ELAN0501:00: input: 0e 00 04 03 fa 05 ab 03 6a 5a 01 80 1b 44
[ 2806.680901] i2c_hid i2c-ELAN0501:00: input: 0e 00 04 03 fd 05 aa 03 b0 5a 01 80 1b 44
[ 2806.687911] i2c_hid i2c-ELAN0501:00: input: 0e 00 04 03 01 06 a9 03 f6 5a 01 80 1b 44
[ 2806.694653] i2c_hid i2c-ELAN0501:00: input: 0e 00 04 03 06 06 a8 03 3c 5b 01 80 1b 34
[ 2806.701672] i2c_hid i2c-ELAN0501:00: input: 0e 00 04 03 0d 06 a7 03 82 5b 01 80 1b 34
[ 2806.708854] i2c_hid i2c-ELAN0501:00: input: 0e 00 04 03 14 06 a6 03 c8 5b 01 80 1b 34
[ 2806.715766] i2c_hid i2c-ELAN0501:00: input: 0e 00 04 03 1e 06 a6 03 0e 5c 01 80 1b 34
[ 2806.722636] i2c_hid i2c-ELAN0501:00: input: 0e 00 04 03 29 06 a6 03 54 5c 01 80 1b 34
[ 2806.729462] i2c_hid i2c-ELAN0501:00: input: 0e 00 04 03 36 06 a6 03 9a 5c 01 80 1b 33
[ 2806.736800] i2c_hid i2c-ELAN0501:00: input: 0e 00 04 03 45 06 a6 03 e0 5c 01 80 1b 33
[ 2806.743791] i2c_hid i2c-ELAN0501:00: input: 0e 00 04 03 56 06 a6 03 26 5d 01 80 1b 33
[ 2806.750729] i2c_hid i2c-ELAN0501:00: input: 0e 00 04 03 67 06 a7 03 6c 5d 01 80 1b 33
[ 2806.757524] i2c_hid i2c-ELAN0501:00: input: 0e 00 04 03 77 06 a8 03 b2 5d 01 80 1a 33
[ 2806.764688] i2c_hid i2c-ELAN0501:00: input: 0e 00 04 03 85 06 a9 03 f8 5d 01 80 1a 33
[ 2806.771620] i2c_hid i2c-ELAN0501:00: input: 0e 00 04 03 91 06 a9 03 3e 5e 01 80 1a 33
[ 2806.778388] i2c_hid i2c-ELAN0501:00: input: 0e 00 04 03 9b 06 a9 03 84 5e 01 80 1a 33
[ 2806.785659] i2c_hid i2c-ELAN0501:00: input: 0e 00 04 03 a3 06 a9 03 ca 5e 01 80 1a 32
[ 2806.792546] i2c_hid i2c-ELAN0501:00: input: 0e 00 04 03 a8 06 a9 03 10 5f 01 80 1a 32
[ 2806.799600] i2c_hid i2c-ELAN0501:00: input: 0e 00 04 03 ac 06 a9 03 56 5f 01 80 19 32
[ 2806.806641] i2c_hid i2c-ELAN0501:00: input: 0e 00 04 03 af 06 a9 03 9c 5f 01 80 19 33
[ 2806.813636] i2c_hid i2c-ELAN0501:00: input: 0e 00 04 03 b2 06 aa 03 e2 5f 01 80 19 33
[ 2806.820518] i2c_hid i2c-ELAN0501:00: input: 0e 00 04 03 b5 06 ab 03 28 60 01 80 19 33
[ 2806.827625] i2c_hid i2c-ELAN0501:00: input: 0e 00 04 03 b8 06 ac 03 6e 60 01 80 19 33
[ 2806.834500] i2c_hid i2c-ELAN0501:00: input: 0e 00 04 03 bb 06 ad 03 b4 60 01 80 19 33
[ 2806.841576] i2c_hid i2c-ELAN0501:00: input: 0e 00 04 03 bd 06 ad 03 fa 60 01 80 19 33
[ 2806.848516] i2c_hid i2c-ELAN0501:00: input: 0e 00 04 03 bf 06 ad 03 40 61 01 80 19 33
[ 2806.855409] i2c_hid i2c-ELAN0501:00: input: 0e 00 04 03 c1 06 ad 03 86 61 01 80 19 33
[ 2806.862420] i2c_hid i2c-ELAN0501:00: input: 0e 00 04 03 c3 06 ad 03 cc 61 01 80 19 33
[ 2806.869535] i2c_hid i2c-ELAN0501:00: input: 0e 00 04 03 c5 06 ad 03 12 62 01 80 19 33
[ 2806.876401] i2c_hid i2c-ELAN0501:00: input: 0e 00 04 03 c7 06 ad 03 58 62 01 80 19 33
[ 2806.883425] i2c_hid i2c-ELAN0501:00: input: 0e 00 04 03 c9 06 ad 03 9e 62 01 80 19 33
[ 2806.890283] i2c_hid i2c-ELAN0501:00: input: 0e 00 04 03 cb 06 ad 03 e4 62 01 80 19 33
[ 2806.897439] i2c_hid i2c-ELAN0501:00: input: 0e 00 04 03 cd 06 ad 03 2a 63 01 80 19 33
[ 2806.904344] i2c_hid i2c-ELAN0501:00: input: 0e 00 04 03 ce 06 ad 03 70 63 01 80 19 33
[ 2806.911372] i2c_hid i2c-ELAN0501:00: input: 0e 00 04 03 cf 06 ad 03 b6 63 01 80 19 33
[ 2806.918273] i2c_hid i2c-ELAN0501:00: input: 0e 00 04 03 d0 06 ad 03 fc 63 01 80 19 33
[ 2806.925235] i2c_hid i2c-ELAN0501:00: input: 0e 00 04 03 d1 06 ad 03 42 64 01 80 19 33
[ 2806.932355] i2c_hid i2c-ELAN0501:00: input: 0e 00 04 03 d2 06 ad 03 88 64 01 80 19 33
[ 2806.939313] i2c_hid i2c-ELAN0501:00: input: 0e 00 04 03 d4 06 ad 03 ce 64 01 80 19 33
[ 2806.946226] i2c_hid i2c-ELAN0501:00: input: 0e 00 04 03 d6 06 ad 03 14 65 01 80 19 33
[ 2806.953276] i2c_hid i2c-ELAN0501:00: input: 0e 00 04 03 d8 06 ad 03 5a 65 01 80 19 33
[ 2806.960261] i2c_hid i2c-ELAN0501:00: input: 0e 00 04 03 da 06 ad 03 a0 65 01 80 19 33
[ 2806.967303] i2c_hid i2c-ELAN0501:00: input: 0e 00 04 03 dc 06 ad 03 e6 65 01 80 18 33
[ 2806.974190] i2c_hid i2c-ELAN0501:00: input: 0e 00 04 03 df 06 ad 03 2c 66 01 80 18 33
[ 2806.981151] i2c_hid i2c-ELAN0501:00: input: 0e 00 04 03 e2 06 ad 03 72 66 01 80 18 33
[ 2806.988275] i2c_hid i2c-ELAN0501:00: input: 0e 00 04 03 e6 06 ad 03 b8 66 01 80 18 33
[ 2806.995019] i2c_hid i2c-ELAN0501:00: input: 0e 00 04 03 eb 06 ac 03 fe 66 01 80 18 33
[ 2807.002324] i2c_hid i2c-ELAN0501:00: input: 0e 00 04 03 f1 06 ab 03 44 67 01 80 18 33
[ 2807.009288] i2c_hid i2c-ELAN0501:00: input: 0e 00 04 03 f7 06 aa 03 8a 67 01 80 18 33
[ 2807.016209] i2c_hid i2c-ELAN0501:00: input: 0e 00 04 03 fd 06 a8 03 d0 67 01 80 18 33
[ 2807.023273] i2c_hid i2c-ELAN0501:00: input: 0e 00 04 03 03 07 a7 03 16 68 01 80 18 33
[ 2807.030177] i2c_hid i2c-ELAN0501:00: input: 0e 00 04 03 09 07 a6 03 5c 68 01 80 18 33
[ 2807.037109] i2c_hid i2c-ELAN0501:00: input: 0e 00 04 03 10 07 a5 03 a2 68 01 80 18 34
[ 2807.044057] i2c_hid i2c-ELAN0501:00: input: 0e 00 04 03 17 07 a3 03 e8 68 01 80 18 34
[ 2807.051167] i2c_hid i2c-ELAN0501:00: input: 0e 00 04 03 1d 07 a1 03 2e 69 01 80 18 34
[ 2807.058188] i2c_hid i2c-ELAN0501:00: input: 0e 00 04 03 22 07 a0 03 74 69 01 80 18 34
[ 2807.065177] i2c_hid i2c-ELAN0501:00: input: 0e 00 04 03 26 07 9f 03 ba 69 01 80 18 34
[ 2807.072113] i2c_hid i2c-ELAN0501:00: input: 0e 00 04 03 28 07 9f 03 00 6a 01 80 18 34
[ 2807.078929] i2c_hid i2c-ELAN0501:00: input: 0e 00 04 03 2a 07 9f 03 46 6a 01 80 18 34
[ 2807.086129] i2c_hid i2c-ELAN0501:00: input: 0e 00 04 03 2c 07 9f 03 8c 6a 01 80 18 34
[ 2807.092927] i2c_hid i2c-ELAN0501:00: input: 0e 00 04 03 2e 07 9f 03 d2 6a 01 80 18 34
[ 2807.100113] i2c_hid i2c-ELAN0501:00: input: 0e 00 04 03 30 07 9f 03 18 6b 01 80 18 34
[ 2807.107077] i2c_hid i2c-ELAN0501:00: input: 0e 00 04 03 32 07 9f 03 5e 6b 01 80 18 34
[ 2807.114035] i2c_hid i2c-ELAN0501:00: input: 0e 00 04 03 34 07 9f 03 a4 6b 01 80 18 34
[ 2807.120854] i2c_hid i2c-ELAN0501:00: input: 0e 00 04 03 36 07 9f 03 ea 6b 01 80 18 34
[ 2807.127806] i2c_hid i2c-ELAN0501:00: input: 0e 00 04 03 38 07 9f 03 30 6c 01 80 18 34
[ 2807.134928] i2c_hid i2c-ELAN0501:00: input: 0e 00 04 03 3a 07 9f 03 76 6c 01 80 18 34
[ 2807.141872] i2c_hid i2c-ELAN0501:00: input: 0e 00 04 03 3b 07 9f 03 bc 6c 01 80 18 34
[ 2807.148999] i2c_hid i2c-ELAN0501:00: input: 0e 00 04 03 3c 07 9f 03 02 6d 01 80 18 34
[ 2807.155999] i2c_hid i2c-ELAN0501:00: input: 0e 00 04 03 3d 07 9f 03 48 6d 01 80 18 34
[ 2807.162674] i2c_hid i2c-ELAN0501:00: input: 0e 00 04 03 3e 07 9f 03 8e 6d 01 80 18 34
[ 2807.169953] i2c_hid i2c-ELAN0501:00: input: 0e 00 04 03 3f 07 9f 03 d4 6d 01 80 18 34
[ 2807.176794] i2c_hid i2c-ELAN0501:00: input: 0e 00 04 03 40 07 9f 03 1a 6e 01 80 18 34
[ 2807.183915] i2c_hid i2c-ELAN0501:00: input: 0e 00 04 03 41 07 9f 03 60 6e 01 80 18 34
[ 2807.190778] i2c_hid i2c-ELAN0501:00: input: 0e 00 04 03 42 07 9f 03 a6 6e 01 80 18 34
[ 2807.197900] i2c_hid i2c-ELAN0501:00: input: 0e 00 04 03 43 07 9f 03 ec 6e 01 80 18 34
[ 2807.204905] i2c_hid i2c-ELAN0501:00: input: 0e 00 04 03 44 07 9f 03 32 6f 01 80 18 34
[ 2807.211693] i2c_hid i2c-ELAN0501:00: input: 0e 00 04 03 45 07 9f 03 78 6f 01 80 18 34
[ 2807.218808] i2c_hid i2c-ELAN0501:00: input: 0e 00 04 03 46 07 9f 03 be 6f 01 80 18 34
[ 2807.226267] i2c_hid i2c-ELAN0501:00: input: 0e 00 04 03 47 07 9f 03 04 70 01 80 18 34
[ 2807.233136] i2c_hid i2c-ELAN0501:00: input: 0e 00 04 03 48 07 9f 03 4a 70 01 80 18 34
[ 2807.239945] i2c_hid i2c-ELAN0501:00: input: 0e 00 04 03 49 07 9f 03 90 70 01 80 18 34
[ 2807.246720] i2c_hid i2c-ELAN0501:00: input: 0e 00 04 03 4a 07 9f 03 d6 70 01 80 18 34
[ 2807.253645] i2c_hid i2c-ELAN0501:00: input: 0e 00 04 03 4b 07 9f 03 1c 71 01 80 18 34
[ 2807.260688] i2c_hid i2c-ELAN0501:00: input: 0e 00 04 03 4c 07 9f 03 62 71 01 80 18 34
[ 2807.267664] i2c_hid i2c-ELAN0501:00: input: 0e 00 04 03 4d 07 9f 03 a8 71 01 80 18 34
[ 2807.274585] i2c_hid i2c-ELAN0501:00: input: 0e 00 04 03 4e 07 9f 03 ee 71 01 80 18 34
[ 2807.281699] i2c_hid i2c-ELAN0501:00: input: 0e 00 04 03 4f 07 9f 03 34 72 01 80 18 34
[ 2807.288556] i2c_hid i2c-ELAN0501:00: input: 0e 00 04 03 50 07 9f 03 7a 72 01 80 18 34
[ 2807.295506] i2c_hid i2c-ELAN0501:00: input: 0e 00 04 03 51 07 9f 03 c0 72 01 80 18 34
[ 2807.302709] i2c_hid i2c-ELAN0501:00: input: 0e 00 04 03 52 07 9f 03 06 73 01 80 18 34
[ 2807.309649] i2c_hid i2c-ELAN0501:00: input: 0e 00 04 03 53 07 9f 03 4c 73 01 80 18 34
[ 2807.316662] i2c_hid i2c-ELAN0501:00: input: 0e 00 04 03 54 07 9f 03 92 73 01 80 18 34
[ 2807.323603] i2c_hid i2c-ELAN0501:00: input: 0e 00 04 03 55 07 9f 03 d8 73 01 80 18 34
[ 2807.330663] i2c_hid i2c-ELAN0501:00: input: 0e 00 04 03 56 07 9f 03 1e 74 01 80 18 34
[ 2807.337486] i2c_hid i2c-ELAN0501:00: input: 0e 00 04 03 57 07 9f 03 64 74 01 80 18 34
[ 2807.344601] i2c_hid i2c-ELAN0501:00: input: 0e 00 04 03 58 07 9f 03 aa 74 01 80 18 34
[ 2807.351460] i2c_hid i2c-ELAN0501:00: input: 0e 00 04 03 59 07 9f 03 f0 74 01 80 18 34
[ 2807.358632] i2c_hid i2c-ELAN0501:00: input: 0e 00 04 03 59 07 9f 03 36 75 01 80 18 34
[ 2807.365638] i2c_hid i2c-ELAN0501:00: input: 0e 00 04 03 59 07 9f 03 7c 75 01 80 18 34
[ 2807.372442] i2c_hid i2c-ELAN0501:00: input: 0e 00 04 03 59 07 9f 03 c2 75 01 80 18 34
[ 2807.379462] i2c_hid i2c-ELAN0501:00: input: 0e 00 04 03 59 07 9f 03 08 76 01 80 18 34
[ 2807.386422] i2c_hid i2c-ELAN0501:00: input: 0e 00 04 03 59 07 9f 03 4e 76 01 80 18 34
[ 2807.393262] i2c_hid i2c-ELAN0501:00: input: 0e 00 04 03 59 07 9f 03 94 76 01 80 18 34
[ 2807.400576] i2c_hid i2c-ELAN0501:00: input: 0e 00 04 03 59 07 9f 03 da 76 01 80 18 34
[ 2807.407638] i2c_hid i2c-ELAN0501:00: input: 0e 00 04 03 59 07 9f 03 20 77 01 80 18 34
[ 2807.414357] i2c_hid i2c-ELAN0501:00: input: 0e 00 04 03 59 07 9f 03 66 77 01 80 18 34
[ 2807.421387] i2c_hid i2c-ELAN0501:00: input: 0e 00 04 03 59 07 9f 03 ac 77 01 80 18 34
[ 2807.428383] i2c_hid i2c-ELAN0501:00: input: 0e 00 04 03 59 07 9f 03 f2 77 01 80 18 34
[ 2807.435362] i2c_hid i2c-ELAN0501:00: input: 0e 00 04 03 59 07 9f 03 38 78 01 80 18 34
[ 2807.442391] i2c_hid i2c-ELAN0501:00: input: 0e 00 04 03 59 07 9f 03 7e 78 01 80 18 34
[ 2807.449579] i2c_hid i2c-ELAN0501:00: input: 0e 00 04 03 59 07 9f 03 c4 78 01 80 18 34
[ 2807.456525] i2c_hid i2c-ELAN0501:00: input: 0e 00 04 03 59 07 9f 03 0a 79 01 80 18 34
[ 2807.463338] i2c_hid i2c-ELAN0501:00: input: 0e 00 04 03 59 07 9f 03 50 79 01 80 18 34
[ 2807.470283] i2c_hid i2c-ELAN0501:00: input: 0e 00 04 03 59 07 9f 03 96 79 01 80 18 34
[ 2807.477390] i2c_hid i2c-ELAN0501:00: input: 0e 00 04 03 59 07 9f 03 dc 79 01 80 18 34
[ 2807.484213] i2c_hid i2c-ELAN0501:00: input: 0e 00 04 03 59 07 9f 03 22 7a 01 80 18 34
[ 2807.491229] i2c_hid i2c-ELAN0501:00: input: 0e 00 04 03 59 07 9f 03 68 7a 01 80 18 34
[ 2807.498219] i2c_hid i2c-ELAN0501:00: input: 0e 00 04 03 59 07 9f 03 ae 7a 01 80 18 34
[ 2807.505373] i2c_hid i2c-ELAN0501:00: input: 0e 00 04 03 59 07 9f 03 f4 7a 01 80 18 34
[ 2807.512507] i2c_hid i2c-ELAN0501:00: input: 0e 00 04 03 59 07 9f 03 3a 7b 01 80 18 34
[ 2807.519210] i2c_hid i2c-ELAN0501:00: input: 0e 00 04 03 59 07 9f 03 80 7b 01 80 18 34
[ 2807.526363] i2c_hid i2c-ELAN0501:00: input: 0e 00 04 03 59 07 9f 03 c6 7b 01 80 18 34
[ 2807.533337] i2c_hid i2c-ELAN0501:00: input: 0e 00 04 03 59 07 9f 03 0c 7c 01 80 18 34
[ 2807.540248] i2c_hid i2c-ELAN0501:00: input: 0e 00 04 03 59 07 9f 03 52 7c 01 80 18 34
[ 2807.547206] i2c_hid i2c-ELAN0501:00: input: 0e 00 04 03 59 07 9f 03 98 7c 01 80 18 34
[ 2807.554114] i2c_hid i2c-ELAN0501:00: input: 0e 00 04 03 59 07 9f 03 de 7c 01 80 18 34
[ 2807.561112] i2c_hid i2c-ELAN0501:00: input: 0e 00 04 03 59 07 9f 03 24 7d 01 80 18 34
[ 2807.568066] i2c_hid i2c-ELAN0501:00: input: 0e 00 04 03 59 07 9f 03 6a 7d 01 80 18 34
[ 2807.575246] i2c_hid i2c-ELAN0501:00: input: 0e 00 04 03 59 07 9f 03 b0 7d 01 80 18 34
[ 2807.582166] i2c_hid i2c-ELAN0501:00: input: 0e 00 04 03 59 07 9f 03 f6 7d 01 80 18 34
[ 2807.589211] i2c_hid i2c-ELAN0501:00: input: 0e 00 04 03 59 07 9f 03 3c 7e 01 80 18 34
[ 2807.596361] i2c_hid i2c-ELAN0501:00: input: 0e 00 04 03 59 07 9f 03 82 7e 01 80 18 34
[ 2807.603178] i2c_hid i2c-ELAN0501:00: input: 0e 00 04 03 59 07 9f 03 c8 7e 01 80 18 34
[ 2807.610112] i2c_hid i2c-ELAN0501:00: input: 0e 00 04 03 59 07 9f 03 0e 7f 01 80 18 34
[ 2807.617001] i2c_hid i2c-ELAN0501:00: input: 0e 00 04 03 59 07 9f 03 54 7f 01 80 18 34
[ 2807.624155] i2c_hid i2c-ELAN0501:00: input: 0e 00 04 03 59 07 9f 03 9a 7f 01 80 18 34
[ 2807.631038] i2c_hid i2c-ELAN0501:00: input: 0e 00 04 03 59 07 9f 03 e0 7f 01 80 18 34
[ 2807.637961] i2c_hid i2c-ELAN0501:00: input: 0e 00 04 03 59 07 9f 03 26 80 01 80 18 34
[ 2807.645025] i2c_hid i2c-ELAN0501:00: input: 0e 00 04 03 59 07 9f 03 6c 80 01 80 18 34
[ 2807.652251] i2c_hid i2c-ELAN0501:00: input: 0e 00 04 03 59 07 9f 03 b2 80 01 80 18 34
[ 2807.659200] i2c_hid i2c-ELAN0501:00: input: 0e 00 04 03 59 07 9f 03 f8 80 01 80 18 34
[ 2807.666252] i2c_hid i2c-ELAN0501:00: input: 0e 00 04 03 59 07 9f 03 3e 81 01 80 17 34
[ 2807.673343] i2c_hid i2c-ELAN0501:00: input: 0e 00 04 03 59 07 9f 03 84 81 01 80 16 34
[ 2807.680202] i2c_hid i2c-ELAN0501:00: input: 0e 00 04 03 58 07 9f 03 ca 81 01 80 14 33
[ 2807.687223] i2c_hid i2c-ELAN0501:00: input: 0e 00 04 03 58 07 9f 03 10 82 01 80 14 11
[ 2807.694114] i2c_hid i2c-ELAN0501:00: input: 0e 00 04 01 58 07 9f 03 56 82 01 80 14 11
[ 2807.791759] i2c_hid i2c-ELAN0501:00: input: 0e 00 04 03 bd 06 a5 03 2a 86 01 80 1b 33
[ 2807.798739] i2c_hid i2c-ELAN0501:00: input: 0e 00 04 03 bd 06 a5 03 70 86 01 80 1b 33
[ 2807.805644] i2c_hid i2c-ELAN0501:00: input: 0e 00 04 03 bd 06 a5 03 b6 86 01 80 1b 33
[ 2807.812799] i2c_hid i2c-ELAN0501:00: input: 0e 00 04 03 bd 06 a5 03 fc 86 01 80 1b 33
[ 2807.819737] i2c_hid i2c-ELAN0501:00: input: 0e 00 04 03 bd 06 a5 03 42 87 01 80 1b 33
[ 2807.826804] i2c_hid i2c-ELAN0501:00: input: 0e 00 04 03 bd 06 a5 03 88 87 01 80 1b 33
[ 2807.833816] i2c_hid i2c-ELAN0501:00: input: 0e 00 04 03 bd 06 a5 03 ce 87 01 80 1b 33
[ 2807.840918] i2c_hid i2c-ELAN0501:00: input: 0e 00 04 03 bd 06 a5 03 14 88 01 80 1b 33
[ 2807.847834] i2c_hid i2c-ELAN0501:00: input: 0e 00 04 03 bd 06 a5 03 5a 88 01 80 1a 33
[ 2807.854617] i2c_hid i2c-ELAN0501:00: input: 0e 00 04 03 bd 06 a5 03 a0 88 01 80 18 33
[ 2807.861541] i2c_hid i2c-ELAN0501:00: input: 0e 00 04 03 bd 06 a5 03 e6 88 01 80 15 33
[ 2807.868787] i2c_hid i2c-ELAN0501:00: input: 0e 00 04 03 bd 06 a5 03 2c 89 01 80 15 11
[ 2807.875823] i2c_hid i2c-ELAN0501:00: input: 0e 00 04 01 bd 06 a5 03 72 89 01 80 15 11
[ 2807.931395] i2c_hid i2c-ELAN0501:00: input: 0e 00 04 03 46 06 f1 03 a2 8b 01 80 17 34
[ 2807.938336] i2c_hid i2c-ELAN0501:00: input: 0e 00 04 03 46 06 f1 03 e8 8b 01 80 18 34
[ 2807.945523] i2c_hid i2c-ELAN0501:00: input: 0e 00 04 03 46 06 f1 03 2e 8c 01 80 19 34
[ 2807.952357] i2c_hid i2c-ELAN0501:00: input: 0e 00 04 03 46 06 f1 03 74 8c 01 80 1a 44
[ 2807.959249] i2c_hid i2c-ELAN0501:00: input: 0e 00 04 03 46 06 f1 03 ba 8c 01 80 1b 44
[ 2807.966361] i2c_hid i2c-ELAN0501:00: input: 0e 00 04 03 46 06 f1 03 00 8d 01 80 1b 44
[ 2807.973531] i2c_hid i2c-ELAN0501:00: input: 0e 00 04 03 47 06 f0 03 46 8d 01 80 1b 44
[ 2807.980444] i2c_hid i2c-ELAN0501:00: input: 0e 00 04 03 49 06 ef 03 8c 8d 01 80 1b 44
[ 2807.987350] i2c_hid i2c-ELAN0501:00: input: 0e 00 04 03 4e 06 ed 03 d2 8d 01 80 1b 33
[ 2807.994312] i2c_hid i2c-ELAN0501:00: input: 0e 00 04 03 57 06 eb 03 18 8e 01 80 1d 33
[ 2808.001296] i2c_hid i2c-ELAN0501:00: input: 0e 00 04 03 64 06 e8 03 5e 8e 01 80 1d 43
[ 2808.008383] i2c_hid i2c-ELAN0501:00: input: 0e 00 04 03 7d 06 e4 03 a4 8e 01 80 1d 43
[ 2808.015162] i2c_hid i2c-ELAN0501:00: input: 0e 00 04 03 a2 06 df 03 ea 8e 01 80 1d 44
[ 2808.022104] i2c_hid i2c-ELAN0501:00: input: 0e 00 04 03 c9 06 da 03 30 8f 01 80 1d 43
[ 2808.029149] i2c_hid i2c-ELAN0501:00: input: 0e 00 04 03 f6 06 d5 03 76 8f 01 80 1d 43
[ 2808.036087] i2c_hid i2c-ELAN0501:00: input: 0e 00 04 03 24 07 d3 03 bc 8f 01 80 1d 44
[ 2808.043325] i2c_hid i2c-ELAN0501:00: input: 0e 00 04 03 4e 07 d2 03 02 90 01 80 1d 34
[ 2808.050145] i2c_hid i2c-ELAN0501:00: input: 0e 00 04 03 6f 07 d3 03 48 90 01 80 1d 44
[ 2808.057178] i2c_hid i2c-ELAN0501:00: input: 0e 00 04 03 96 07 d1 03 8e 90 01 80 1d 33
[ 2808.064070] i2c_hid i2c-ELAN0501:00: input: 0e 00 04 03 b7 07 d1 03 d4 90 01 80 1d 33
[ 2808.071056] i2c_hid i2c-ELAN0501:00: input: 0e 00 04 03 d1 07 d4 03 1a 91 01 80 1d 43
[ 2808.078091] i2c_hid i2c-ELAN0501:00: input: 0e 00 04 03 ee 07 d2 03 60 91 01 80 1d 33
[ 2808.085086] i2c_hid i2c-ELAN0501:00: input: 0e 00 04 03 03 08 d2 03 a6 91 01 80 1d 33
[ 2808.092044] i2c_hid i2c-ELAN0501:00: input: 0e 00 04 03 13 08 d6 03 ec 91 01 80 1d 43
[ 2808.099023] i2c_hid i2c-ELAN0501:00: input: 0e 00 04 03 2a 08 d7 03 32 92 01 80 1d 43
[ 2808.106115] i2c_hid i2c-ELAN0501:00: input: 0e 00 04 03 45 08 d7 03 78 92 01 80 1d 44
[ 2808.113031] i2c_hid i2c-ELAN0501:00: input: 0e 00 04 03 5c 08 d7 03 be 92 01 80 1d 34
[ 2808.120107] i2c_hid i2c-ELAN0501:00: input: 0e 00 04 03 6c 08 d7 03 04 93 01 80 1d 44
[ 2808.127093] i2c_hid i2c-ELAN0501:00: input: 0e 00 04 03 7b 08 d7 03 4a 93 01 80 1d 44
[ 2808.134035] i2c_hid i2c-ELAN0501:00: input: 0e 00 04 03 8b 08 d6 03 90 93 01 80 1d 34
[ 2808.141140] i2c_hid i2c-ELAN0501:00: input: 0e 00 04 03 9b 08 d5 03 d6 93 01 80 1d 34
[ 2808.147861] i2c_hid i2c-ELAN0501:00: input: 0e 00 04 03 ac 08 d4 03 1c 94 01 80 1d 34
[ 2808.155058] i2c_hid i2c-ELAN0501:00: input: 0e 00 04 03 bb 08 d4 03 62 94 01 80 1d 33
[ 2808.161927] i2c_hid i2c-ELAN0501:00: input: 0e 00 04 03 c8 08 d3 03 a8 94 01 80 1d 33
[ 2808.168858] i2c_hid i2c-ELAN0501:00: input: 0e 00 04 03 d4 08 d2 03 ee 94 01 80 1d 33
[ 2808.176037] i2c_hid i2c-ELAN0501:00: input: 0e 00 04 03 df 08 d2 03 34 95 01 80 1d 43
[ 2808.182809] i2c_hid i2c-ELAN0501:00: input: 0e 00 04 03 e9 08 d1 03 7a 95 01 80 1d 33
[ 2808.190038] i2c_hid i2c-ELAN0501:00: input: 0e 00 04 03 f2 08 d0 03 c0 95 01 80 1d 33
[ 2808.196845] i2c_hid i2c-ELAN0501:00: input: 0e 00 04 03 fa 08 cf 03 06 96 01 80 1d 33
[ 2808.203949] i2c_hid i2c-ELAN0501:00: input: 0e 00 04 03 03 09 ce 03 4c 96 01 80 1d 34
[ 2808.210890] i2c_hid i2c-ELAN0501:00: input: 0e 00 04 03 0b 09 ce 03 92 96 01 80 1d 33
[ 2808.217818] i2c_hid i2c-ELAN0501:00: input: 0e 00 04 03 12 09 ce 03 d8 96 01 80 1d 33
[ 2808.225119] i2c_hid i2c-ELAN0501:00: input: 0e 00 04 03 1a 09 cd 03 1e 97 01 80 1d 33
[ 2808.231765] i2c_hid i2c-ELAN0501:00: input: 0e 00 04 03 24 09 cc 03 64 97 01 80 1d 33
[ 2808.238814] i2c_hid i2c-ELAN0501:00: input: 0e 00 04 03 2f 09 cb 03 aa 97 01 80 1d 33
[ 2808.245689] i2c_hid i2c-ELAN0501:00: input: 0e 00 04 03 3a 09 ca 03 f0 97 01 80 1d 33
[ 2808.252917] i2c_hid i2c-ELAN0501:00: input: 0e 00 04 03 45 09 ca 03 36 98 01 80 1d 33
[ 2808.259883] i2c_hid i2c-ELAN0501:00: input: 0e 00 04 03 51 09 ca 03 7c 98 01 80 1d 34
[ 2808.266630] i2c_hid i2c-ELAN0501:00: input: 0e 00 04 03 5d 09 c9 03 c2 98 01 80 1d 34
[ 2808.273727] i2c_hid i2c-ELAN0501:00: input: 0e 00 04 03 69 09 c8 03 08 99 01 80 1d 34
[ 2808.280750] i2c_hid i2c-ELAN0501:00: input: 0e 00 04 03 75 09 c7 03 4e 99 01 80 1d 34
[ 2808.287930] i2c_hid i2c-ELAN0501:00: input: 0e 00 04 03 80 09 c6 03 94 99 01 80 1d 34
[ 2808.294887] i2c_hid i2c-ELAN0501:00: input: 0e 00 04 03 8a 09 c5 03 da 99 01 80 1d 34
[ 2808.301831] i2c_hid i2c-ELAN0501:00: input: 0e 00 04 03 93 09 c4 03 20 9a 01 80 1d 34
[ 2808.308737] i2c_hid i2c-ELAN0501:00: input: 0e 00 04 03 9a 09 c4 03 66 9a 01 80 1d 34
[ 2808.315731] i2c_hid i2c-ELAN0501:00: input: 0e 00 04 03 9f 09 c4 03 ac 9a 01 80 1d 34
[ 2808.322877] i2c_hid i2c-ELAN0501:00: input: 0e 00 04 03 a5 09 c4 03 f2 9a 01 80 1d 34
[ 2808.329634] i2c_hid i2c-ELAN0501:00: input: 0e 00 04 03 ab 09 c4 03 38 9b 01 80 1d 34
[ 2808.336771] i2c_hid i2c-ELAN0501:00: input: 0e 00 04 03 b4 09 c4 03 7e 9b 01 80 1d 33
[ 2808.343604] i2c_hid i2c-ELAN0501:00: input: 0e 00 04 03 bc 09 c4 03 c4 9b 01 80 1d 33
[ 2808.350794] i2c_hid i2c-ELAN0501:00: input: 0e 00 04 03 c5 09 c4 03 0a 9c 01 80 1d 33
[ 2808.357583] i2c_hid i2c-ELAN0501:00: input: 0e 00 04 03 cd 09 c4 03 50 9c 01 80 1b 33
[ 2808.364723] i2c_hid i2c-ELAN0501:00: input: 0e 00 04 03 d5 09 c5 03 96 9c 01 80 1b 33
[ 2808.371618] i2c_hid i2c-ELAN0501:00: input: 0e 00 04 03 de 09 c6 03 dc 9c 01 80 1b 33
[ 2808.378522] i2c_hid i2c-ELAN0501:00: input: 0e 00 04 03 e7 09 c7 03 22 9d 01 80 1b 33
[ 2808.385617] i2c_hid i2c-ELAN0501:00: input: 0e 00 04 03 ef 09 c8 03 68 9d 01 80 1b 33
[ 2808.392438] i2c_hid i2c-ELAN0501:00: input: 0e 00 04 03 f8 09 c9 03 ae 9d 01 80 1b 33
[ 2808.399548] i2c_hid i2c-ELAN0501:00: input: 0e 00 04 03 00 0a ca 03 f4 9d 01 80 1b 33
[ 2808.406651] i2c_hid i2c-ELAN0501:00: input: 0e 00 04 03 08 0a cb 03 3a 9e 01 80 1b 33
[ 2808.413508] i2c_hid i2c-ELAN0501:00: input: 0e 00 04 03 10 0a cc 03 80 9e 01 80 1b 33
[ 2808.420382] i2c_hid i2c-ELAN0501:00: input: 0e 00 04 03 16 0a cd 03 c6 9e 01 80 1b 33
[ 2808.427468] i2c_hid i2c-ELAN0501:00: input: 0e 00 04 03 1c 0a cf 03 0c 9f 01 80 1b 32
[ 2808.434427] i2c_hid i2c-ELAN0501:00: input: 0e 00 04 03 22 0a d1 03 52 9f 01 80 1b 32
[ 2808.441588] i2c_hid i2c-ELAN0501:00: input: 0e 00 04 03 27 0a d2 03 98 9f 01 80 1b 33
[ 2808.448579] i2c_hid i2c-ELAN0501:00: input: 0e 00 04 03 2c 0a d3 03 de 9f 01 80 1b 33
[ 2808.455500] i2c_hid i2c-ELAN0501:00: input: 0e 00 04 03 30 0a d4 03 24 a0 01 80 1b 33
[ 2808.462324] i2c_hid i2c-ELAN0501:00: input: 0e 00 04 03 34 0a d5 03 6a a0 01 80 1b 33
[ 2808.469546] i2c_hid i2c-ELAN0501:00: input: 0e 00 04 03 38 0a d6 03 b0 a0 01 80 1b 33
[ 2808.476357] i2c_hid i2c-ELAN0501:00: input: 0e 00 04 03 3c 0a d7 03 f6 a0 01 80 1a 33
[ 2808.483418] i2c_hid i2c-ELAN0501:00: input: 0e 00 04 03 40 0a d8 03 3c a1 01 80 1a 33
[ 2808.490384] i2c_hid i2c-ELAN0501:00: input: 0e 00 04 03 44 0a d9 03 82 a1 01 80 1a 33
[ 2808.497372] i2c_hid i2c-ELAN0501:00: input: 0e 00 04 03 48 0a db 03 c8 a1 01 80 1a 43
[ 2808.504312] i2c_hid i2c-ELAN0501:00: input: 0e 00 04 03 4b 0a dc 03 0e a2 01 80 1a 33
[ 2808.511425] i2c_hid i2c-ELAN0501:00: input: 0e 00 04 03 4d 0a dd 03 54 a2 01 80 1a 33
[ 2808.518299] i2c_hid i2c-ELAN0501:00: input: 0e 00 04 03 4f 0a de 03 9a a2 01 80 1a 33
[ 2808.525433] i2c_hid i2c-ELAN0501:00: input: 0e 00 04 03 51 0a df 03 e0 a2 01 80 1a 33
[ 2808.532400] i2c_hid i2c-ELAN0501:00: input: 0e 00 04 03 53 0a e0 03 26 a3 01 80 1a 33
[ 2808.539475] i2c_hid i2c-ELAN0501:00: input: 0e 00 04 03 55 0a e1 03 6c a3 01 80 1a 33
[ 2808.546160] i2c_hid i2c-ELAN0501:00: input: 0e 00 04 03 57 0a e2 03 b2 a3 01 80 1a 33
[ 2808.553225] i2c_hid i2c-ELAN0501:00: input: 0e 00 04 03 59 0a e3 03 f8 a3 01 80 1a 33
[ 2808.560238] i2c_hid i2c-ELAN0501:00: input: 0e 00 04 03 5b 0a e4 03 3e a4 01 80 1a 33
[ 2808.567259] i2c_hid i2c-ELAN0501:00: input: 0e 00 04 03 5d 0a e5 03 84 a4 01 80 1a 33
[ 2808.574441] i2c_hid i2c-ELAN0501:00: input: 0e 00 04 03 5f 0a e6 03 ca a4 01 80 1a 33
[ 2808.581175] i2c_hid i2c-ELAN0501:00: input: 0e 00 04 03 61 0a e6 03 10 a5 01 80 1a 33
[ 2808.588308] i2c_hid i2c-ELAN0501:00: input: 0e 00 04 03 62 0a e7 03 56 a5 01 80 1a 33
[ 2808.595117] i2c_hid i2c-ELAN0501:00: input: 0e 00 04 03 63 0a e7 03 9c a5 01 80 1a 33
[ 2808.602273] i2c_hid i2c-ELAN0501:00: input: 0e 00 04 03 64 0a e7 03 e2 a5 01 80 1a 33
[ 2808.609255] i2c_hid i2c-ELAN0501:00: input: 0e 00 04 03 65 0a e7 03 28 a6 01 80 1a 33
[ 2808.616250] i2c_hid i2c-ELAN0501:00: input: 0e 00 04 03 66 0a e7 03 6e a6 01 80 1a 33
[ 2808.623829] i2c_hid i2c-ELAN0501:00: input: 0e 00 04 03 67 0a e7 03 b4 a6 01 80 1a 33
[ 2808.630400] i2c_hid i2c-ELAN0501:00: input: 0e 00 04 03 68 0a e7 03 fa a6 01 80 1a 33
[ 2808.637379] i2c_hid i2c-ELAN0501:00: input: 0e 00 04 03 69 0a e7 03 40 a7 01 80 1a 33
[ 2808.644106] i2c_hid i2c-ELAN0501:00: input: 0e 00 04 03 6a 0a e7 03 86 a7 01 80 1a 33
[ 2808.651094] i2c_hid i2c-ELAN0501:00: input: 0e 00 04 03 6b 0a e7 03 cc a7 01 80 1a 33
[ 2808.658270] i2c_hid i2c-ELAN0501:00: input: 0e 00 04 03 6c 0a e7 03 12 a8 01 80 1a 33
[ 2808.665196] i2c_hid i2c-ELAN0501:00: input: 0e 00 04 03 6d 0a e7 03 58 a8 01 80 1a 33
[ 2808.672212] i2c_hid i2c-ELAN0501:00: input: 0e 00 04 03 6e 0a e7 03 9e a8 01 80 1a 33
[ 2808.678933] i2c_hid i2c-ELAN0501:00: input: 0e 00 04 03 6f 0a e8 03 e4 a8 01 80 1a 33
[ 2808.686115] i2c_hid i2c-ELAN0501:00: input: 0e 00 04 03 70 0a e8 03 2a a9 01 80 1a 33
[ 2808.693010] i2c_hid i2c-ELAN0501:00: input: 0e 00 04 03 71 0a e8 03 70 a9 01 80 1a 33
[ 2808.700119] i2c_hid i2c-ELAN0501:00: input: 0e 00 04 03 72 0a e8 03 b6 a9 01 80 1a 33
[ 2808.707118] i2c_hid i2c-ELAN0501:00: input: 0e 00 04 03 72 0a e8 03 fc a9 01 80 1a 33
[ 2808.713973] i2c_hid i2c-ELAN0501:00: input: 0e 00 04 03 72 0a e8 03 42 aa 01 80 1a 33
[ 2808.720934] i2c_hid i2c-ELAN0501:00: input: 0e 00 04 03 72 0a e8 03 88 aa 01 80 1a 33
[ 2808.728047] i2c_hid i2c-ELAN0501:00: input: 0e 00 04 03 72 0a e8 03 ce aa 01 80 1a 33
[ 2808.734915] i2c_hid i2c-ELAN0501:00: input: 0e 00 04 03 72 0a e8 03 14 ab 01 80 1a 33
[ 2808.741886] i2c_hid i2c-ELAN0501:00: input: 0e 00 04 03 72 0a e8 03 5a ab 01 80 19 33
[ 2808.749098] i2c_hid i2c-ELAN0501:00: input: 0e 00 04 03 72 0a e8 03 a0 ab 01 80 18 33
[ 2808.756034] i2c_hid i2c-ELAN0501:00: input: 0e 00 04 03 72 0a e8 03 e6 ab 01 80 17 33
[ 2808.762968] i2c_hid i2c-ELAN0501:00: input: 0e 00 04 03 72 0a e8 03 2c ac 01 80 16 33
[ 2808.770012] i2c_hid i2c-ELAN0501:00: input: 0e 00 04 03 71 0a e8 03 72 ac 01 80 14 33
[ 2808.777053] i2c_hid i2c-ELAN0501:00: input: 0e 00 04 03 6f 0a e8 03 b8 ac 01 80 11 33
[ 2808.784047] i2c_hid i2c-ELAN0501:00: input: 0e 00 04 03 6f 0a e8 03 fe ac 01 80 11 11
[ 2808.790887] i2c_hid i2c-ELAN0501:00: input: 0e 00 04 01 6f 0a e8 03 44 ad 01 80 11 11
[ 2809.063514] i2c_hid i2c-ELAN0501:00: input: 0e 00 04 03 71 09 bf 03 ee b7 01 80 10 33
[ 2809.070554] i2c_hid i2c-ELAN0501:00: input: 0e 00 04 03 71 09 bf 03 34 b8 01 80 10 33
[ 2809.077622] i2c_hid i2c-ELAN0501:00: input: 0e 00 04 03 71 09 bf 03 7a b8 01 80 10 33
[ 2809.084521] i2c_hid i2c-ELAN0501:00: input: 0e 00 04 03 6c 09 c1 03 c0 b8 01 80 10 33
[ 2809.091484] i2c_hid i2c-ELAN0501:00: input: 0e 00 04 03 65 09 c3 03 06 b9 01 80 11 32
[ 2809.098352] i2c_hid i2c-ELAN0501:00: input: 0e 00 04 03 5d 09 c5 03 4c b9 01 80 12 32
[ 2809.105505] i2c_hid i2c-ELAN0501:00: input: 0e 00 04 03 55 09 c8 03 92 b9 01 80 14 32
[ 2809.112455] i2c_hid i2c-ELAN0501:00: input: 0e 00 04 03 4d 09 cb 03 d8 b9 01 80 14 32
[ 2809.119436] i2c_hid i2c-ELAN0501:00: input: 0e 00 04 03 42 09 ce 03 1e ba 01 80 14 33
[ 2809.126239] i2c_hid i2c-ELAN0501:00: input: 0e 00 04 03 29 09 d3 03 64 ba 01 80 14 33
[ 2809.133291] i2c_hid i2c-ELAN0501:00: input: 0e 00 04 03 fc 08 dc 03 aa ba 01 80 15 33
[ 2809.140340] i2c_hid i2c-ELAN0501:00: input: 0e 00 04 03 c7 08 e6 03 f0 ba 01 80 16 44
[ 2809.147328] i2c_hid i2c-ELAN0501:00: input: 0e 00 04 03 a7 08 eb 03 36 bb 01 80 17 44
[ 2809.154344] i2c_hid i2c-ELAN0501:00: input: 0e 00 04 03 92 08 ed 03 7c bb 01 80 17 44
[ 2809.161245] i2c_hid i2c-ELAN0501:00: input: 0e 00 04 03 82 08 ec 03 c2 bb 01 80 17 43
[ 2809.168232] i2c_hid i2c-ELAN0501:00: input: 0e 00 04 03 76 08 ea 03 08 bc 01 80 17 43
[ 2809.175297] i2c_hid i2c-ELAN0501:00: input: 0e 00 04 03 67 08 ea 03 4e bc 01 80 17 43
[ 2809.182216] i2c_hid i2c-ELAN0501:00: input: 0e 00 04 03 5c 08 ea 03 94 bc 01 80 17 43
[ 2809.189238] i2c_hid i2c-ELAN0501:00: input: 0e 00 04 03 52 08 ea 03 da bc 01 80 17 43
[ 2809.195907] i2c_hid i2c-ELAN0501:00: input: 0e 00 04 03 49 08 ea 03 20 bd 01 80 17 43
[ 2809.203166] i2c_hid i2c-ELAN0501:00: input: 0e 00 04 03 42 08 eb 03 66 bd 01 80 17 43
[ 2809.210002] i2c_hid i2c-ELAN0501:00: input: 0e 00 04 03 3b 08 ed 03 ac bd 01 80 17 43
[ 2809.216989] i2c_hid i2c-ELAN0501:00: input: 0e 00 04 03 34 08 ee 03 f2 bd 01 80 18 43
[ 2809.224147] i2c_hid i2c-ELAN0501:00: input: 0e 00 04 03 2d 08 ee 03 38 be 01 80 18 42
[ 2809.230972] i2c_hid i2c-ELAN0501:00: input: 0e 00 04 03 27 08 ee 03 7e be 01 80 18 42
[ 2809.238122] i2c_hid i2c-ELAN0501:00: input: 0e 00 04 03 22 08 ee 03 c4 be 01 80 18 42
[ 2809.244892] i2c_hid i2c-ELAN0501:00: input: 0e 00 04 03 1e 08 ee 03 0a bf 01 80 18 42
[ 2809.252081] i2c_hid i2c-ELAN0501:00: input: 0e 00 04 03 1b 08 ee 03 50 bf 01 80 18 42
[ 2809.258901] i2c_hid i2c-ELAN0501:00: input: 0e 00 04 03 18 08 ee 03 96 bf 01 80 18 42
[ 2809.266025] i2c_hid i2c-ELAN0501:00: input: 0e 00 04 03 15 08 ee 03 dc bf 01 80 18 42
[ 2809.273001] i2c_hid i2c-ELAN0501:00: input: 0e 00 04 03 13 08 ee 03 22 c0 01 80 18 42
[ 2809.279932] i2c_hid i2c-ELAN0501:00: input: 0e 00 04 03 11 08 ee 03 68 c0 01 80 18 42
[ 2809.286906] i2c_hid i2c-ELAN0501:00: input: 0e 00 04 03 0f 08 ee 03 ae c0 01 80 18 43
[ 2809.294032] i2c_hid i2c-ELAN0501:00: input: 0e 00 04 03 0d 08 ee 03 f4 c0 01 80 18 43
[ 2809.300929] i2c_hid i2c-ELAN0501:00: input: 0e 00 04 03 0a 08 ed 03 3a c1 01 80 18 43
[ 2809.307950] i2c_hid i2c-ELAN0501:00: input: 0e 00 04 03 06 08 ec 03 80 c1 01 80 18 33
[ 2809.314801] i2c_hid i2c-ELAN0501:00: input: 0e 00 04 03 02 08 eb 03 c6 c1 01 80 18 43
[ 2809.321942] i2c_hid i2c-ELAN0501:00: input: 0e 00 04 03 fe 07 ea 03 0c c2 01 80 18 43
[ 2809.328787] i2c_hid i2c-ELAN0501:00: input: 0e 00 04 03 f9 07 e9 03 52 c2 01 80 18 43
[ 2809.335910] i2c_hid i2c-ELAN0501:00: input: 0e 00 04 03 f3 07 e7 03 98 c2 01 80 18 33
[ 2809.342923] i2c_hid i2c-ELAN0501:00: input: 0e 00 04 03 ec 07 e5 03 de c2 01 80 18 33
[ 2809.349928] i2c_hid i2c-ELAN0501:00: input: 0e 00 04 03 e5 07 e3 03 24 c3 01 80 18 33
[ 2809.356896] i2c_hid i2c-ELAN0501:00: input: 0e 00 04 03 de 07 e1 03 6a c3 01 80 18 33
[ 2809.363940] i2c_hid i2c-ELAN0501:00: input: 0e 00 04 03 d8 07 df 03 b0 c3 01 80 18 33
[ 2809.370888] i2c_hid i2c-ELAN0501:00: input: 0e 00 04 03 d2 07 dd 03 f6 c3 01 80 18 33
[ 2809.377794] i2c_hid i2c-ELAN0501:00: input: 0e 00 04 03 cb 07 da 03 3c c4 01 80 18 33
[ 2809.384791] i2c_hid i2c-ELAN0501:00: input: 0e 00 04 03 c5 07 d7 03 82 c4 01 80 18 33
[ 2809.391690] i2c_hid i2c-ELAN0501:00: input: 0e 00 04 03 be 07 d4 03 c8 c4 01 80 18 34
[ 2809.398670] i2c_hid i2c-ELAN0501:00: input: 0e 00 04 03 b8 07 d1 03 0e c5 01 80 18 34
[ 2809.405817] i2c_hid i2c-ELAN0501:00: input: 0e 00 04 03 b2 07 ce 03 54 c5 01 80 18 34
[ 2809.412644] i2c_hid i2c-ELAN0501:00: input: 0e 00 04 03 ad 07 cb 03 9a c5 01 80 18 34
[ 2809.419831] i2c_hid i2c-ELAN0501:00: input: 0e 00 04 03 a8 07 c8 03 e0 c5 01 80 18 34
[ 2809.426780] i2c_hid i2c-ELAN0501:00: input: 0e 00 04 03 a3 07 c5 03 26 c6 01 80 18 34
[ 2809.433738] i2c_hid i2c-ELAN0501:00: input: 0e 00 04 03 9f 07 c3 03 6c c6 01 80 18 34
[ 2809.440550] i2c_hid i2c-ELAN0501:00: input: 0e 00 04 03 9c 07 c1 03 b2 c6 01 80 18 34
[ 2809.447641] i2c_hid i2c-ELAN0501:00: input: 0e 00 04 03 9a 07 c0 03 f8 c6 01 80 18 34
[ 2809.454612] i2c_hid i2c-ELAN0501:00: input: 0e 00 04 03 98 07 bf 03 3e c7 01 80 18 34
[ 2809.461505] i2c_hid i2c-ELAN0501:00: input: 0e 00 04 03 96 07 be 03 84 c7 01 80 18 34
[ 2809.468517] i2c_hid i2c-ELAN0501:00: input: 0e 00 04 03 94 07 bd 03 ca c7 01 80 18 34
[ 2809.475596] i2c_hid i2c-ELAN0501:00: input: 0e 00 04 03 92 07 bc 03 10 c8 01 80 18 34
[ 2809.482665] i2c_hid i2c-ELAN0501:00: input: 0e 00 04 03 90 07 bb 03 56 c8 01 80 18 34
[ 2809.489517] i2c_hid i2c-ELAN0501:00: input: 0e 00 04 03 8e 07 ba 03 9c c8 01 80 18 34
[ 2809.496660] i2c_hid i2c-ELAN0501:00: input: 0e 00 04 03 8c 07 b9 03 e2 c8 01 80 18 34
[ 2809.503500] i2c_hid i2c-ELAN0501:00: input: 0e 00 04 03 8a 07 b8 03 28 c9 01 80 18 34
[ 2809.510433] i2c_hid i2c-ELAN0501:00: input: 0e 00 04 03 88 07 b7 03 6e c9 01 80 18 34
[ 2809.517596] i2c_hid i2c-ELAN0501:00: input: 0e 00 04 03 86 07 b6 03 b4 c9 01 80 18 34
[ 2809.524414] i2c_hid i2c-ELAN0501:00: input: 0e 00 04 03 84 07 b5 03 fa c9 01 80 18 34
[ 2809.531394] i2c_hid i2c-ELAN0501:00: input: 0e 00 04 03 82 07 b4 03 40 ca 01 80 18 34
[ 2809.538400] i2c_hid i2c-ELAN0501:00: input: 0e 00 04 03 80 07 b3 03 86 ca 01 80 18 34
[ 2809.545305] i2c_hid i2c-ELAN0501:00: input: 0e 00 04 03 7e 07 b2 03 cc ca 01 80 18 34
[ 2809.552506] i2c_hid i2c-ELAN0501:00: input: 0e 00 04 03 7c 07 b1 03 12 cb 01 80 18 34
[ 2809.559327] i2c_hid i2c-ELAN0501:00: input: 0e 00 04 03 7a 07 b0 03 58 cb 01 80 18 34
[ 2809.566505] i2c_hid i2c-ELAN0501:00: input: 0e 00 04 03 78 07 af 03 9e cb 01 80 18 34
[ 2809.573468] i2c_hid i2c-ELAN0501:00: input: 0e 00 04 03 76 07 ae 03 e4 cb 01 80 18 34
[ 2809.580505] i2c_hid i2c-ELAN0501:00: input: 0e 00 04 03 74 07 ad 03 2a cc 01 80 18 33
[ 2809.587510] i2c_hid i2c-ELAN0501:00: input: 0e 00 04 03 72 07 ac 03 70 cc 01 80 18 34
[ 2809.594254] i2c_hid i2c-ELAN0501:00: input: 0e 00 04 03 70 07 ab 03 b6 cc 01 80 18 34
[ 2809.601498] i2c_hid i2c-ELAN0501:00: input: 0e 00 04 03 6e 07 aa 03 fc cc 01 80 18 43
[ 2809.608296] i2c_hid i2c-ELAN0501:00: input: 0e 00 04 03 6c 07 a9 03 42 cd 01 80 18 34
[ 2809.615405] i2c_hid i2c-ELAN0501:00: input: 0e 00 04 03 6a 07 a8 03 88 cd 01 80 18 33
[ 2809.622536] i2c_hid i2c-ELAN0501:00: input: 0e 00 04 03 69 07 a7 03 ce cd 01 80 18 34
[ 2809.629199] i2c_hid i2c-ELAN0501:00: input: 0e 00 04 03 68 07 a6 03 14 ce 01 80 18 33
[ 2809.636363] i2c_hid i2c-ELAN0501:00: input: 0e 00 04 03 67 07 a5 03 5a ce 01 80 18 33
[ 2809.643271] i2c_hid i2c-ELAN0501:00: input: 0e 00 04 03 66 07 a4 03 a0 ce 01 80 18 33
[ 2809.650313] i2c_hid i2c-ELAN0501:00: input: 0e 00 04 03 65 07 a3 03 e6 ce 01 80 18 33
[ 2809.657278] i2c_hid i2c-ELAN0501:00: input: 0e 00 04 03 64 07 a2 03 2c cf 01 80 18 33
[ 2809.664323] i2c_hid i2c-ELAN0501:00: input: 0e 00 04 03 63 07 a1 03 72 cf 01 80 18 33
[ 2809.671137] i2c_hid i2c-ELAN0501:00: input: 0e 00 04 03 62 07 a0 03 b8 cf 01 80 18 34
[ 2809.678096] i2c_hid i2c-ELAN0501:00: input: 0e 00 04 03 61 07 9f 03 fe cf 01 80 18 44
[ 2809.685253] i2c_hid i2c-ELAN0501:00: input: 0e 00 04 03 60 07 9e 03 44 d0 01 80 18 44
[ 2809.692305] i2c_hid i2c-ELAN0501:00: input: 0e 00 04 03 5f 07 9e 03 8a d0 01 80 18 34
[ 2809.699241] i2c_hid i2c-ELAN0501:00: input: 0e 00 04 03 5e 07 9e 03 d0 d0 01 80 18 34
[ 2809.706067] i2c_hid i2c-ELAN0501:00: input: 0e 00 04 03 5d 07 9e 03 16 d1 01 80 18 44
[ 2809.713182] i2c_hid i2c-ELAN0501:00: input: 0e 00 04 03 5c 07 9e 03 5c d1 01 80 18 44
[ 2809.720187] i2c_hid i2c-ELAN0501:00: input: 0e 00 04 03 5b 07 9e 03 a2 d1 01 80 18 33
[ 2809.727193] i2c_hid i2c-ELAN0501:00: input: 0e 00 04 03 5a 07 9e 03 e8 d1 01 80 18 33
[ 2809.734156] i2c_hid i2c-ELAN0501:00: input: 0e 00 04 03 59 07 9e 03 2e d2 01 80 18 43
[ 2809.740985] i2c_hid i2c-ELAN0501:00: input: 0e 00 04 03 58 07 9e 03 74 d2 01 80 18 33
[ 2809.748158] i2c_hid i2c-ELAN0501:00: input: 0e 00 04 03 57 07 9e 03 ba d2 01 80 18 34
[ 2809.755123] i2c_hid i2c-ELAN0501:00: input: 0e 00 04 03 56 07 9e 03 00 d3 01 80 18 34
[ 2809.761981] i2c_hid i2c-ELAN0501:00: input: 0e 00 04 03 55 07 9e 03 46 d3 01 80 18 43
[ 2809.769095] i2c_hid i2c-ELAN0501:00: input: 0e 00 04 03 54 07 9e 03 8c d3 01 80 18 43
[ 2809.776062] i2c_hid i2c-ELAN0501:00: input: 0e 00 04 03 53 07 9e 03 d2 d3 01 80 18 43
[ 2809.783073] i2c_hid i2c-ELAN0501:00: input: 0e 00 04 03 52 07 9e 03 18 d4 01 80 18 43
[ 2809.790094] i2c_hid i2c-ELAN0501:00: input: 0e 00 04 03 52 07 9e 03 5e d4 01 80 18 43
[ 2809.797062] i2c_hid i2c-ELAN0501:00: input: 0e 00 04 03 52 07 9e 03 a4 d4 01 80 18 43
[ 2809.803897] i2c_hid i2c-ELAN0501:00: input: 0e 00 04 03 52 07 9e 03 ea d4 01 80 18 44
[ 2809.810875] i2c_hid i2c-ELAN0501:00: input: 0e 00 04 03 52 07 9e 03 30 d5 01 80 18 34
[ 2809.818010] i2c_hid i2c-ELAN0501:00: input: 0e 00 04 03 52 07 9e 03 76 d5 01 80 18 44
[ 2809.824939] i2c_hid i2c-ELAN0501:00: input: 0e 00 04 03 52 07 9e 03 bc d5 01 80 18 43
[ 2809.831871] i2c_hid i2c-ELAN0501:00: input: 0e 00 04 03 52 07 9e 03 02 d6 01 80 18 44
[ 2809.838967] i2c_hid i2c-ELAN0501:00: input: 0e 00 04 03 52 07 9e 03 48 d6 01 80 18 43
[ 2809.845996] i2c_hid i2c-ELAN0501:00: input: 0e 00 04 03 52 07 9e 03 8e d6 01 80 18 43
[ 2809.853104] i2c_hid i2c-ELAN0501:00: input: 0e 00 04 03 52 07 9e 03 d4 d6 01 80 18 43
[ 2809.860132] i2c_hid i2c-ELAN0501:00: input: 0e 00 04 03 52 07 9e 03 1a d7 01 80 18 43
[ 2809.867069] i2c_hid i2c-ELAN0501:00: input: 0e 00 04 03 52 07 9e 03 60 d7 01 80 18 43
[ 2809.874022] i2c_hid i2c-ELAN0501:00: input: 0e 00 04 03 52 07 9e 03 a6 d7 01 80 18 43
[ 2809.881102] i2c_hid i2c-ELAN0501:00: input: 0e 00 04 03 52 07 9e 03 ec d7 01 80 18 43
[ 2809.887998] i2c_hid i2c-ELAN0501:00: input: 0e 00 04 03 52 07 9e 03 32 d8 01 80 18 43
[ 2809.894710] i2c_hid i2c-ELAN0501:00: input: 0e 00 04 03 52 07 9e 03 78 d8 01 80 18 43
[ 2809.901733] i2c_hid i2c-ELAN0501:00: input: 0e 00 04 03 52 07 9e 03 be d8 01 80 18 43
[ 2809.908688] i2c_hid i2c-ELAN0501:00: input: 0e 00 04 03 51 07 9e 03 04 d9 01 80 18 43
[ 2809.915781] i2c_hid i2c-ELAN0501:00: input: 0e 00 04 03 51 07 9e 03 4a d9 01 80 18 43
[ 2809.922657] i2c_hid i2c-ELAN0501:00: input: 0e 00 04 03 51 07 9e 03 90 d9 01 80 19 43
[ 2809.929654] i2c_hid i2c-ELAN0501:00: input: 0e 00 04 03 51 07 9e 03 d6 d9 01 80 19 44
[ 2809.936630] i2c_hid i2c-ELAN0501:00: input: 0e 00 04 03 51 07 9e 03 1c da 01 80 19 43
[ 2809.943523] i2c_hid i2c-ELAN0501:00: input: 0e 00 04 03 51 07 9e 03 62 da 01 80 19 43
[ 2809.950734] i2c_hid i2c-ELAN0501:00: input: 0e 00 04 03 51 07 9e 03 a8 da 01 80 19 43
[ 2809.957703] i2c_hid i2c-ELAN0501:00: input: 0e 00 04 03 51 07 9e 03 ee da 01 80 19 44
[ 2809.964787] i2c_hid i2c-ELAN0501:00: input: 0e 00 04 03 51 07 9e 03 34 db 01 80 19 44
[ 2809.971711] i2c_hid i2c-ELAN0501:00: input: 0e 00 04 03 51 07 9e 03 7a db 01 80 19 34
[ 2809.978606] i2c_hid i2c-ELAN0501:00: input: 0e 00 04 03 51 07 9e 03 c0 db 01 80 19 34
[ 2809.985553] i2c_hid i2c-ELAN0501:00: input: 0e 00 04 03 51 07 9e 03 06 dc 01 80 19 33
[ 2809.992813] i2c_hid i2c-ELAN0501:00: input: 0e 00 04 03 51 07 9e 03 4c dc 01 80 19 33
[ 2809.999625] i2c_hid i2c-ELAN0501:00: input: 0e 00 04 03 51 07 9e 03 92 dc 01 80 19 33
[ 2810.006502] i2c_hid i2c-ELAN0501:00: input: 0e 00 04 03 51 07 9e 03 d8 dc 01 80 19 33
[ 2810.013663] i2c_hid i2c-ELAN0501:00: input: 0e 00 04 03 51 07 9e 03 1e dd 01 80 19 34
[ 2810.020624] i2c_hid i2c-ELAN0501:00: input: 0e 00 04 03 51 07 9e 03 64 dd 01 80 19 34
[ 2810.027518] i2c_hid i2c-ELAN0501:00: input: 0e 00 04 03 51 07 9e 03 aa dd 01 80 19 34
[ 2810.034499] i2c_hid i2c-ELAN0501:00: input: 0e 00 04 03 51 07 9e 03 f0 dd 01 80 19 34
[ 2810.041480] i2c_hid i2c-ELAN0501:00: input: 0e 00 04 03 51 07 9e 03 36 de 01 80 19 34
[ 2810.048551] i2c_hid i2c-ELAN0501:00: input: 0e 00 04 03 51 07 9e 03 7c de 01 80 19 34
[ 2810.055529] i2c_hid i2c-ELAN0501:00: input: 0e 00 04 03 51 07 9e 03 c2 de 01 80 19 34
[ 2810.062476] i2c_hid i2c-ELAN0501:00: input: 0e 00 04 03 51 07 9e 03 08 df 01 80 19 34
[ 2810.069446] i2c_hid i2c-ELAN0501:00: input: 0e 00 04 03 51 07 9e 03 4e df 01 80 19 34
[ 2810.076625] i2c_hid i2c-ELAN0501:00: input: 0e 00 04 03 51 07 9e 03 94 df 01 80 19 34
[ 2810.083397] i2c_hid i2c-ELAN0501:00: input: 0e 00 04 03 50 07 9e 03 da df 01 80 19 34
[ 2810.090475] i2c_hid i2c-ELAN0501:00: input: 0e 00 04 03 4f 07 9e 03 20 e0 01 80 19 34
[ 2810.097534] i2c_hid i2c-ELAN0501:00: input: 0e 00 04 03 4f 07 9f 03 66 e0 01 80 19 34
[ 2810.104495] i2c_hid i2c-ELAN0501:00: input: 0e 00 04 03 4e 07 a0 03 ac e0 01 80 19 33
[ 2810.111236] i2c_hid i2c-ELAN0501:00: input: 0e 00 04 03 4d 07 a1 03 f2 e0 01 80 1a 33
[ 2810.118476] i2c_hid i2c-ELAN0501:00: input: 0e 00 04 03 4c 07 a2 03 38 e1 01 80 1a 34
[ 2810.125329] i2c_hid i2c-ELAN0501:00: input: 0e 00 04 03 4b 07 a3 03 7e e1 01 80 1a 33
[ 2810.132498] i2c_hid i2c-ELAN0501:00: input: 0e 00 04 03 4a 07 a4 03 c4 e1 01 80 1a 33
[ 2810.139366] i2c_hid i2c-ELAN0501:00: input: 0e 00 04 03 49 07 a5 03 0a e2 01 80 1a 33
[ 2810.146336] i2c_hid i2c-ELAN0501:00: input: 0e 00 04 03 48 07 a6 03 50 e2 01 80 1a 33
[ 2810.153311] i2c_hid i2c-ELAN0501:00: input: 0e 00 04 03 47 07 a7 03 96 e2 01 80 1a 33
[ 2810.160302] i2c_hid i2c-ELAN0501:00: input: 0e 00 04 03 46 07 a8 03 dc e2 01 80 1a 33
[ 2810.167311] i2c_hid i2c-ELAN0501:00: input: 0e 00 04 03 45 07 a9 03 22 e3 01 80 1a 33
[ 2810.174396] i2c_hid i2c-ELAN0501:00: input: 0e 00 04 03 44 07 aa 03 68 e3 01 80 1a 33
[ 2810.181326] i2c_hid i2c-ELAN0501:00: input: 0e 00 04 03 43 07 ab 03 ae e3 01 80 1a 33
[ 2810.188459] i2c_hid i2c-ELAN0501:00: input: 0e 00 04 03 42 07 ac 03 f4 e3 01 80 1a 33
[ 2810.195160] i2c_hid i2c-ELAN0501:00: input: 0e 00 04 03 41 07 ad 03 3a e4 01 80 1a 33
[ 2810.202198] i2c_hid i2c-ELAN0501:00: input: 0e 00 04 03 40 07 ae 03 80 e4 01 80 1a 33
[ 2810.209342] i2c_hid i2c-ELAN0501:00: input: 0e 00 04 03 3f 07 af 03 c6 e4 01 80 1a 33
[ 2810.216294] i2c_hid i2c-ELAN0501:00: input: 0e 00 04 03 3e 07 b0 03 0c e5 01 80 1a 33
[ 2810.223096] i2c_hid i2c-ELAN0501:00: input: 0e 00 04 03 3d 07 b1 03 52 e5 01 80 1a 33
[ 2810.230187] i2c_hid i2c-ELAN0501:00: input: 0e 00 04 03 3c 07 b2 03 98 e5 01 80 1a 43
[ 2810.237148] i2c_hid i2c-ELAN0501:00: input: 0e 00 04 03 3b 07 b3 03 de e5 01 80 1a 43
[ 2810.244062] i2c_hid i2c-ELAN0501:00: input: 0e 00 04 03 3a 07 b4 03 24 e6 01 80 1a 43
[ 2810.251281] i2c_hid i2c-ELAN0501:00: input: 0e 00 04 03 39 07 b5 03 6a e6 01 80 1a 43
[ 2810.258065] i2c_hid i2c-ELAN0501:00: input: 0e 00 04 03 38 07 b6 03 b0 e6 01 80 1a 33
[ 2810.265202] i2c_hid i2c-ELAN0501:00: input: 0e 00 04 03 37 07 b7 03 f6 e6 01 80 1a 33
[ 2810.272145] i2c_hid i2c-ELAN0501:00: input: 0e 00 04 03 36 07 b8 03 3c e7 01 80 1a 43
[ 2810.279026] i2c_hid i2c-ELAN0501:00: input: 0e 00 04 03 35 07 b9 03 82 e7 01 80 1a 33
[ 2810.286035] i2c_hid i2c-ELAN0501:00: input: 0e 00 04 03 35 07 ba 03 c8 e7 01 80 1a 33
[ 2810.292983] i2c_hid i2c-ELAN0501:00: input: 0e 00 04 03 34 07 bb 03 0e e8 01 80 1a 33
[ 2810.300127] i2c_hid i2c-ELAN0501:00: input: 0e 00 04 03 34 07 bc 03 54 e8 01 80 1a 33
[ 2810.307019] i2c_hid i2c-ELAN0501:00: input: 0e 00 04 03 34 07 bd 03 9a e8 01 80 1a 33
[ 2810.314086] i2c_hid i2c-ELAN0501:00: input: 0e 00 04 03 34 07 be 03 e0 e8 01 80 1a 33
[ 2810.321040] i2c_hid i2c-ELAN0501:00: input: 0e 00 04 03 33 07 bf 03 26 e9 01 80 1a 33
[ 2810.327945] i2c_hid i2c-ELAN0501:00: input: 0e 00 04 03 33 07 bf 03 6c e9 01 80 1a 33
[ 2810.334920] i2c_hid i2c-ELAN0501:00: input: 0e 00 04 03 33 07 c0 03 b2 e9 01 80 1a 43
[ 2810.341898] i2c_hid i2c-ELAN0501:00: input: 0e 00 04 03 33 07 c1 03 f8 e9 01 80 1a 43
[ 2810.349086] i2c_hid i2c-ELAN0501:00: input: 0e 00 04 03 32 07 c2 03 3e ea 01 80 1a 43
[ 2810.355994] i2c_hid i2c-ELAN0501:00: input: 0e 00 04 03 32 07 c2 03 84 ea 01 80 1a 33
[ 2810.362810] i2c_hid i2c-ELAN0501:00: input: 0e 00 04 03 32 07 c3 03 ca ea 01 80 1a 43
[ 2810.369969] i2c_hid i2c-ELAN0501:00: input: 0e 00 04 03 31 07 c4 03 10 eb 01 80 1a 43
[ 2810.376813] i2c_hid i2c-ELAN0501:00: input: 0e 00 04 03 31 07 c4 03 56 eb 01 80 1a 43
[ 2810.383939] i2c_hid i2c-ELAN0501:00: input: 0e 00 04 03 31 07 c4 03 9c eb 01 80 1a 43
[ 2810.390635] i2c_hid i2c-ELAN0501:00: input: 0e 00 04 03 31 07 c4 03 e2 eb 01 80 1a 43
[ 2810.397766] i2c_hid i2c-ELAN0501:00: input: 0e 00 04 03 31 07 c4 03 28 ec 01 80 1a 43
[ 2810.404846] i2c_hid i2c-ELAN0501:00: input: 0e 00 04 03 31 07 c4 03 6e ec 01 80 1a 43
[ 2810.411892] i2c_hid i2c-ELAN0501:00: input: 0e 00 04 03 31 07 c4 03 b4 ec 01 80 1a 33
[ 2810.418817] i2c_hid i2c-ELAN0501:00: input: 0e 00 04 03 31 07 c4 03 fa ec 01 80 1a 33
[ 2810.425803] i2c_hid i2c-ELAN0501:00: input: 0e 00 04 03 31 07 c4 03 40 ed 01 80 1a 43
[ 2810.432798] i2c_hid i2c-ELAN0501:00: input: 0e 00 04 03 31 07 c4 03 86 ed 01 80 1a 43
[ 2810.439776] i2c_hid i2c-ELAN0501:00: input: 0e 00 04 03 31 07 c4 03 cc ed 01 80 1a 43
[ 2810.446738] i2c_hid i2c-ELAN0501:00: input: 0e 00 04 03 31 07 c4 03 12 ee 01 80 1a 43
[ 2810.453667] i2c_hid i2c-ELAN0501:00: input: 0e 00 04 03 31 07 c4 03 58 ee 01 80 1a 33
[ 2810.460833] i2c_hid i2c-ELAN0501:00: input: 0e 00 04 03 31 07 c4 03 9e ee 01 80 1a 33
[ 2810.467989] i2c_hid i2c-ELAN0501:00: input: 0e 00 04 03 31 07 c4 03 e4 ee 01 80 1a 43
[ 2810.474828] i2c_hid i2c-ELAN0501:00: input: 0e 00 04 03 31 07 c4 03 2a ef 01 80 1a 33
[ 2810.481839] i2c_hid i2c-ELAN0501:00: input: 0e 00 04 03 31 07 c4 03 70 ef 01 80 1a 43
[ 2810.488774] i2c_hid i2c-ELAN0501:00: input: 0e 00 04 03 31 07 c4 03 b6 ef 01 80 1a 33
[ 2810.495535] i2c_hid i2c-ELAN0501:00: input: 0e 00 04 03 31 07 c4 03 fc ef 01 80 1a 43
[ 2810.502711] i2c_hid i2c-ELAN0501:00: input: 0e 00 04 03 31 07 c4 03 42 f0 01 80 1a 43
[ 2810.509733] i2c_hid i2c-ELAN0501:00: input: 0e 00 04 03 31 07 c4 03 88 f0 01 80 19 33
[ 2810.516821] i2c_hid i2c-ELAN0501:00: input: 0e 00 04 03 31 07 c5 03 ce f0 01 80 18 33
[ 2810.523767] i2c_hid i2c-ELAN0501:00: input: 0e 00 04 03 31 07 c6 03 14 f1 01 80 16 33
[ 2810.530693] i2c_hid i2c-ELAN0501:00: input: 0e 00 04 03 31 07 c7 03 5a f1 01 80 14 33
[ 2810.537802] i2c_hid i2c-ELAN0501:00: input: 0e 00 04 03 31 07 c7 03 a0 f1 01 80 14 11
[ 2810.544708] i2c_hid i2c-ELAN0501:00: input: 0e 00 04 01 31 07 c7 03 e6 f1 01 80 14 11
[ 2810.747289] i2c_hid i2c-ELAN0501:00: input: 0e 00 04 03 8d 08 ae 02 d4 f9 02 80 1b 44
[ 2810.747953] i2c_hid i2c-ELAN0501:00: input: 0e 00 04 13 fc 07 a8 04 d4 f9 00 80 19 44
[ 2810.754349] i2c_hid i2c-ELAN0501:00: input: 0e 00 04 03 8d 08 ae 02 1a fa 02 80 1b 44
[ 2810.755060] i2c_hid i2c-ELAN0501:00: input: 0e 00 04 13 fc 07 a8 04 1a fa 00 80 19 43
[ 2810.761330] i2c_hid i2c-ELAN0501:00: input: 0e 00 04 03 8d 08 ae 02 60 fa 02 80 1b 44
[ 2810.762141] i2c_hid i2c-ELAN0501:00: input: 0e 00 04 13 fc 07 a8 04 60 fa 00 80 19 43
[ 2810.768191] i2c_hid i2c-ELAN0501:00: input: 0e 00 04 03 8d 08 ae 02 a6 fa 02 80 1b 44
[ 2810.768821] i2c_hid i2c-ELAN0501:00: input: 0e 00 04 13 fc 07 a8 04 a6 fa 00 80 19 43
[ 2810.775332] i2c_hid i2c-ELAN0501:00: input: 0e 00 04 03 8d 08 ae 02 ec fa 02 80 1a 44
[ 2810.776120] i2c_hid i2c-ELAN0501:00: input: 0e 00 04 13 fc 07 a8 04 ec fa 00 80 19 43
[ 2810.782311] i2c_hid i2c-ELAN0501:00: input: 0e 00 04 03 8d 08 ae 02 32 fb 02 80 1a 44
[ 2810.783025] i2c_hid i2c-ELAN0501:00: input: 0e 00 04 13 fc 07 a8 04 32 fb 00 80 19 43
[ 2810.789031] i2c_hid i2c-ELAN0501:00: input: 0e 00 04 03 8d 08 ae 02 78 fb 02 80 1a 44
[ 2810.789731] i2c_hid i2c-ELAN0501:00: input: 0e 00 04 13 fc 07 a8 04 78 fb 00 80 18 43
[ 2810.796275] i2c_hid i2c-ELAN0501:00: input: 0e 00 04 03 8d 08 ae 02 be fb 02 80 1a 44
[ 2810.797001] i2c_hid i2c-ELAN0501:00: input: 0e 00 04 13 fc 07 a8 04 be fb 00 80 17 43
[ 2810.803249] i2c_hid i2c-ELAN0501:00: input: 0e 00 04 03 8d 08 ae 02 04 fc 02 80 19 44
[ 2810.803951] i2c_hid i2c-ELAN0501:00: input: 0e 00 04 13 fc 07 a8 04 04 fc 00 80 16 43
[ 2810.810255] i2c_hid i2c-ELAN0501:00: input: 0e 00 04 03 8d 08 ad 02 4a fc 02 80 18 44
[ 2810.811058] i2c_hid i2c-ELAN0501:00: input: 0e 00 04 13 fc 07 a8 04 4a fc 00 80 14 33
[ 2810.817062] i2c_hid i2c-ELAN0501:00: input: 0e 00 04 03 8d 08 ab 02 90 fc 02 80 17 34
[ 2810.817706] i2c_hid i2c-ELAN0501:00: input: 0e 00 04 13 fc 07 a8 04 90 fc 00 80 11 23
[ 2810.824067] i2c_hid i2c-ELAN0501:00: input: 0e 00 04 03 8d 08 ab 02 d6 fc 02 80 17 34
[ 2810.824820] i2c_hid i2c-ELAN0501:00: input: 0e 00 04 13 fc 07 a8 04 d6 fc 00 80 11 11
[ 2810.831217] i2c_hid i2c-ELAN0501:00: input: 0e 00 04 03 8d 08 a7 02 1c fd 02 80 15 32
[ 2810.832004] i2c_hid i2c-ELAN0501:00: input: 0e 00 04 13 fc 07 a8 04 1c fd 00 80 11 11
[ 2810.838135] i2c_hid i2c-ELAN0501:00: input: 0e 00 04 03 8d 08 a7 02 62 fd 02 80 15 11
[ 2810.838823] i2c_hid i2c-ELAN0501:00: input: 0e 00 04 11 fc 07 a8 04 62 fd 00 80 11 11
[ 2810.845254] i2c_hid i2c-ELAN0501:00: input: 0e 00 04 01 8d 08 a7 02 a8 fd 01 80 15 11
[ 2811.299196] i2c_hid i2c-ELAN0501:00: input: 0e 00 04 03 68 07 c4 03 6e 0f 01 80 14 34
[ 2811.306121] i2c_hid i2c-ELAN0501:00: input: 0e 00 04 03 68 07 c4 03 b4 0f 01 80 14 34
[ 2811.313066] i2c_hid i2c-ELAN0501:00: input: 0e 00 04 03 68 07 c4 03 fa 0f 01 80 14 34
[ 2811.320187] i2c_hid i2c-ELAN0501:00: input: 0e 00 04 03 68 07 c4 03 40 10 01 80 15 34
[ 2811.327053] i2c_hid i2c-ELAN0501:00: input: 0e 00 04 03 68 07 c4 03 86 10 01 80 15 34
[ 2811.334005] i2c_hid i2c-ELAN0501:00: input: 0e 00 04 03 68 07 c4 03 cc 10 01 80 15 34
[ 2811.340924] i2c_hid i2c-ELAN0501:00: input: 0e 00 04 03 68 07 c4 03 12 11 01 80 16 34
[ 2811.348130] i2c_hid i2c-ELAN0501:00: input: 0e 00 04 03 68 07 c4 03 58 11 01 80 16 34
[ 2811.354976] i2c_hid i2c-ELAN0501:00: input: 0e 00 04 03 68 07 c4 03 9e 11 01 80 16 34
[ 2811.361986] i2c_hid i2c-ELAN0501:00: input: 0e 00 04 03 69 07 c4 03 e4 11 01 80 16 34
[ 2811.369036] i2c_hid i2c-ELAN0501:00: input: 0e 00 04 03 6b 07 c4 03 2a 12 01 80 16 34
[ 2811.375959] i2c_hid i2c-ELAN0501:00: input: 0e 00 04 03 6e 07 c5 03 70 12 01 80 16 33
[ 2811.383006] i2c_hid i2c-ELAN0501:00: input: 0e 00 04 03 72 07 c6 03 b6 12 01 80 16 33
[ 2811.389881] i2c_hid i2c-ELAN0501:00: input: 0e 00 04 03 77 07 c8 03 fc 12 01 80 16 33
[ 2811.397074] i2c_hid i2c-ELAN0501:00: input: 0e 00 04 03 7c 07 ca 03 42 13 01 80 16 33
[ 2811.404035] i2c_hid i2c-ELAN0501:00: input: 0e 00 04 03 82 07 cc 03 88 13 01 80 16 33
[ 2811.410854] i2c_hid i2c-ELAN0501:00: input: 0e 00 04 03 8a 07 cf 03 ce 13 01 80 16 43
[ 2811.418074] i2c_hid i2c-ELAN0501:00: input: 0e 00 04 03 92 07 d2 03 14 14 01 80 16 43
[ 2811.425135] i2c_hid i2c-ELAN0501:00: input: 0e 00 04 03 9a 07 d5 03 5a 14 01 80 16 43
[ 2811.431971] i2c_hid i2c-ELAN0501:00: input: 0e 00 04 03 a0 07 d8 03 a0 14 01 80 16 43
[ 2811.438985] i2c_hid i2c-ELAN0501:00: input: 0e 00 04 03 a5 07 da 03 e6 14 01 80 16 43
[ 2811.446006] i2c_hid i2c-ELAN0501:00: input: 0e 00 04 03 a9 07 dc 03 2c 15 01 80 16 43
[ 2811.452917] i2c_hid i2c-ELAN0501:00: input: 0e 00 04 03 ad 07 de 03 72 15 01 80 16 43
[ 2811.459961] i2c_hid i2c-ELAN0501:00: input: 0e 00 04 03 b1 07 e0 03 b8 15 01 80 16 43
[ 2811.466650] i2c_hid i2c-ELAN0501:00: input: 0e 00 04 03 b5 07 e2 03 fe 15 01 80 16 43
[ 2811.473765] i2c_hid i2c-ELAN0501:00: input: 0e 00 04 03 b9 07 e4 03 44 16 01 80 16 43
[ 2811.480683] i2c_hid i2c-ELAN0501:00: input: 0e 00 04 03 bd 07 e6 03 8a 16 01 80 16 43
[ 2811.487742] i2c_hid i2c-ELAN0501:00: input: 0e 00 04 03 c1 07 e8 03 d0 16 01 80 16 43
[ 2811.494838] i2c_hid i2c-ELAN0501:00: input: 0e 00 04 03 c5 07 ea 03 16 17 01 80 17 42
[ 2811.501738] i2c_hid i2c-ELAN0501:00: input: 0e 00 04 03 c9 07 ec 03 5c 17 01 80 17 42
[ 2811.508828] i2c_hid i2c-ELAN0501:00: input: 0e 00 04 03 cd 07 ee 03 a2 17 01 80 17 42
[ 2811.515744] i2c_hid i2c-ELAN0501:00: input: 0e 00 04 03 d1 07 f0 03 e8 17 01 80 17 42
[ 2811.522688] i2c_hid i2c-ELAN0501:00: input: 0e 00 04 03 d5 07 f2 03 2e 18 01 80 17 32
[ 2811.529644] i2c_hid i2c-ELAN0501:00: input: 0e 00 04 03 d9 07 f5 03 74 18 01 80 17 32
[ 2811.536640] i2c_hid i2c-ELAN0501:00: input: 0e 00 04 03 dc 07 f7 03 ba 18 01 80 17 32
[ 2811.543630] i2c_hid i2c-ELAN0501:00: input: 0e 00 04 03 df 07 f9 03 00 19 01 80 17 33
[ 2811.550701] i2c_hid i2c-ELAN0501:00: input: 0e 00 04 03 e2 07 fb 03 46 19 01 80 17 33
[ 2811.557598] i2c_hid i2c-ELAN0501:00: input: 0e 00 04 03 e5 07 fd 03 8c 19 01 80 17 33
[ 2811.564604] i2c_hid i2c-ELAN0501:00: input: 0e 00 04 03 e8 07 ff 03 d2 19 01 80 17 33
[ 2811.571811] i2c_hid i2c-ELAN0501:00: input: 0e 00 04 03 ea 07 01 04 18 1a 01 80 17 33
[ 2811.578717] i2c_hid i2c-ELAN0501:00: input: 0e 00 04 03 ec 07 03 04 5e 1a 01 80 17 33
[ 2811.585684] i2c_hid i2c-ELAN0501:00: input: 0e 00 04 03 ee 07 05 04 a4 1a 01 80 17 33
[ 2811.592709] i2c_hid i2c-ELAN0501:00: input: 0e 00 04 03 f0 07 06 04 ea 1a 01 80 17 33
[ 2811.599685] i2c_hid i2c-ELAN0501:00: input: 0e 00 04 03 f2 07 07 04 30 1b 01 80 17 33
[ 2811.606646] i2c_hid i2c-ELAN0501:00: input: 0e 00 04 03 f4 07 08 04 76 1b 01 80 17 33
[ 2811.613647] i2c_hid i2c-ELAN0501:00: input: 0e 00 04 03 f6 07 09 04 bc 1b 01 80 17 33
[ 2811.620459] i2c_hid i2c-ELAN0501:00: input: 0e 00 04 03 f8 07 0a 04 02 1c 01 80 17 33
[ 2811.627422] i2c_hid i2c-ELAN0501:00: input: 0e 00 04 03 f9 07 0b 04 48 1c 01 80 17 33
[ 2811.634428] i2c_hid i2c-ELAN0501:00: input: 0e 00 04 03 fa 07 0c 04 8e 1c 01 80 17 33
[ 2811.641509] i2c_hid i2c-ELAN0501:00: input: 0e 00 04 03 fb 07 0d 04 d4 1c 01 80 17 33
[ 2811.648690] i2c_hid i2c-ELAN0501:00: input: 0e 00 04 03 fc 07 0e 04 1a 1d 01 80 17 33
[ 2811.655482] i2c_hid i2c-ELAN0501:00: input: 0e 00 04 03 fd 07 0f 04 60 1d 01 80 17 33
[ 2811.662615] i2c_hid i2c-ELAN0501:00: input: 0e 00 04 03 fe 07 10 04 a6 1d 01 80 17 33
[ 2811.669503] i2c_hid i2c-ELAN0501:00: input: 0e 00 04 03 ff 07 11 04 ec 1d 01 80 17 33
[ 2811.676520] i2c_hid i2c-ELAN0501:00: input: 0e 00 04 03 00 08 12 04 32 1e 01 80 17 33
[ 2811.683458] i2c_hid i2c-ELAN0501:00: input: 0e 00 04 03 01 08 13 04 78 1e 01 80 17 33
[ 2811.690630] i2c_hid i2c-ELAN0501:00: input: 0e 00 04 03 02 08 14 04 be 1e 01 80 17 33
[ 2811.697482] i2c_hid i2c-ELAN0501:00: input: 0e 00 04 03 04 08 15 04 04 1f 01 80 17 33
[ 2811.704582] i2c_hid i2c-ELAN0501:00: input: 0e 00 04 03 05 08 16 04 4a 1f 01 80 17 33
[ 2811.711600] i2c_hid i2c-ELAN0501:00: input: 0e 00 04 03 07 08 17 04 90 1f 01 80 17 33
[ 2811.718760] i2c_hid i2c-ELAN0501:00: input: 0e 00 04 03 08 08 18 04 d6 1f 01 80 17 33
[ 2811.725308] i2c_hid i2c-ELAN0501:00: input: 0e 00 04 03 09 08 19 04 1c 20 01 80 17 33
[ 2811.732410] i2c_hid i2c-ELAN0501:00: input: 0e 00 04 03 0a 08 1a 04 62 20 01 80 17 33
[ 2811.739312] i2c_hid i2c-ELAN0501:00: input: 0e 00 04 03 0b 08 1b 04 a8 20 01 80 17 33
[ 2811.746236] i2c_hid i2c-ELAN0501:00: input: 0e 00 04 03 0c 08 1c 04 ee 20 01 80 17 33
[ 2811.753482] i2c_hid i2c-ELAN0501:00: input: 0e 00 04 03 0d 08 1d 04 34 21 01 80 17 33
[ 2811.760460] i2c_hid i2c-ELAN0501:00: input: 0e 00 04 03 0e 08 1d 04 7a 21 01 80 17 33
[ 2811.767236] i2c_hid i2c-ELAN0501:00: input: 0e 00 04 03 0f 08 1d 04 c0 21 01 80 17 33
[ 2811.774330] i2c_hid i2c-ELAN0501:00: input: 0e 00 04 03 10 08 1d 04 06 22 01 80 17 33
[ 2811.781173] i2c_hid i2c-ELAN0501:00: input: 0e 00 04 03 11 08 1d 04 4c 22 01 80 17 33
[ 2811.788483] i2c_hid i2c-ELAN0501:00: input: 0e 00 04 03 12 08 1d 04 92 22 01 80 17 33
[ 2811.795214] i2c_hid i2c-ELAN0501:00: input: 0e 00 04 03 13 08 1d 04 d8 22 01 80 17 33
[ 2811.802106] i2c_hid i2c-ELAN0501:00: input: 0e 00 04 03 14 08 1d 04 1e 23 01 80 17 33
[ 2811.809280] i2c_hid i2c-ELAN0501:00: input: 0e 00 04 03 15 08 1d 04 64 23 01 80 17 33
[ 2811.816290] i2c_hid i2c-ELAN0501:00: input: 0e 00 04 03 16 08 1d 04 aa 23 01 80 17 33
[ 2811.823248] i2c_hid i2c-ELAN0501:00: input: 0e 00 04 03 17 08 1d 04 f0 23 01 80 17 33
[ 2811.830292] i2c_hid i2c-ELAN0501:00: input: 0e 00 04 03 18 08 1d 04 36 24 01 80 17 33
[ 2811.837204] i2c_hid i2c-ELAN0501:00: input: 0e 00 04 03 19 08 1d 04 7c 24 01 80 17 33
[ 2811.844376] i2c_hid i2c-ELAN0501:00: input: 0e 00 04 03 1a 08 1d 04 c2 24 01 80 16 33
[ 2811.851219] i2c_hid i2c-ELAN0501:00: input: 0e 00 04 03 1b 08 1d 04 08 25 01 80 14 33
[ 2811.858237] i2c_hid i2c-ELAN0501:00: input: 0e 00 04 03 1b 08 1d 04 4e 25 01 80 14 11
[ 2811.865245] i2c_hid i2c-ELAN0501:00: input: 0e 00 04 01 1b 08 1d 04 94 25 01 80 14 11
[ 2811.970049] i2c_hid i2c-ELAN0501:00: input: 0e 00 04 03 06 08 12 04 ae 29 01 80 1a 32
[ 2811.977082] i2c_hid i2c-ELAN0501:00: input: 0e 00 04 03 06 08 12 04 f4 29 01 80 1a 32
[ 2811.984042] i2c_hid i2c-ELAN0501:00: input: 0e 00 04 03 06 08 12 04 3a 2a 01 80 1a 32
[ 2811.990964] i2c_hid i2c-ELAN0501:00: input: 0e 00 04 03 06 08 12 04 80 2a 01 80 1a 32
[ 2811.997892] i2c_hid i2c-ELAN0501:00: input: 0e 00 04 03 06 08 12 04 c6 2a 01 80 1a 32
[ 2812.004963] i2c_hid i2c-ELAN0501:00: input: 0e 00 04 03 06 08 12 04 0c 2b 01 80 1a 32
[ 2812.011859] i2c_hid i2c-ELAN0501:00: input: 0e 00 04 03 06 08 12 04 52 2b 01 80 1a 32
[ 2812.018818] i2c_hid i2c-ELAN0501:00: input: 0e 00 04 03 06 08 12 04 98 2b 01 80 1a 32
[ 2812.025804] i2c_hid i2c-ELAN0501:00: input: 0e 00 04 03 06 08 12 04 de 2b 01 80 1a 32
[ 2812.032777] i2c_hid i2c-ELAN0501:00: input: 0e 00 04 03 06 08 12 04 24 2c 01 80 1a 32
[ 2812.039798] i2c_hid i2c-ELAN0501:00: input: 0e 00 04 03 06 08 12 04 6a 2c 01 80 1a 32
[ 2812.046820] i2c_hid i2c-ELAN0501:00: input: 0e 00 04 03 06 08 12 04 b0 2c 01 80 1a 32
[ 2812.053906] i2c_hid i2c-ELAN0501:00: input: 0e 00 04 03 06 08 12 04 f6 2c 01 80 19 32
[ 2812.060930] i2c_hid i2c-ELAN0501:00: input: 0e 00 04 03 06 08 12 04 3c 2d 01 80 18 32
[ 2812.067970] i2c_hid i2c-ELAN0501:00: input: 0e 00 04 03 06 08 12 04 82 2d 01 80 16 32
[ 2812.074913] i2c_hid i2c-ELAN0501:00: input: 0e 00 04 03 06 08 12 04 c8 2d 01 80 14 32
[ 2812.081864] i2c_hid i2c-ELAN0501:00: input: 0e 00 04 03 06 08 12 04 0e 2e 01 80 14 11
[ 2812.088946] i2c_hid i2c-ELAN0501:00: input: 0e 00 04 01 06 08 12 04 54 2e 01 80 14 11
[ 2825.629426] i2c_hid i2c-ELAN0501:00: input: 0e 00 04 03 46 07 ee 01 40 40 01 80 0f 33
[ 2825.636233] i2c_hid i2c-ELAN0501:00: input: 0e 00 04 03 46 07 ee 01 86 40 01 80 0f 33
[ 2825.643411] i2c_hid i2c-ELAN0501:00: input: 0e 00 04 03 45 07 f3 01 cc 40 01 80 0f 33
[ 2825.650258] i2c_hid i2c-ELAN0501:00: input: 0e 00 04 03 44 07 f7 01 12 41 01 80 10 33
[ 2825.657382] i2c_hid i2c-ELAN0501:00: input: 0e 00 04 03 43 07 f9 01 58 41 01 80 10 33
[ 2825.664356] i2c_hid i2c-ELAN0501:00: input: 0e 00 04 03 42 07 fb 01 9e 41 01 80 10 33
[ 2825.671351] i2c_hid i2c-ELAN0501:00: input: 0e 00 04 03 41 07 fd 01 e4 41 01 80 11 33
[ 2825.678238] i2c_hid i2c-ELAN0501:00: input: 0e 00 04 03 40 07 ff 01 2a 42 01 80 11 33
[ 2825.685427] i2c_hid i2c-ELAN0501:00: input: 0e 00 04 03 3f 07 01 02 70 42 01 80 12 33
[ 2825.692516] i2c_hid i2c-ELAN0501:00: input: 0e 00 04 03 3e 07 03 02 b6 42 01 80 12 33
[ 2825.699288] i2c_hid i2c-ELAN0501:00: input: 0e 00 04 03 3d 07 05 02 fc 42 01 80 12 33
[ 2825.706279] i2c_hid i2c-ELAN0501:00: input: 0e 00 04 03 3c 07 08 02 42 43 01 80 14 33
[ 2825.713263] i2c_hid i2c-ELAN0501:00: input: 0e 00 04 03 3b 07 0b 02 88 43 01 80 14 33
[ 2825.720220] i2c_hid i2c-ELAN0501:00: input: 0e 00 04 03 3b 07 0e 02 ce 43 01 80 14 33
[ 2825.727082] i2c_hid i2c-ELAN0501:00: input: 0e 00 04 03 3b 07 11 02 14 44 01 80 15 33
[ 2825.734255] i2c_hid i2c-ELAN0501:00: input: 0e 00 04 03 3b 07 14 02 5a 44 01 80 15 23
[ 2825.741225] i2c_hid i2c-ELAN0501:00: input: 0e 00 04 03 3b 07 17 02 a0 44 01 80 15 23
[ 2825.748087] i2c_hid i2c-ELAN0501:00: input: 0e 00 04 03 3b 07 1a 02 e6 44 01 80 16 23
[ 2825.755024] i2c_hid i2c-ELAN0501:00: input: 0e 00 04 03 3b 07 1e 02 2c 45 01 80 16 33
[ 2825.762063] i2c_hid i2c-ELAN0501:00: input: 0e 00 04 03 3b 07 23 02 72 45 01 80 16 33
[ 2825.769092] i2c_hid i2c-ELAN0501:00: input: 0e 00 04 03 3b 07 29 02 b8 45 01 80 16 33
[ 2825.775898] i2c_hid i2c-ELAN0501:00: input: 0e 00 04 03 3b 07 31 02 fe 45 01 80 16 33
[ 2825.783021] i2c_hid i2c-ELAN0501:00: input: 0e 00 04 03 3c 07 3c 02 44 46 01 80 16 33
[ 2825.789853] i2c_hid i2c-ELAN0501:00: input: 0e 00 04 03 3d 07 49 02 8a 46 01 80 16 33
[ 2825.797002] i2c_hid i2c-ELAN0501:00: input: 0e 00 04 03 3e 07 57 02 d0 46 01 80 16 33
[ 2825.804026] i2c_hid i2c-ELAN0501:00: input: 0e 00 04 03 40 07 6a 02 16 47 01 80 16 33
[ 2825.810936] i2c_hid i2c-ELAN0501:00: input: 0e 00 04 03 42 07 7e 02 5c 47 01 80 16 33
[ 2825.817949] i2c_hid i2c-ELAN0501:00: input: 0e 00 04 03 44 07 91 02 a2 47 01 80 16 33
[ 2825.824773] i2c_hid i2c-ELAN0501:00: input: 0e 00 04 03 46 07 a3 02 e8 47 01 80 16 43
[ 2825.831780] i2c_hid i2c-ELAN0501:00: input: 0e 00 04 03 48 07 b3 02 2e 48 01 80 16 43
[ 2825.838614] i2c_hid i2c-ELAN0501:00: input: 0e 00 04 03 4a 07 c0 02 74 48 01 80 17 33
[ 2825.845713] i2c_hid i2c-ELAN0501:00: input: 0e 00 04 03 4c 07 cd 02 ba 48 01 80 17 33
[ 2825.852611] i2c_hid i2c-ELAN0501:00: input: 0e 00 04 03 4e 07 d9 02 00 49 01 80 17 33
[ 2825.859537] i2c_hid i2c-ELAN0501:00: input: 0e 00 04 03 50 07 e5 02 46 49 01 80 17 33
[ 2825.866874] i2c_hid i2c-ELAN0501:00: input: 0e 00 04 03 52 07 f1 02 8c 49 01 80 17 33
[ 2825.873892] i2c_hid i2c-ELAN0501:00: input: 0e 00 04 03 54 07 fc 02 d2 49 01 80 17 33
[ 2825.880741] i2c_hid i2c-ELAN0501:00: input: 0e 00 04 03 56 07 05 03 18 4a 01 80 17 34
[ 2825.887686] i2c_hid i2c-ELAN0501:00: input: 0e 00 04 03 58 07 0f 03 5e 4a 01 80 17 34
[ 2825.894542] i2c_hid i2c-ELAN0501:00: input: 0e 00 04 03 5b 07 18 03 a4 4a 01 80 17 34
[ 2825.901773] i2c_hid i2c-ELAN0501:00: input: 0e 00 04 03 5e 07 21 03 ea 4a 01 80 17 34
[ 2825.908586] i2c_hid i2c-ELAN0501:00: input: 0e 00 04 03 61 07 2a 03 30 4b 01 80 17 34
[ 2825.915793] i2c_hid i2c-ELAN0501:00: input: 0e 00 04 03 63 07 32 03 76 4b 01 80 17 34
[ 2825.922599] i2c_hid i2c-ELAN0501:00: input: 0e 00 04 03 65 07 39 03 bc 4b 01 80 17 34
[ 2825.929679] i2c_hid i2c-ELAN0501:00: input: 0e 00 04 03 66 07 3e 03 02 4c 01 80 17 34
[ 2825.936605] i2c_hid i2c-ELAN0501:00: input: 0e 00 04 03 67 07 42 03 48 4c 01 80 17 34
[ 2825.943481] i2c_hid i2c-ELAN0501:00: input: 0e 00 04 03 67 07 45 03 8e 4c 01 80 17 34
[ 2825.950625] i2c_hid i2c-ELAN0501:00: input: 0e 00 04 03 68 07 48 03 d4 4c 01 80 17 44
[ 2825.957673] i2c_hid i2c-ELAN0501:00: input: 0e 00 04 03 69 07 4c 03 1a 4d 01 80 17 44
[ 2825.964715] i2c_hid i2c-ELAN0501:00: input: 0e 00 04 03 6a 07 50 03 60 4d 01 80 17 34
[ 2825.971580] i2c_hid i2c-ELAN0501:00: input: 0e 00 04 03 6b 07 54 03 a6 4d 01 80 17 34
[ 2825.978605] i2c_hid i2c-ELAN0501:00: input: 0e 00 04 03 6c 07 58 03 ec 4d 01 80 17 34
[ 2825.985603] i2c_hid i2c-ELAN0501:00: input: 0e 00 04 03 6d 07 5d 03 32 4e 01 80 17 34
[ 2825.992401] i2c_hid i2c-ELAN0501:00: input: 0e 00 04 03 6f 07 62 03 78 4e 01 80 17 34
[ 2825.999540] i2c_hid i2c-ELAN0501:00: input: 0e 00 04 03 71 07 68 03 be 4e 01 80 17 34
[ 2826.006590] i2c_hid i2c-ELAN0501:00: input: 0e 00 04 03 74 07 6f 03 04 4f 01 80 17 34
[ 2826.013573] i2c_hid i2c-ELAN0501:00: input: 0e 00 04 03 78 07 78 03 4a 4f 01 80 17 33
[ 2826.020588] i2c_hid i2c-ELAN0501:00: input: 0e 00 04 03 7d 07 81 03 90 4f 01 80 17 33
[ 2826.027444] i2c_hid i2c-ELAN0501:00: input: 0e 00 04 03 82 07 8a 03 d6 4f 01 80 17 33
[ 2826.034588] i2c_hid i2c-ELAN0501:00: input: 0e 00 04 03 87 07 92 03 1c 50 01 80 17 33
[ 2826.041514] i2c_hid i2c-ELAN0501:00: input: 0e 00 04 03 8c 07 9a 03 62 50 01 80 17 33
[ 2826.048455] i2c_hid i2c-ELAN0501:00: input: 0e 00 04 03 91 07 a2 03 a8 50 01 80 17 33
[ 2826.055384] i2c_hid i2c-ELAN0501:00: input: 0e 00 04 03 97 07 ab 03 ee 50 01 80 17 43
[ 2826.062399] i2c_hid i2c-ELAN0501:00: input: 0e 00 04 03 9d 07 b4 03 34 51 01 80 17 43
[ 2826.069447] i2c_hid i2c-ELAN0501:00: input: 0e 00 04 03 a3 07 be 03 7a 51 01 80 17 43
[ 2826.076214] i2c_hid i2c-ELAN0501:00: input: 0e 00 04 03 a9 07 c7 03 c0 51 01 80 17 43
[ 2826.083347] i2c_hid i2c-ELAN0501:00: input: 0e 00 04 03 af 07 d0 03 06 52 01 80 17 43
[ 2826.090436] i2c_hid i2c-ELAN0501:00: input: 0e 00 04 03 b5 07 d9 03 4c 52 01 80 17 33
[ 2826.097412] i2c_hid i2c-ELAN0501:00: input: 0e 00 04 03 bb 07 e2 03 92 52 01 80 17 33
[ 2826.104432] i2c_hid i2c-ELAN0501:00: input: 0e 00 04 03 c1 07 eb 03 d8 52 01 80 17 33
[ 2826.111290] i2c_hid i2c-ELAN0501:00: input: 0e 00 04 03 c6 07 f3 03 1e 53 01 80 17 33
[ 2826.118382] i2c_hid i2c-ELAN0501:00: input: 0e 00 04 03 cb 07 fa 03 64 53 01 80 17 33
[ 2826.125335] i2c_hid i2c-ELAN0501:00: input: 0e 00 04 03 d0 07 01 04 aa 53 01 80 17 33
[ 2826.132212] i2c_hid i2c-ELAN0501:00: input: 0e 00 04 03 d5 07 08 04 f0 53 01 80 17 33
[ 2826.139375] i2c_hid i2c-ELAN0501:00: input: 0e 00 04 03 d8 07 0e 04 36 54 01 80 17 33
[ 2826.146309] i2c_hid i2c-ELAN0501:00: input: 0e 00 04 03 db 07 14 04 7c 54 01 80 17 33
[ 2826.153306] i2c_hid i2c-ELAN0501:00: input: 0e 00 04 03 de 07 1a 04 c2 54 01 80 17 33
[ 2826.160045] i2c_hid i2c-ELAN0501:00: input: 0e 00 04 03 e1 07 20 04 08 55 01 80 17 33
[ 2826.167340] i2c_hid i2c-ELAN0501:00: input: 0e 00 04 03 e4 07 25 04 4e 55 01 80 17 33
[ 2826.174177] i2c_hid i2c-ELAN0501:00: input: 0e 00 04 03 e6 07 2a 04 94 55 01 80 17 33
[ 2826.181155] i2c_hid i2c-ELAN0501:00: input: 0e 00 04 03 e8 07 2f 04 da 55 01 80 17 33
[ 2826.188248] i2c_hid i2c-ELAN0501:00: input: 0e 00 04 03 ea 07 33 04 20 56 01 80 17 33
[ 2826.195272] i2c_hid i2c-ELAN0501:00: input: 0e 00 04 03 ec 07 37 04 66 56 01 80 17 33
[ 2826.202214] i2c_hid i2c-ELAN0501:00: input: 0e 00 04 03 ee 07 3b 04 ac 56 01 80 17 32
[ 2826.209086] i2c_hid i2c-ELAN0501:00: input: 0e 00 04 03 f0 07 3f 04 f2 56 01 80 17 33
[ 2826.216082] i2c_hid i2c-ELAN0501:00: input: 0e 00 04 03 f2 07 43 04 38 57 01 80 17 33
[ 2826.223154] i2c_hid i2c-ELAN0501:00: input: 0e 00 04 03 f4 07 47 04 7e 57 01 80 17 33
[ 2826.230159] i2c_hid i2c-ELAN0501:00: input: 0e 00 04 03 f7 07 4b 04 c4 57 01 80 17 33
[ 2826.237136] i2c_hid i2c-ELAN0501:00: input: 0e 00 04 03 fa 07 4f 04 0a 58 01 80 17 33
[ 2826.243932] i2c_hid i2c-ELAN0501:00: input: 0e 00 04 03 fc 07 52 04 50 58 01 80 17 33
[ 2826.251147] i2c_hid i2c-ELAN0501:00: input: 0e 00 04 03 fe 07 55 04 96 58 01 80 17 33
[ 2826.258220] i2c_hid i2c-ELAN0501:00: input: 0e 00 04 03 00 08 58 04 dc 58 01 80 17 33
[ 2826.265030] i2c_hid i2c-ELAN0501:00: input: 0e 00 04 03 02 08 5a 04 22 59 01 80 17 33
[ 2826.272090] i2c_hid i2c-ELAN0501:00: input: 0e 00 04 03 04 08 5c 04 68 59 01 80 17 33
[ 2826.279055] i2c_hid i2c-ELAN0501:00: input: 0e 00 04 03 06 08 5e 04 ae 59 01 80 17 33
[ 2826.286057] i2c_hid i2c-ELAN0501:00: input: 0e 00 04 03 07 08 60 04 f4 59 01 80 17 33
[ 2826.292925] i2c_hid i2c-ELAN0501:00: input: 0e 00 04 03 08 08 62 04 3a 5a 01 80 17 23
[ 2826.300042] i2c_hid i2c-ELAN0501:00: input: 0e 00 04 03 09 08 64 04 80 5a 01 80 17 33
[ 2826.306870] i2c_hid i2c-ELAN0501:00: input: 0e 00 04 03 0a 08 66 04 c6 5a 01 80 17 33
[ 2826.314064] i2c_hid i2c-ELAN0501:00: input: 0e 00 04 03 0b 08 68 04 0c 5b 01 80 17 33
[ 2826.321023] i2c_hid i2c-ELAN0501:00: input: 0e 00 04 03 0c 08 6a 04 52 5b 01 80 17 33
[ 2826.327960] i2c_hid i2c-ELAN0501:00: input: 0e 00 04 03 0d 08 6c 04 98 5b 01 80 17 33
[ 2826.334979] i2c_hid i2c-ELAN0501:00: input: 0e 00 04 03 0e 08 6e 04 de 5b 01 80 17 33
[ 2826.341878] i2c_hid i2c-ELAN0501:00: input: 0e 00 04 03 0f 08 70 04 24 5c 01 80 17 33
[ 2826.348960] i2c_hid i2c-ELAN0501:00: input: 0e 00 04 03 10 08 71 04 6a 5c 01 80 17 33
[ 2826.355951] i2c_hid i2c-ELAN0501:00: input: 0e 00 04 03 11 08 72 04 b0 5c 01 80 17 33
[ 2826.362921] i2c_hid i2c-ELAN0501:00: input: 0e 00 04 03 12 08 73 04 f6 5c 01 80 17 33
[ 2826.369906] i2c_hid i2c-ELAN0501:00: input: 0e 00 04 03 13 08 74 04 3c 5d 01 80 17 33
[ 2826.376745] i2c_hid i2c-ELAN0501:00: input: 0e 00 04 03 14 08 75 04 82 5d 01 80 17 33
[ 2826.383873] i2c_hid i2c-ELAN0501:00: input: 0e 00 04 03 15 08 76 04 c8 5d 01 80 17 33
[ 2826.390722] i2c_hid i2c-ELAN0501:00: input: 0e 00 04 03 16 08 77 04 0e 5e 01 80 17 33
[ 2826.397749] i2c_hid i2c-ELAN0501:00: input: 0e 00 04 03 17 08 78 04 54 5e 01 80 17 33
[ 2826.404952] i2c_hid i2c-ELAN0501:00: input: 0e 00 04 03 18 08 79 04 9a 5e 01 80 17 33
[ 2826.411789] i2c_hid i2c-ELAN0501:00: input: 0e 00 04 03 19 08 7a 04 e0 5e 01 80 17 33
[ 2826.418605] i2c_hid i2c-ELAN0501:00: input: 0e 00 04 03 1a 08 7b 04 26 5f 01 80 17 33
[ 2826.425571] i2c_hid i2c-ELAN0501:00: input: 0e 00 04 03 1b 08 7c 04 6c 5f 01 80 17 33
[ 2826.432759] i2c_hid i2c-ELAN0501:00: input: 0e 00 04 03 1c 08 7d 04 b2 5f 01 80 17 33
[ 2826.439704] i2c_hid i2c-ELAN0501:00: input: 0e 00 04 03 1d 08 7e 04 f8 5f 01 80 17 33
[ 2826.446592] i2c_hid i2c-ELAN0501:00: input: 0e 00 04 03 1e 08 7f 04 3e 60 01 80 17 33
[ 2826.453604] i2c_hid i2c-ELAN0501:00: input: 0e 00 04 03 1f 08 80 04 84 60 01 80 17 33
[ 2826.460529] i2c_hid i2c-ELAN0501:00: input: 0e 00 04 03 1f 08 81 04 ca 60 01 80 17 33
[ 2826.467482] i2c_hid i2c-ELAN0501:00: input: 0e 00 04 03 1f 08 82 04 10 61 01 80 17 33
[ 2826.474453] i2c_hid i2c-ELAN0501:00: input: 0e 00 04 03 1f 08 83 04 56 61 01 80 17 33
[ 2826.481439] i2c_hid i2c-ELAN0501:00: input: 0e 00 04 03 1f 08 83 04 9c 61 01 80 17 33
[ 2826.488444] i2c_hid i2c-ELAN0501:00: input: 0e 00 04 03 1f 08 83 04 e2 61 01 80 17 33
[ 2826.495448] i2c_hid i2c-ELAN0501:00: input: 0e 00 04 03 1f 08 83 04 28 62 01 80 17 33
[ 2826.502348] i2c_hid i2c-ELAN0501:00: input: 0e 00 04 03 1f 08 83 04 6e 62 01 80 17 33
[ 2826.509497] i2c_hid i2c-ELAN0501:00: input: 0e 00 04 03 1f 08 83 04 b4 62 01 80 17 33
[ 2826.516475] i2c_hid i2c-ELAN0501:00: input: 0e 00 04 03 1f 08 83 04 fa 62 01 80 17 33
[ 2826.523393] i2c_hid i2c-ELAN0501:00: input: 0e 00 04 03 1f 08 83 04 40 63 01 80 17 33
[ 2826.530504] i2c_hid i2c-ELAN0501:00: input: 0e 00 04 03 1f 08 83 04 86 63 01 80 17 33
[ 2826.537444] i2c_hid i2c-ELAN0501:00: input: 0e 00 04 03 1f 08 83 04 cc 63 01 80 17 33
[ 2826.544458] i2c_hid i2c-ELAN0501:00: input: 0e 00 04 03 1f 08 83 04 12 64 01 80 17 33
[ 2826.551584] i2c_hid i2c-ELAN0501:00: input: 0e 00 04 03 1f 08 83 04 58 64 01 80 17 33
[ 2826.558564] i2c_hid i2c-ELAN0501:00: input: 0e 00 04 03 1f 08 83 04 9e 64 01 80 17 33
[ 2826.565575] i2c_hid i2c-ELAN0501:00: input: 0e 00 04 03 1f 08 83 04 e4 64 01 80 17 33
[ 2826.572387] i2c_hid i2c-ELAN0501:00: input: 0e 00 04 03 1f 08 83 04 2a 65 01 80 17 33
[ 2826.579477] i2c_hid i2c-ELAN0501:00: input: 0e 00 04 03 1f 08 83 04 70 65 01 80 17 33
[ 2826.586420] i2c_hid i2c-ELAN0501:00: input: 0e 00 04 03 1f 08 83 04 b6 65 01 80 17 33
[ 2826.593428] i2c_hid i2c-ELAN0501:00: input: 0e 00 04 03 1f 08 83 04 fc 65 01 80 17 33
[ 2826.600471] i2c_hid i2c-ELAN0501:00: input: 0e 00 04 03 1f 08 83 04 42 66 01 80 17 33
[ 2826.607301] i2c_hid i2c-ELAN0501:00: input: 0e 00 04 03 1f 08 83 04 88 66 01 80 17 33
[ 2826.614311] i2c_hid i2c-ELAN0501:00: input: 0e 00 04 03 1f 08 83 04 ce 66 01 80 17 33
[ 2826.621304] i2c_hid i2c-ELAN0501:00: input: 0e 00 04 03 1f 08 83 04 14 67 01 80 17 33
[ 2826.628314] i2c_hid i2c-ELAN0501:00: input: 0e 00 04 03 1f 08 83 04 5a 67 01 80 17 33
[ 2826.635353] i2c_hid i2c-ELAN0501:00: input: 0e 00 04 03 1f 08 83 04 a0 67 01 80 17 33
[ 2826.642294] i2c_hid i2c-ELAN0501:00: input: 0e 00 04 03 1f 08 83 04 e6 67 01 80 17 33
[ 2826.649273] i2c_hid i2c-ELAN0501:00: input: 0e 00 04 03 1f 08 83 04 2c 68 01 80 17 33
[ 2826.656287] i2c_hid i2c-ELAN0501:00: input: 0e 00 04 03 1f 08 83 04 72 68 01 80 17 33
[ 2826.663287] i2c_hid i2c-ELAN0501:00: input: 0e 00 04 03 1f 08 83 04 b8 68 01 80 17 33
[ 2826.670264] i2c_hid i2c-ELAN0501:00: input: 0e 00 04 03 1f 08 83 04 fe 68 01 80 17 33
[ 2826.677240] i2c_hid i2c-ELAN0501:00: input: 0e 00 04 03 1f 08 83 04 44 69 01 80 17 33
[ 2826.684225] i2c_hid i2c-ELAN0501:00: input: 0e 00 04 03 1f 08 83 04 8a 69 01 80 17 33
[ 2826.691346] i2c_hid i2c-ELAN0501:00: input: 0e 00 04 03 1f 08 83 04 d0 69 01 80 17 33
[ 2826.698202] i2c_hid i2c-ELAN0501:00: input: 0e 00 04 03 1f 08 83 04 16 6a 01 80 17 33
[ 2826.705451] i2c_hid i2c-ELAN0501:00: input: 0e 00 04 03 1f 08 83 04 5c 6a 01 80 17 33
[ 2826.712206] i2c_hid i2c-ELAN0501:00: input: 0e 00 04 03 1f 08 83 04 a2 6a 01 80 17 33
