[    0.000000] Linux version 5.4.0-66-generic (XXX@XXX) (gcc version 9.3.0 (Ubuntu 9.3.0-17ubuntu1~20.04)) #74-Ubuntu SMP Wed Jan 27 22:54:38 UTC 2021 (Ubuntu 5.4.0-66.74-generic 5.4.86)
[    0.000000] Command line: BOOT_IMAGE=/boot/vmlinuz-5.4.0-66-generic root=UUID=HASH_E7F-D385-497C-A6C1-2BD8BEBEDACD ro quiet splash i2c-hid.debug=1 hid.debug=1
[    0.000000] KERNEL supported cpus:
[    0.000000]   Intel GenuineIntel
[    0.000000]   AMD AuthenticAMD
[    0.000000]   Hygon HygonGenuine
[    0.000000]   Centaur CentaurHauls
[    0.000000]   zhaoxin   Shanghai  
[    0.000000] x86/fpu: Supporting XSAVE feature 0x001: 'x87 floating point registers'
[    0.000000] x86/fpu: Supporting XSAVE feature 0x002: 'SSE registers'
[    0.000000] x86/fpu: Supporting XSAVE feature 0x004: 'AVX registers'
[    0.000000] x86/fpu: xstate_offset[2]:  576, xstate_sizes[2]:  256
[    0.000000] x86/fpu: Enabled xstate features 0x7, context size is 832 bytes, using 'compacted' format.
[    0.000000] BIOS-provided physical RAM map:
[    0.000000] BIOS-e820: [mem 0x0000000000000000-0x000000000009efff] usable
[    0.000000] BIOS-e820: [mem 0x000000000009f000-0x000000000009ffff] reserved
[    0.000000] BIOS-e820: [mem 0x00000000000e0000-0x00000000000fffff] reserved
[    0.000000] BIOS-e820: [mem 0x0000000000100000-0x0000000009bfffff] usable
[    0.000000] BIOS-e820: [mem 0x0000000009c00000-0x0000000009d70fff] reserved
[    0.000000] BIOS-e820: [mem 0x0000000009d71000-0x0000000009efffff] usable
[    0.000000] BIOS-e820: [mem 0x0000000009f00000-0x0000000009f0ffff] ACPI NVS
[    0.000000] BIOS-e820: [mem 0x0000000009f10000-0x00000000c7a91fff] usable
[    0.000000] BIOS-e820: [mem 0x00000000c7a92000-0x00000000cb77dfff] reserved
[    0.000000] BIOS-e820: [mem 0x00000000cb77e000-0x00000000cd77dfff] ACPI NVS
[    0.000000] BIOS-e820: [mem 0x00000000cd77e000-0x00000000cd7fdfff] ACPI data
[    0.000000] BIOS-e820: [mem 0x00000000cd7fe000-0x00000000ce7fffff] usable
[    0.000000] BIOS-e820: [mem 0x00000000ce800000-0x00000000cfffffff] reserved
[    0.000000] BIOS-e820: [mem 0x00000000f8000000-0x00000000fbffffff] reserved
[    0.000000] BIOS-e820: [mem 0x00000000fd200000-0x00000000fd2fffff] reserved
[    0.000000] BIOS-e820: [mem 0x00000000fed80000-0x00000000fed80fff] reserved
[    0.000000] BIOS-e820: [mem 0x0000000100000000-0x000000040f33ffff] usable
[    0.000000] BIOS-e820: [mem 0x000000040f340000-0x000000042fffffff] reserved
[    0.000000] NX (Execute Disable) protection: active
[    0.000000] e820: update [mem 0xc10ec018-0xc10f9457] usable ==> usable
[    0.000000] e820: update [mem 0xc10ec018-0xc10f9457] usable ==> usable
[    0.000000] extended physical RAM map:
[    0.000000] reserve setup_data: [mem 0x0000000000000000-0x000000000009efff] usable
[    0.000000] reserve setup_data: [mem 0x000000000009f000-0x000000000009ffff] reserved
[    0.000000] reserve setup_data: [mem 0x00000000000e0000-0x00000000000fffff] reserved
[    0.000000] reserve setup_data: [mem 0x0000000000100000-0x0000000009bfffff] usable
[    0.000000] reserve setup_data: [mem 0x0000000009c00000-0x0000000009d70fff] reserved
[    0.000000] reserve setup_data: [mem 0x0000000009d71000-0x0000000009efffff] usable
[    0.000000] reserve setup_data: [mem 0x0000000009f00000-0x0000000009f0ffff] ACPI NVS
[    0.000000] reserve setup_data: [mem 0x0000000009f10000-0x00000000c10ec017] usable
[    0.000000] reserve setup_data: [mem 0x00000000c10ec018-0x00000000c10f9457] usable
[    0.000000] reserve setup_data: [mem 0x00000000c10f9458-0x00000000c7a91fff] usable
[    0.000000] reserve setup_data: [mem 0x00000000c7a92000-0x00000000cb77dfff] reserved
[    0.000000] reserve setup_data: [mem 0x00000000cb77e000-0x00000000cd77dfff] ACPI NVS
[    0.000000] reserve setup_data: [mem 0x00000000cd77e000-0x00000000cd7fdfff] ACPI data
[    0.000000] reserve setup_data: [mem 0x00000000cd7fe000-0x00000000ce7fffff] usable
[    0.000000] reserve setup_data: [mem 0x00000000ce800000-0x00000000cfffffff] reserved
[    0.000000] reserve setup_data: [mem 0x00000000f8000000-0x00000000fbffffff] reserved
[    0.000000] reserve setup_data: [mem 0x00000000fd200000-0x00000000fd2fffff] reserved
[    0.000000] reserve setup_data: [mem 0x00000000fed80000-0x00000000fed80fff] reserved
[    0.000000] reserve setup_data: [mem 0x0000000100000000-0x000000040f33ffff] usable
[    0.000000] reserve setup_data: [mem 0x000000040f340000-0x000000042fffffff] reserved
[    0.000000] efi: EFI v2.70 by Phoenix Technologies Ltd.
[    0.000000] efi:  ACPI=0xcd7fd000  ACPI 2.0=0xcd7fd014  TPMFinalLog=0xcd62f000  SMBIOS=0xc966a000  SMBIOS 3.0=0xc965d000  MEMATTR=0xc5a21018  ESRT=0xc81f9000  TPMEventLog=0xc10fb018 
[    0.000000] secureboot: Secure boot disabled
[    0.000000] SMBIOS 3.2.0 present.
[    0.000000] DMI: LENOVO 81X2/LNVNB161216, BIOS EECN31WW 12/18/2020
[    0.000000] tsc: Fast TSC calibration using PIT
[    0.000000] tsc: Detected 2370.649 MHz processor
[    0.000386] e820: update [mem 0x00000000-0x00000fff] usable ==> reserved
[    0.000387] e820: remove [mem 0x000a0000-0x000fffff] usable
[    0.000391] last_pfn = 0x40f340 max_arch_pfn = 0x400000000
[    0.000395] MTRR default type: uncachable
[    0.000395] MTRR fixed ranges enabled:
[    0.000396]   00000-9FFFF write-back
[    0.000397]   A0000-EFFFF uncachable
[    0.000397]   F0000-FFFFF write-protect
[    0.000398] MTRR variable ranges enabled:
[    0.000398]   0 base 000000000000 mask FFFF80000000 write-back
[    0.000399]   1 base 000080000000 mask FFFFC0000000 write-back
[    0.000400]   2 base 0000C0000000 mask FFFFF0000000 write-back
[    0.000400]   3 base 0000FF000000 mask FFFFFF000000 write-protect
[    0.000400]   4 disabled
[    0.000401]   5 disabled
[    0.000401]   6 disabled
[    0.000401]   7 disabled
[    0.000402] TOM2: 0000000430000000 aka 17152M
[    0.000631] x86/PAT: Configuration [0-7]: WB  WC  UC- UC  WB  WP  UC- WT  
[    0.000711] last_pfn = 0xce800 max_arch_pfn = 0x400000000
[    0.003999] esrt: Reserving ESRT space from 0x00000000c81f9000 to 0x00000000c81f9088.
[    0.004007] check: Scanning 1 areas for low memory corruption
[    0.004011] Using GB pages for direct mapping
[    0.004316] secureboot: Secure boot disabled
[    0.004317] RAMDISK: [mem 0x3ae19000-0x3fffdfff]
[    0.004330] ACPI: Early table checksum verification disabled
[    0.004333] ACPI: RSDP 0x00000000CD7FD014 000024 (v02 LENOVO)
[    0.004336] ACPI: XSDT 0x00000000CD7FB188 000104 (v01 LENOVO CB-01    00000003 LENO 00000001)
[    0.004341] ACPI: FACP 0x00000000C8226000 00010C (v05 LENOVO CB-01    00000003 LENO 00000001)
[    0.004345] ACPI: DSDT 0x00000000C8216000 00A9CB (v01 LENOVO AMD      00001000 INTL 20180313)
[    0.004347] ACPI: FACS 0x00000000CD622000 000040
[    0.004348] ACPI: SSDT 0x00000000C968F000 007216 (v02 LENOVO AmdTable 00000002 MSFT 04000000)
[    0.004350] ACPI: IVRS 0x00000000C968E000 0001A4 (v02 LENOVO CB-01    00000001 LENO 00000001)
[    0.004352] ACPI: MSDM 0x00000000C9605000 000055 (v03 LENOVO CB-01    00000000 LENO 00000001)
[    0.004353] ACPI: BATB 0x00000000C9428000 00004A (v02 LENOVO CB-01    00000000 LENO 00000001)
[    0.004355] ACPI: HPET 0x00000000C8225000 000038 (v01 LENOVO CB-01    00000001 LENO 00000001)
[    0.004357] ACPI: APIC 0x00000000C8224000 000138 (v02 LENOVO CB-01    00000000 LENO 00000001)
[    0.004358] ACPI: MCFG 0x00000000C8223000 00003C (v01 LENOVO CB-01    00000001 LENO 00000001)
[    0.004360] ACPI: SBST 0x00000000C8222000 000030 (v01 LENOVO CB-01    00000001 LENO 00000001)
[    0.004362] ACPI: WSMT 0x00000000C8221000 000028 (v01 LENOVO CB-01    00000000 LENO 00000001)
[    0.004363] ACPI: VFCT 0x00000000C8208000 00D484 (v01 LENOVO CB-01    00000001 LENO 00000001)
[    0.004365] ACPI: SSDT 0x00000000C8206000 001500 (v01 LENOVO AmdTable 00000001 AMD  00000001)
[    0.004366] ACPI: CRAT 0x00000000C8205000 000B80 (v01 LENOVO CB-01    00000001 LENO 00000001)
[    0.004368] ACPI: CDIT 0x00000000C8204000 000029 (v01 LENOVO CB-01    00000001 LENO 00000001)
[    0.004370] ACPI: SSDT 0x00000000C8203000 00053A (v01 LENOVO Tpm2Tabl 00009999 INTL 20180313)
[    0.004371] ACPI: TPM2 0x00000000C8202000 000038 (v04 LENOVO CB-01    00000002 LENO 00000001)
[    0.004373] ACPI: FPDT 0x00000000C8200000 000034 (v01 LENOVO CB-01    00000002 LENO 00000001)
[    0.004375] ACPI: SSDT 0x00000000C81FF000 00064C (v01 LENOVO AmdTable 00000001 INTL 20180313)
[    0.004376] ACPI: SSDT 0x00000000C81FE000 000480 (v01 LENOVO AmdTable 00000001 INTL 20180313)
[    0.004378] ACPI: SSDT 0x00000000C81FC000 001497 (v01 LENOVO AmdTable 00000001 INTL 20180313)
[    0.004380] ACPI: SSDT 0x00000000C81FA000 001576 (v01 LENOVO AmdTable 00000001 INTL 20180313)
[    0.004381] ACPI: SSDT 0x00000000C81F5000 00353C (v01 LENOVO AmdTable 00000001 INTL 20180313)
[    0.004383] ACPI: BGRT 0x00000000C81F4000 000038 (v01 LENOVO CB-01    00000002 LENO 00000001)
[    0.004384] ACPI: UEFI 0x00000000CD620000 00012A (v01 LENOVO CB-01    00000001 LENO 00000001)
[    0.004386] ACPI: SSDT 0x00000000C969B000 000090 (v01 LENOVO AmdTable 00000001 INTL 20180313)
[    0.004388] ACPI: SSDT 0x00000000C969A000 00047F (v01 LENOVO AmdTable 00000001 INTL 20180313)
[    0.004389] ACPI: SSDT 0x00000000C9699000 000C1D (v01 LENOVO AmdTable 00000001 INTL 20180313)
[    0.004391] ACPI: SSDT 0x00000000C9698000 0009AD (v01 LENOVO AmdTable 00000001 INTL 20180313)
[    0.004397] ACPI: Local APIC address 0xfee00000
[    0.004493] No NUMA configuration found
[    0.004494] Faking a node at [mem 0x0000000000000000-0x000000040f33ffff]
[    0.004500] NODE_DATA(0) allocated [mem 0x40f315000-0x40f33ffff]
[    0.004659] Zone ranges:
[    0.004660]   DMA      [mem 0x0000000000001000-0x0000000000ffffff]
[    0.004660]   DMA32    [mem 0x0000000001000000-0x00000000ffffffff]
[    0.004661]   Normal   [mem 0x0000000100000000-0x000000040f33ffff]
[    0.004662]   Device   empty
[    0.004662] Movable zone start for each node
[    0.004663] Early memory node ranges
[    0.004664]   node   0: [mem 0x0000000000001000-0x000000000009efff]
[    0.004664]   node   0: [mem 0x0000000000100000-0x0000000009bfffff]
[    0.004665]   node   0: [mem 0x0000000009d71000-0x0000000009efffff]
[    0.004665]   node   0: [mem 0x0000000009f10000-0x00000000c7a91fff]
[    0.004666]   node   0: [mem 0x00000000cd7fe000-0x00000000ce7fffff]
[    0.004666]   node   0: [mem 0x0000000100000000-0x000000040f33ffff]
[    0.004831] Zeroed struct page in unavailable ranges: 33807 pages
[    0.004832] Initmem setup node 0 [mem 0x0000000000001000-0x000000040f33ffff]
[    0.004833] On node 0 totalpages: 4029425
[    0.004834]   DMA zone: 64 pages used for memmap
[    0.004834]   DMA zone: 22 pages reserved
[    0.004835]   DMA zone: 3998 pages, LIFO batch:0
[    0.004872]   DMA32 zone: 12773 pages used for memmap
[    0.004872]   DMA32 zone: 817427 pages, LIFO batch:63
[    0.013995]   Normal zone: 50125 pages used for memmap
[    0.013997]   Normal zone: 3208000 pages, LIFO batch:63
[    0.045678] ACPI: PM-Timer IO Port: 0x408
[    0.045680] ACPI: Local APIC address 0xfee00000
[    0.045686] ACPI: LAPIC_NMI (acpi_id[0x00] high edge lint[0x1])
[    0.045686] ACPI: LAPIC_NMI (acpi_id[0x01] high edge lint[0x1])
[    0.045686] ACPI: LAPIC_NMI (acpi_id[0x02] high edge lint[0x1])
[    0.045687] ACPI: LAPIC_NMI (acpi_id[0x03] high edge lint[0x1])
[    0.045687] ACPI: LAPIC_NMI (acpi_id[0x04] high edge lint[0x1])
[    0.045687] ACPI: LAPIC_NMI (acpi_id[0x05] high edge lint[0x1])
[    0.045688] ACPI: LAPIC_NMI (acpi_id[0x06] high edge lint[0x1])
[    0.045688] ACPI: LAPIC_NMI (acpi_id[0x07] high edge lint[0x1])
[    0.045688] ACPI: LAPIC_NMI (acpi_id[0x08] high edge lint[0x1])
[    0.045689] ACPI: LAPIC_NMI (acpi_id[0x09] high edge lint[0x1])
[    0.045689] ACPI: LAPIC_NMI (acpi_id[0x0a] high edge lint[0x1])
[    0.045689] ACPI: LAPIC_NMI (acpi_id[0x0b] high edge lint[0x1])
[    0.045690] ACPI: LAPIC_NMI (acpi_id[0x0c] high edge lint[0x1])
[    0.045690] ACPI: LAPIC_NMI (acpi_id[0x0d] high edge lint[0x1])
[    0.045690] ACPI: LAPIC_NMI (acpi_id[0x0e] high edge lint[0x1])
[    0.045690] ACPI: LAPIC_NMI (acpi_id[0x0f] high edge lint[0x1])
[    0.045704] IOAPIC[0]: apic_id 32, version 33, address 0xfec00000, GSI 0-23
[    0.045708] IOAPIC[1]: apic_id 33, version 33, address 0xfec01000, GSI 24-55
[    0.045709] ACPI: INT_SRC_OVR (bus 0 bus_irq 0 global_irq 2 dfl dfl)
[    0.045710] ACPI: INT_SRC_OVR (bus 0 bus_irq 9 global_irq 9 low level)
[    0.045711] ACPI: IRQ0 used by override.
[    0.045712] ACPI: IRQ9 used by override.
[    0.045713] Using ACPI (MADT) for SMP configuration information
[    0.045714] ACPI: HPET id: 0x43538210 base: 0xfed00000
[    0.045721] e820: update [mem 0xc440f000-0xc4502fff] usable ==> reserved
[    0.045728] smpboot: Allowing 16 CPUs, 10 hotplug CPUs
[    0.045743] PM: Registered nosave memory: [mem 0x00000000-0x00000fff]
[    0.045744] PM: Registered nosave memory: [mem 0x0009f000-0x0009ffff]
[    0.045745] PM: Registered nosave memory: [mem 0x000a0000-0x000dffff]
[    0.045745] PM: Registered nosave memory: [mem 0x000e0000-0x000fffff]
[    0.045746] PM: Registered nosave memory: [mem 0x09c00000-0x09d70fff]
[    0.045747] PM: Registered nosave memory: [mem 0x09f00000-0x09f0ffff]
[    0.045748] PM: Registered nosave memory: [mem 0xc10ec000-0xc10ecfff]
[    0.045749] PM: Registered nosave memory: [mem 0xc10f9000-0xc10f9fff]
[    0.045750] PM: Registered nosave memory: [mem 0xc440f000-0xc4502fff]
[    0.045751] PM: Registered nosave memory: [mem 0xc7a92000-0xcb77dfff]
[    0.045751] PM: Registered nosave memory: [mem 0xcb77e000-0xcd77dfff]
[    0.045751] PM: Registered nosave memory: [mem 0xcd77e000-0xcd7fdfff]
[    0.045752] PM: Registered nosave memory: [mem 0xce800000-0xcfffffff]
[    0.045753] PM: Registered nosave memory: [mem 0xd0000000-0xf7ffffff]
[    0.045753] PM: Registered nosave memory: [mem 0xf8000000-0xfbffffff]
[    0.045753] PM: Registered nosave memory: [mem 0xfc000000-0xfd1fffff]
[    0.045754] PM: Registered nosave memory: [mem 0xfd200000-0xfd2fffff]
[    0.045754] PM: Registered nosave memory: [mem 0xfd300000-0xfed7ffff]
[    0.045754] PM: Registered nosave memory: [mem 0xfed80000-0xfed80fff]
[    0.045754] PM: Registered nosave memory: [mem 0xfed81000-0xffffffff]
[    0.045756] [mem 0xd0000000-0xf7ffffff] available for PCI devices
[    0.045757] Booting paravirtualized kernel on bare hardware
[    0.045760] clocksource: refined-jiffies: mask: 0xffffffff max_cycles: 0xffffffff, max_idle_ns: 7645519600211568 ns
[    0.045764] setup_percpu: NR_CPUS:8192 nr_cpumask_bits:16 nr_cpu_ids:16 nr_node_ids:1
[    0.046440] percpu: Embedded 55 pages/cpu s188416 r8192 d28672 u262144
[    0.046446] pcpu-alloc: s188416 r8192 d28672 u262144 alloc=1*2097152
[    0.046447] pcpu-alloc: [0] 00 01 02 03 04 05 06 07 [0] 08 09 10 11 12 13 14 15 
[    0.046472] Built 1 zonelists, mobility grouping on.  Total pages: 3966441
[    0.046472] Policy zone: Normal
[    0.046474] Kernel command line: BOOT_IMAGE=/boot/vmlinuz-5.4.0-66-generic root=UUID=HASH_E7F-D385-497C-A6C1-2BD8BEBEDACD ro quiet splash i2c-hid.debug=1 hid.debug=1
[    0.048297] Dentry cache hash table entries: 2097152 (order: 12, 16777216 bytes, linear)
[    0.049178] Inode-cache hash table entries: 1048576 (order: 11, 8388608 bytes, linear)
[    0.049215] mem auto-init: stack:off, heap alloc:on, heap free:off
[    0.056396] Calgary: detecting Calgary via BIOS EBDA area
[    0.056397] Calgary: Unable to locate Rio Grande table in EBDA - bailing!
[    0.083324] Memory: 15611384K/16117700K available (14339K kernel code, 2400K rwdata, 4964K rodata, 2732K init, 4968K bss, 506316K reserved, 0K cma-reserved)
[    0.083332] random: get_random_u64 called from kmem_cache_open+0x2d/0x410 with crng_init=0
[    0.083457] SLUB: HWalign=64, Order=0-3, MinObjects=0, CPUs=16, Nodes=1
[    0.083473] ftrace: allocating 44565 entries in 175 pages
[    0.095831] rcu: Hierarchical RCU implementation.
[    0.095832] rcu: 	RCU restricting CPUs from NR_CPUS=8192 to nr_cpu_ids=16.
[    0.095833] 	Tasks RCU enabled.
[    0.095833] rcu: RCU calculated value of scheduler-enlistment delay is 25 jiffies.
[    0.095834] rcu: Adjusting geometry for rcu_fanout_leaf=16, nr_cpu_ids=16
[    0.097564] NR_IRQS: 524544, nr_irqs: 1096, preallocated irqs: 16
[    0.097904] random: crng done (trusting CPU's manufacturer)
[    0.097927] Console: colour dummy device 80x25
[    0.097930] printk: console [tty0] enabled
[    0.097945] ACPI: Core revision 20190816
[    0.098122] clocksource: hpet: mask: 0xffffffff max_cycles: 0xffffffff, max_idle_ns: 133484873504 ns
[    0.098138] APIC: Switch to symmetric I/O mode setup
[    0.098767] AMD-Vi: ivrs, add hid:AMDI0020, uid:\_SB.FUR0, rdevid:160
[    0.098768] AMD-Vi: ivrs, add hid:AMDI0020, uid:\_SB.FUR1, rdevid:160
[    0.098768] AMD-Vi: ivrs, add hid:AMDI0020, uid:\_SB.FUR2, rdevid:160
[    0.098769] AMD-Vi: ivrs, add hid:AMDI0020, uid:\_SB.FUR3, rdevid:160
[    0.196865] Switched APIC routing to physical flat.
[    0.197592] ..TIMER: vector=0x30 apic1=0 pin1=2 apic2=-1 pin2=-1
[    0.214140] clocksource: tsc-early: mask: 0xffffffffffffffff max_cycles: 0x222be8a0a5b, max_idle_ns: 440795222301 ns
[    0.214146] Calibrating delay loop (skipped), value calculated using timer frequency.. 4741.29 BogoMIPS (lpj=9482596)
[    0.214147] pid_max: default: 32768 minimum: 301
[    0.215367] LSM: Security Framework initializing
[    0.215376] Yama: becoming mindful.
[    0.215452] AppArmor: AppArmor initialized
[    0.215527] Mount-cache hash table entries: 32768 (order: 6, 262144 bytes, linear)
[    0.215571] Mountpoint-cache hash table entries: 32768 (order: 6, 262144 bytes, linear)
[    0.215592] *** VALIDATE tmpfs ***
[    0.215744] *** VALIDATE proc ***
[    0.215800] *** VALIDATE cgroup1 ***
[    0.215802] *** VALIDATE cgroup2 ***
[    0.215850] x86/cpu: User Mode Instruction Prevention (UMIP) activated
[    0.215891] LVT offset 1 assigned for vector 0xf9
[    0.215998] LVT offset 2 assigned for vector 0xf4
[    0.216022] Last level iTLB entries: 4KB 1024, 2MB 1024, 4MB 512
[    0.216023] Last level dTLB entries: 4KB 2048, 2MB 2048, 4MB 1024, 1GB 0
[    0.216027] Spectre V1 : Mitigation: usercopy/swapgs barriers and __user pointer sanitization
[    0.216029] Spectre V2 : Mitigation: Full AMD retpoline
[    0.216029] Spectre V2 : Spectre v2 / SpectreRSB mitigation: Filling RSB on context switch
[    0.216029] Spectre V2 : Enabling Restricted Speculation for firmware calls
[    0.216030] Spectre V2 : mitigation: Enabling conditional Indirect Branch Prediction Barrier
[    0.216031] Speculative Store Bypass: Mitigation: Speculative Store Bypass disabled via prctl and seccomp
[    0.216275] Freeing SMP alternatives memory: 40K
[    0.326480] smpboot: CPU0: AMD Ryzen 5 4500U with Radeon Graphics (family: 0x17, model: 0x60, stepping: 0x1)
[    0.326591] Performance Events: Fam17h+ core perfctr, AMD PMU driver.
[    0.326595] ... version:                0
[    0.326596] ... bit width:              48
[    0.326596] ... generic registers:      6
[    0.326596] ... value mask:             0000ffffffffffff
[    0.326596] ... max period:             00007fffffffffff
[    0.326597] ... fixed-purpose events:   0
[    0.326597] ... event mask:             000000000000003f
[    0.326624] rcu: Hierarchical SRCU implementation.
[    0.327257] NMI watchdog: Enabled. Permanently consumes one hw-PMU counter.
[    0.327392] smp: Bringing up secondary CPUs ...
[    0.327478] x86: Booting SMP configuration:
[    0.327479] .... node  #0, CPUs:        #1
[    0.329835] TSC synchronization [CPU#0 -> CPU#1]:
[    0.329836] Measured 614264775 cycles TSC warp between CPUs, turning off TSC clock.
[    0.329837] tsc: Marking TSC unstable due to check_tsc_sync_source failed
[    0.329844]   #2  #3  #4  #5
[    0.330524] smp: Brought up 1 node, 6 CPUs
[    0.330524] smpboot: Max logical packages: 3
[    0.330524] smpboot: Total of 6 processors activated (28447.78 BogoMIPS)
[    0.331600] devtmpfs: initialized
[    0.331600] x86/mm: Memory block size: 128MB
[    0.334173] PM: Registering ACPI NVS region [mem 0x09f00000-0x09f0ffff] (65536 bytes)
[    0.334175] PM: Registering ACPI NVS region [mem 0xcb77e000-0xcd77dfff] (33554432 bytes)
[    0.334538] clocksource: jiffies: mask: 0xffffffff max_cycles: 0xffffffff, max_idle_ns: 7645041785100000 ns
[    0.334538] futex hash table entries: 4096 (order: 6, 262144 bytes, linear)
[    0.334538] pinctrl core: initialized pinctrl subsystem
[    0.334538] PM: RTC time: 00:13:52, date: 2021-03-08
[    0.334538] NET: Registered protocol family 16
[    0.334538] EISA bus registered
[    0.334538] cpuidle: using governor ladder
[    0.334538] cpuidle: using governor menu
[    0.334538] ACPI: bus type PCI registered
[    0.334538] acpiphp: ACPI Hot Plug PCI Controller Driver version: 0.5
[    0.334538] PCI: MMCONFIG for domain 0000 [bus 00-3f] at [mem 0xf8000000-0xfbffffff] (base 0xf8000000)
[    0.334538] PCI: MMCONFIG at [mem 0xf8000000-0xfbffffff] reserved in E820
[    0.334538] PCI: Using configuration type 1 for base access
[    0.334808] mtrr: your CPUs had inconsistent fixed MTRR settings
[    0.334809] mtrr: probably your BIOS does not setup all CPUs.
[    0.334809] mtrr: corrected configuration.
[    0.335469] HugeTLB registered 1.00 GiB page size, pre-allocated 0 pages
[    0.335469] HugeTLB registered 2.00 MiB page size, pre-allocated 0 pages
[    0.338196] ACPI: Added _OSI(Module Device)
[    0.338197] ACPI: Added _OSI(Processor Device)
[    0.338197] ACPI: Added _OSI(3.0 _SCP Extensions)
[    0.338198] ACPI: Added _OSI(Processor Aggregator Device)
[    0.338198] ACPI: Added _OSI(Linux-Dell-Video)
[    0.338199] ACPI: Added _OSI(Linux-Lenovo-NV-HDMI-Audio)
[    0.338199] ACPI: Added _OSI(Linux-HPI-Hybrid-Graphics)
[    0.350329] ACPI: 13 ACPI AML tables successfully acquired and loaded
[    0.351297] ACPI: [Firmware Bug]: BIOS _OSI(Linux) query ignored
[    0.351463] ACPI: EC: EC started
[    0.351463] ACPI: EC: interrupt blocked
[    0.352450] ACPI: \_SB_.PCI0.LPC0.EC0_: Used as first EC
[    0.352451] ACPI: \_SB_.PCI0.LPC0.EC0_: GPE=0x3, IRQ=-1, EC_CMD/EC_SC=0x66, EC_DATA=0x62
[    0.352452] ACPI: \_SB_.PCI0.LPC0.EC0_: Boot DSDT EC used to handle transactions
[    0.352452] ACPI: Interpreter enabled
[    0.352463] ACPI: (supports S0 S3 S4 S5)
[    0.352464] ACPI: Using IOAPIC for interrupt routing
[    0.352567] PCI: Using host bridge windows from ACPI; if necessary, use "pci=nocrs" and report a bug
[    0.352853] ACPI: Enabled 5 GPEs in block 00 to 1F
[    0.358986] ACPI: Power Resource [P0S0] (on)
[    0.359005] ACPI: Power Resource [P3S0] (on)
[    0.359066] ACPI: Power Resource [P0S1] (on)
[    0.359084] ACPI: Power Resource [P3S1] (on)
[    0.362200] ACPI: Power Resource [PRWL] (on)
[    0.362824] ACPI: PCI Root Bridge [PCI0] (domain 0000 [bus 00-ff])
[    0.362828] acpi PNP0A08:00: _OSC: OS supports [ExtendedConfig ASPM ClockPM Segments MSI HPX-Type3]
[    0.362955] acpi PNP0A08:00: _OSC: platform does not support [SHPCHotplug LTR]
[    0.363074] acpi PNP0A08:00: _OSC: OS now controls [PCIeHotplug PME AER PCIeCapability]
[    0.363082] acpi PNP0A08:00: [Firmware Info]: MMCONFIG for domain 0000 [bus 00-3f] only partially covers this bridge
[    0.363236] PCI host bridge to bus 0000:00
[    0.363238] pci_bus 0000:00: root bus resource [mem 0x000a0000-0x000bffff window]
[    0.363239] pci_bus 0000:00: root bus resource [mem 0x000c0000-0x000c1fff window]
[    0.363239] pci_bus 0000:00: root bus resource [mem 0x000c2000-0x000c3fff window]
[    0.363240] pci_bus 0000:00: root bus resource [mem 0x000c4000-0x000c5fff window]
[    0.363240] pci_bus 0000:00: root bus resource [mem 0x000c6000-0x000c7fff window]
[    0.363241] pci_bus 0000:00: root bus resource [mem 0x000c8000-0x000c9fff window]
[    0.363241] pci_bus 0000:00: root bus resource [mem 0x000ca000-0x000cbfff window]
[    0.363242] pci_bus 0000:00: root bus resource [mem 0x000cc000-0x000cdfff window]
[    0.363243] pci_bus 0000:00: root bus resource [mem 0x000ce000-0x000cffff window]
[    0.363243] pci_bus 0000:00: root bus resource [mem 0x000d0000-0x000d1fff window]
[    0.363244] pci_bus 0000:00: root bus resource [mem 0x000d2000-0x000d3fff window]
[    0.363244] pci_bus 0000:00: root bus resource [mem 0x000d4000-0x000d5fff window]
[    0.363245] pci_bus 0000:00: root bus resource [mem 0x000d6000-0x000d7fff window]
[    0.363245] pci_bus 0000:00: root bus resource [mem 0x000d8000-0x000d9fff window]
[    0.363246] pci_bus 0000:00: root bus resource [mem 0x000da000-0x000dbfff window]
[    0.363246] pci_bus 0000:00: root bus resource [mem 0x000dc000-0x000ddfff window]
[    0.363247] pci_bus 0000:00: root bus resource [mem 0x000de000-0x000dffff window]
[    0.363248] pci_bus 0000:00: root bus resource [mem 0x000e0000-0x000e1fff window]
[    0.363248] pci_bus 0000:00: root bus resource [mem 0x000e2000-0x000e3fff window]
[    0.363249] pci_bus 0000:00: root bus resource [mem 0x000e4000-0x000e5fff window]
[    0.363249] pci_bus 0000:00: root bus resource [mem 0x000e6000-0x000e7fff window]
[    0.363250] pci_bus 0000:00: root bus resource [mem 0x000e8000-0x000e9fff window]
[    0.363250] pci_bus 0000:00: root bus resource [mem 0x000ea000-0x000ebfff window]
[    0.363251] pci_bus 0000:00: root bus resource [mem 0x000ec000-0x000edfff window]
[    0.363252] pci_bus 0000:00: root bus resource [mem 0x000ee000-0x000effff window]
[    0.363252] pci_bus 0000:00: root bus resource [mem 0xd0000000-0xf7ffffff window]
[    0.363253] pci_bus 0000:00: root bus resource [mem 0xfc000000-0xfdffffff window]
[    0.363253] pci_bus 0000:00: root bus resource [mem 0x430000000-0xffffffffff window]
[    0.363254] pci_bus 0000:00: root bus resource [io  0x0000-0x0cf7 window]
[    0.363255] pci_bus 0000:00: root bus resource [io  0x0d00-0xffff window]
[    0.363255] pci_bus 0000:00: root bus resource [bus 00-ff]
[    0.363262] pci 0000:00:00.0: [1022:1630] type 00 class 0x060000
[    0.363326] pci 0000:00:00.2: [1022:1631] type 00 class 0x080600
[    0.363401] pci 0000:00:01.0: [1022:1632] type 00 class 0x060000
[    0.363458] pci 0000:00:01.2: [1022:1634] type 01 class 0x060400
[    0.363518] pci 0000:00:01.2: PME# supported from D0 D3hot D3cold
[    0.363595] pci 0000:00:02.0: [1022:1632] type 00 class 0x060000
[    0.363648] pci 0000:00:02.2: [1022:1634] type 01 class 0x060400
[    0.363708] pci 0000:00:02.2: PME# supported from D0 D3hot D3cold
[    0.363777] pci 0000:00:02.4: [1022:1634] type 01 class 0x060400
[    0.363836] pci 0000:00:02.4: PME# supported from D0 D3hot D3cold
[    0.363906] pci 0000:00:08.0: [1022:1632] type 00 class 0x060000
[    0.363957] pci 0000:00:08.1: [1022:1635] type 01 class 0x060400
[    0.363979] pci 0000:00:08.1: enabling Extended Tags
[    0.364005] pci 0000:00:08.1: PME# supported from D0 D3hot D3cold
[    0.364060] pci 0000:00:08.2: [1022:1635] type 01 class 0x060400
[    0.364083] pci 0000:00:08.2: enabling Extended Tags
[    0.364109] pci 0000:00:08.2: PME# supported from D0 D3hot D3cold
[    0.364187] pci 0000:00:14.0: [1022:790b] type 00 class 0x0c0500
[    0.364282] pci 0000:00:14.3: [1022:790e] type 00 class 0x060100
[    0.364395] pci 0000:00:18.0: [1022:1448] type 00 class 0x060000
[    0.364429] pci 0000:00:18.1: [1022:1449] type 00 class 0x060000
[    0.364463] pci 0000:00:18.2: [1022:144a] type 00 class 0x060000
[    0.364496] pci 0000:00:18.3: [1022:144b] type 00 class 0x060000
[    0.364529] pci 0000:00:18.4: [1022:144c] type 00 class 0x060000
[    0.364562] pci 0000:00:18.5: [1022:144d] type 00 class 0x060000
[    0.364597] pci 0000:00:18.6: [1022:144e] type 00 class 0x060000
[    0.364633] pci 0000:00:18.7: [1022:144f] type 00 class 0x060000
[    0.364727] pci 0000:01:00.0: [10ec:522a] type 00 class 0xff0000
[    0.364749] pci 0000:01:00.0: reg 0x10: [mem 0xfc800000-0xfc800fff]
[    0.364846] pci 0000:01:00.0: supports D1 D2
[    0.364847] pci 0000:01:00.0: PME# supported from D1 D2 D3hot D3cold
[    0.364953] pci 0000:00:01.2: PCI bridge to [bus 01]
[    0.364957] pci 0000:00:01.2:   bridge window [mem 0xfc800000-0xfc8fffff]
[    0.365001] pci 0000:02:00.0: [10ec:c822] type 00 class 0x028000
[    0.365029] pci 0000:02:00.0: reg 0x10: [io  0x2000-0x20ff]
[    0.365051] pci 0000:02:00.0: reg 0x18: [mem 0xfc700000-0xfc70ffff 64bit]
[    0.365157] pci 0000:02:00.0: supports D1 D2
[    0.365158] pci 0000:02:00.0: PME# supported from D0 D1 D2 D3hot D3cold
[    0.365283] pci 0000:00:02.2: PCI bridge to [bus 02]
[    0.365285] pci 0000:00:02.2:   bridge window [io  0x2000-0x2fff]
[    0.365287] pci 0000:00:02.2:   bridge window [mem 0xfc700000-0xfc7fffff]
[    0.365572] pci 0000:03:00.0: [1cc4:6202] type 00 class 0x010802
[    0.365598] pci 0000:03:00.0: reg 0x10: [mem 0xfc600000-0xfc603fff 64bit]
[    0.365824] pci 0000:00:02.4: PCI bridge to [bus 03]
[    0.365828] pci 0000:00:02.4:   bridge window [mem 0xfc600000-0xfc6fffff]
[    0.365884] pci 0000:04:00.0: [1002:1636] type 00 class 0x030000
[    0.365900] pci 0000:04:00.0: reg 0x10: [mem 0x460000000-0x46fffffff 64bit pref]
[    0.365907] pci 0000:04:00.0: reg 0x18: [mem 0x470000000-0x4701fffff 64bit pref]
[    0.365911] pci 0000:04:00.0: reg 0x20: [io  0x1000-0x10ff]
[    0.365916] pci 0000:04:00.0: reg 0x24: [mem 0xfc500000-0xfc57ffff]
[    0.365924] pci 0000:04:00.0: enabling Extended Tags
[    0.365930] pci 0000:04:00.0: BAR 0: assigned to efifb
[    0.365966] pci 0000:04:00.0: PME# supported from D1 D2 D3hot D3cold
[    0.366027] pci 0000:04:00.1: [1002:1637] type 00 class 0x040300
[    0.366036] pci 0000:04:00.1: reg 0x10: [mem 0xfc5c8000-0xfc5cbfff]
[    0.366055] pci 0000:04:00.1: enabling Extended Tags
[    0.366081] pci 0000:04:00.1: PME# supported from D1 D2 D3hot D3cold
[    0.366124] pci 0000:04:00.2: [1022:15df] type 00 class 0x108000
[    0.366138] pci 0000:04:00.2: reg 0x18: [mem 0xfc400000-0xfc4fffff]
[    0.366149] pci 0000:04:00.2: reg 0x24: [mem 0xfc5ce000-0xfc5cffff]
[    0.366155] pci 0000:04:00.2: enabling Extended Tags
[    0.366223] pci 0000:04:00.3: [1022:1639] type 00 class 0x0c0330
[    0.366235] pci 0000:04:00.3: reg 0x10: [mem 0xfc100000-0xfc1fffff 64bit]
[    0.366257] pci 0000:04:00.3: enabling Extended Tags
[    0.366285] pci 0000:04:00.3: PME# supported from D0 D3hot D3cold
[    0.366332] pci 0000:04:00.4: [1022:1639] type 00 class 0x0c0330
[    0.366344] pci 0000:04:00.4: reg 0x10: [mem 0xfc200000-0xfc2fffff 64bit]
[    0.366366] pci 0000:04:00.4: enabling Extended Tags
[    0.366394] pci 0000:04:00.4: PME# supported from D0 D3hot D3cold
[    0.366436] pci 0000:04:00.5: [1022:15e2] type 00 class 0x048000
[    0.366446] pci 0000:04:00.5: reg 0x10: [mem 0xfc580000-0xfc5bffff]
[    0.366465] pci 0000:04:00.5: enabling Extended Tags
[    0.366490] pci 0000:04:00.5: PME# supported from D0 D3hot D3cold
[    0.366532] pci 0000:04:00.6: [1022:15e3] type 00 class 0x040300
[    0.366542] pci 0000:04:00.6: reg 0x10: [mem 0xfc5c0000-0xfc5c7fff]
[    0.366561] pci 0000:04:00.6: enabling Extended Tags
[    0.366586] pci 0000:04:00.6: PME# supported from D0 D3hot D3cold
[    0.366632] pci 0000:04:00.7: [1022:15e4] type 00 class 0x118000
[    0.366646] pci 0000:04:00.7: reg 0x18: [mem 0xfc300000-0xfc3fffff]
[    0.366655] pci 0000:04:00.7: reg 0x24: [mem 0xfc5cc000-0xfc5cdfff]
[    0.366661] pci 0000:04:00.7: enabling Extended Tags
[    0.366764] pci 0000:00:08.1: PCI bridge to [bus 04]
[    0.366766] pci 0000:00:08.1:   bridge window [io  0x1000-0x1fff]
[    0.366768] pci 0000:00:08.1:   bridge window [mem 0xfc100000-0xfc5fffff]
[    0.366770] pci 0000:00:08.1:   bridge window [mem 0x460000000-0x4701fffff 64bit pref]
[    0.366803] pci 0000:05:00.0: [1022:7901] type 00 class 0x010601
[    0.366833] pci 0000:05:00.0: reg 0x24: [mem 0xfc001000-0xfc0017ff]
[    0.366840] pci 0000:05:00.0: enabling Extended Tags
[    0.366918] pci 0000:05:00.1: [1022:7901] type 00 class 0x010601
[    0.366940] pci 0000:05:00.1: reg 0x24: [mem 0xfc000000-0xfc0007ff]
[    0.366946] pci 0000:05:00.1: enabling Extended Tags
[    0.367024] pci 0000:00:08.2: PCI bridge to [bus 05]
[    0.367028] pci 0000:00:08.2:   bridge window [mem 0xfc000000-0xfc0fffff]
[    0.367155] ACPI: PCI Interrupt Link [LNKA] (IRQs 3 4 5 7 10 11 12 14 15) *0
[    0.367211] ACPI: PCI Interrupt Link [LNKB] (IRQs 3 4 5 7 10 11 12 14 15) *0
[    0.367250] ACPI: PCI Interrupt Link [LNKC] (IRQs 3 4 5 7 10 11 12 14 15) *0
[    0.367303] ACPI: PCI Interrupt Link [LNKD] (IRQs 3 4 5 7 10 11 12 14 15) *0
[    0.367351] ACPI: PCI Interrupt Link [LNKE] (IRQs 3 4 5 7 10 11 12 14 15) *0
[    0.367387] ACPI: PCI Interrupt Link [LNKF] (IRQs 3 4 5 7 10 11 12 14 15) *0
[    0.367423] ACPI: PCI Interrupt Link [LNKG] (IRQs 3 4 5 7 10 11 12 14 15) *0
[    0.367459] ACPI: PCI Interrupt Link [LNKH] (IRQs 3 4 5 7 10 11 12 14 15) *0
[    0.368484] ACPI: EC: interrupt unblocked
[    0.368484] ACPI: EC: event unblocked
[    0.368490] ACPI: \_SB_.PCI0.LPC0.EC0_: GPE=0x3, IRQ=-1, EC_CMD/EC_SC=0x66, EC_DATA=0x62
[    0.368490] ACPI: \_SB_.PCI0.LPC0.EC0_: Boot DSDT EC used to handle transactions and events
[    0.368546] iommu: Default domain type: Translated 
[    0.368546] SCSI subsystem initialized
[    0.368546] libata version 3.00 loaded.
[    0.368546] pci 0000:04:00.0: vgaarb: VGA device added: decodes=io+mem,owns=none,locks=none
[    0.368546] pci 0000:04:00.0: vgaarb: bridge control possible
[    0.368546] pci 0000:04:00.0: vgaarb: setting as boot device
[    0.368546] vgaarb: loaded
[    0.368546] ACPI: bus type USB registered
[    0.368546] usbcore: registered new interface driver usbfs
[    0.368546] usbcore: registered new interface driver hub
[    0.368546] usbcore: registered new device driver usb
[    0.370596] pps_core: LinuxPPS API ver. 1 registered
[    0.370596] pps_core: Software ver. 5.3.6 - Copyright FAF7-631D Rodolfo Giometti <XXX@XXX>
[    0.370598] PTP clock support registered
[    0.370612] EDAC MC: Ver: 3.0.0
[    0.370612] Registered efivars operations
[    0.370612] PCI: Using ACPI for IRQ routing
[    0.374749] PCI: pci_cache_line_size set to 64 bytes
[    0.374869] e820: reserve RAM buffer [mem 0x0009f000-0x0009ffff]
[    0.374869] e820: reserve RAM buffer [mem 0x09c00000-0x0bffffff]
[    0.374870] e820: reserve RAM buffer [mem 0x09f00000-0x0bffffff]
[    0.374870] e820: reserve RAM buffer [mem 0xc10ec018-0xc3ffffff]
[    0.374871] e820: reserve RAM buffer [mem 0xc440f000-0xc7ffffff]
[    0.374871] e820: reserve RAM buffer [mem 0xc7a92000-0xc7ffffff]
[    0.374872] e820: reserve RAM buffer [mem 0xce800000-0xcfffffff]
[    0.374872] e820: reserve RAM buffer [mem 0x40f340000-0x40fffffff]
[    0.374944] NetLabel: Initializing
[    0.374944] NetLabel:  domain hash size = 128
[    0.374944] NetLabel:  protocols = UNLABELED CIPSOv4 CALIPSO
[    0.374955] NetLabel:  unlabeled traffic allowed by default
[    0.374963] hpet0: at MMIO 0xfed00000, IRQs 2, 8, 0
[    0.374963] hpet0: 3 comparators, 32-bit 14.318180 MHz counter
[    0.378443] clocksource: Switched to clocksource hpet
[    0.385966] *** VALIDATE bpf ***
[    0.386040] VFS: Disk quotas dquot_6.6.0
[    0.386070] VFS: Dquot-cache hash table entries: 512 (order 0, 4096 bytes)
[    0.386105] *** VALIDATE ramfs ***
[    0.386111] *** VALIDATE hugetlbfs ***
[    0.386236] AppArmor: AppArmor Filesystem Enabled
[    0.386279] pnp: PnP ACPI init
[    0.386568] system 00:00: [io  0x0f50-0x0f51] has been reserved
[    0.386571] system 00:00: [mem 0xfec00000-0xfec01fff] could not be reserved
[    0.386573] system 00:00: [mem 0xfee00000-0xfee00fff] has been reserved
[    0.386575] system 00:00: [mem 0xf8000000-0xfbffffff] has been reserved
[    0.386581] system 00:00: Plug and Play ACPI device, IDs PNP0c02 (active)
[    0.386768] pnp 00:01: Plug and Play ACPI device, IDs PNP0b00 (active)
[    0.386802] system 00:02: [io  0x04d0-0x04d1] has been reserved
[    0.386802] system 00:02: [io  0x0530-0x0537] has been reserved
[    0.386803] system 00:02: [io  0x0400-0x0427] has been reserved
[    0.386804] system 00:02: [io  0x0430] has been reserved
[    0.386804] system 00:02: [io  0x0440-0x0447] has been reserved
[    0.386805] system 00:02: [io  0x0b00-0x0b1f] has been reserved
[    0.386806] system 00:02: [io  0x0b20-0x0b3f] has been reserved
[    0.386806] system 00:02: [io  0x0c00-0x0c01] has been reserved
[    0.386807] system 00:02: [io  0x0c14] has been reserved
[    0.386808] system 00:02: [io  0x0c50-0x0c52] has been reserved
[    0.386808] system 00:02: [io  0x0cd0-0x0cd1] has been reserved
[    0.386809] system 00:02: [io  0x0cd2-0x0cd3] has been reserved
[    0.386810] system 00:02: [io  0x0cd4-0x0cd5] has been reserved
[    0.386810] system 00:02: [io  0x0cd6-0x0cd7] has been reserved
[    0.386811] system 00:02: [io  0x0cd8-0x0cdf] has been reserved
[    0.386813] system 00:02: [io  0x0cf9] could not be reserved
[    0.386814] system 00:02: [io  0x8100-0x81ff window] has been reserved
[    0.386814] system 00:02: [io  0x8200-0x82ff window] has been reserved
[    0.386816] system 00:02: Plug and Play ACPI device, IDs PNP0c02 (active)
[    0.386870] system 00:03: [mem 0x000e0000-0x000fffff] could not be reserved
[    0.386871] system 00:03: [mem 0xff000000-0xffffffff] has been reserved
[    0.386871] system 00:03: [mem 0xfec10000-0xfec1001f] has been reserved
[    0.386872] system 00:03: [mem 0xfed00000-0xfed003ff] has been reserved
[    0.386873] system 00:03: [mem 0xfed61000-0xfed613ff] has been reserved
[    0.386874] system 00:03: [mem 0xfed80000-0xfed80fff] has been reserved
[    0.386875] system 00:03: Plug and Play ACPI device, IDs PNP0c01 (active)
[    0.386992] pnp 00:04: Plug and Play ACPI device, IDs PNP0303 (active)
[    0.387365] pnp: PnP ACPI: found 5 devices
[    0.391019] thermal_sys: Registered thermal governor 'fair_share'
[    0.391020] thermal_sys: Registered thermal governor 'bang_bang'
[    0.391021] thermal_sys: Registered thermal governor 'step_wise'
[    0.391021] thermal_sys: Registered thermal governor 'user_space'
[    0.391021] thermal_sys: Registered thermal governor 'power_allocator'
[    0.395576] clocksource: acpi_pm: mask: 0xffffff max_cycles: 0xffffff, max_idle_ns: 2085701024 ns
[    0.395641] pci 0000:00:01.2: PCI bridge to [bus 01]
[    0.395647] pci 0000:00:01.2:   bridge window [mem 0xfc800000-0xfc8fffff]
[    0.395654] pci 0000:00:02.2: PCI bridge to [bus 02]
[    0.395657] pci 0000:00:02.2:   bridge window [io  0x2000-0x2fff]
[    0.395661] pci 0000:00:02.2:   bridge window [mem 0xfc700000-0xfc7fffff]
[    0.395667] pci 0000:00:02.4: PCI bridge to [bus 03]
[    0.395671] pci 0000:00:02.4:   bridge window [mem 0xfc600000-0xfc6fffff]
[    0.395679] pci 0000:00:08.1: PCI bridge to [bus 04]
[    0.395681] pci 0000:00:08.1:   bridge window [io  0x1000-0x1fff]
[    0.395684] pci 0000:00:08.1:   bridge window [mem 0xfc100000-0xfc5fffff]
[    0.395688] pci 0000:00:08.1:   bridge window [mem 0x460000000-0x4701fffff 64bit pref]
[    0.395692] pci 0000:00:08.2: PCI bridge to [bus 05]
[    0.395696] pci 0000:00:08.2:   bridge window [mem 0xfc000000-0xfc0fffff]
[    0.395704] pci_bus 0000:00: resource 4 [mem 0x000a0000-0x000bffff window]
[    0.395706] pci_bus 0000:00: resource 5 [mem 0x000c0000-0x000c1fff window]
[    0.395707] pci_bus 0000:00: resource 6 [mem 0x000c2000-0x000c3fff window]
[    0.395709] pci_bus 0000:00: resource 7 [mem 0x000c4000-0x000c5fff window]
[    0.395711] pci_bus 0000:00: resource 8 [mem 0x000c6000-0x000c7fff window]
[    0.395712] pci_bus 0000:00: resource 9 [mem 0x000c8000-0x000c9fff window]
[    0.395714] pci_bus 0000:00: resource 10 [mem 0x000ca000-0x000cbfff window]
[    0.395716] pci_bus 0000:00: resource 11 [mem 0x000cc000-0x000cdfff window]
[    0.395717] pci_bus 0000:00: resource 12 [mem 0x000ce000-0x000cffff window]
[    0.395719] pci_bus 0000:00: resource 13 [mem 0x000d0000-0x000d1fff window]
[    0.395721] pci_bus 0000:00: resource 14 [mem 0x000d2000-0x000d3fff window]
[    0.395722] pci_bus 0000:00: resource 15 [mem 0x000d4000-0x000d5fff window]
[    0.395724] pci_bus 0000:00: resource 16 [mem 0x000d6000-0x000d7fff window]
[    0.395726] pci_bus 0000:00: resource 17 [mem 0x000d8000-0x000d9fff window]
[    0.395727] pci_bus 0000:00: resource 18 [mem 0x000da000-0x000dbfff window]
[    0.395729] pci_bus 0000:00: resource 19 [mem 0x000dc000-0x000ddfff window]
[    0.395731] pci_bus 0000:00: resource 20 [mem 0x000de000-0x000dffff window]
[    0.395732] pci_bus 0000:00: resource 21 [mem 0x000e0000-0x000e1fff window]
[    0.395734] pci_bus 0000:00: resource 22 [mem 0x000e2000-0x000e3fff window]
[    0.395736] pci_bus 0000:00: resource 23 [mem 0x000e4000-0x000e5fff window]
[    0.395737] pci_bus 0000:00: resource 24 [mem 0x000e6000-0x000e7fff window]
[    0.395739] pci_bus 0000:00: resource 25 [mem 0x000e8000-0x000e9fff window]
[    0.395741] pci_bus 0000:00: resource 26 [mem 0x000ea000-0x000ebfff window]
[    0.395742] pci_bus 0000:00: resource 27 [mem 0x000ec000-0x000edfff window]
[    0.395744] pci_bus 0000:00: resource 28 [mem 0x000ee000-0x000effff window]
[    0.395746] pci_bus 0000:00: resource 29 [mem 0xd0000000-0xf7ffffff window]
[    0.395747] pci_bus 0000:00: resource 30 [mem 0xfc000000-0xfdffffff window]
[    0.395749] pci_bus 0000:00: resource 31 [mem 0x430000000-0xffffffffff window]
[    0.395751] pci_bus 0000:00: resource 32 [io  0x0000-0x0cf7 window]
[    0.395753] pci_bus 0000:00: resource 33 [io  0x0d00-0xffff window]
[    0.395755] pci_bus 0000:01: resource 1 [mem 0xfc800000-0xfc8fffff]
[    0.395757] pci_bus 0000:02: resource 0 [io  0x2000-0x2fff]
[    0.395758] pci_bus 0000:02: resource 1 [mem 0xfc700000-0xfc7fffff]
[    0.395760] pci_bus 0000:03: resource 1 [mem 0xfc600000-0xfc6fffff]
[    0.395762] pci_bus 0000:04: resource 0 [io  0x1000-0x1fff]
[    0.395763] pci_bus 0000:04: resource 1 [mem 0xfc100000-0xfc5fffff]
[    0.395765] pci_bus 0000:04: resource 2 [mem 0x460000000-0x4701fffff 64bit pref]
[    0.395767] pci_bus 0000:05: resource 1 [mem 0xfc000000-0xfc0fffff]
[    0.395933] NET: Registered protocol family 2
[    0.396424] tcp_listen_portaddr_hash hash table entries: 8192 (order: 5, 131072 bytes, linear)
[    0.396555] TCP established hash table entries: 131072 (order: 8, 1048576 bytes, linear)
[    0.396937] TCP bind hash table entries: 65536 (order: 8, 1048576 bytes, linear)
[    0.397126] TCP: Hash tables configured (established 131072 bind 65536)
[    0.397207] UDP hash table entries: 8192 (order: 6, 262144 bytes, linear)
[    0.397285] UDP-Lite hash table entries: 8192 (order: 6, 262144 bytes, linear)
[    0.397408] NET: Registered protocol family 1
[    0.397415] NET: Registered protocol family 44
[    0.397527] pci 0000:04:00.1: D0 power state depends on 0000:04:00.0
[    0.397855] PCI: CLS 32 bytes, default 64
[    0.397896] Trying to unpack rootfs image as initramfs...
[    0.540890] Freeing initrd memory: 83860K
[    0.540948] pci 0000:00:00.2: AMD-Vi: Unable to read/write to IOMMU perf counter.
[    0.540959] fbcon: Taking over console
[    0.541105] pci 0000:00:00.2: can't derive routing for PCI INT A
[    0.541106] pci 0000:00:00.2: PCI INT A: not connected
[    0.541323] pci 0000:00:01.0: Adding to iommu group 0
[    0.541401] pci 0000:00:01.2: Adding to iommu group 1
[    0.541508] pci 0000:00:02.0: Adding to iommu group 2
[    0.541582] pci 0000:00:02.2: Adding to iommu group 3
[    0.541688] pci 0000:00:02.4: Adding to iommu group 4
[    0.541793] pci 0000:00:08.0: Adding to iommu group 5
[    0.541808] pci 0000:00:08.1: Adding to iommu group 5
[    0.541822] pci 0000:00:08.2: Adding to iommu group 5
[    0.541892] pci 0000:00:14.0: Adding to iommu group 6
[    0.541903] pci 0000:00:14.3: Adding to iommu group 6
[    0.542017] pci 0000:00:18.0: Adding to iommu group 7
[    0.542028] pci 0000:00:18.1: Adding to iommu group 7
[    0.542039] pci 0000:00:18.2: Adding to iommu group 7
[    0.542049] pci 0000:00:18.3: Adding to iommu group 7
[    0.542060] pci 0000:00:18.4: Adding to iommu group 7
[    0.542071] pci 0000:00:18.5: Adding to iommu group 7
[    0.542082] pci 0000:00:18.6: Adding to iommu group 7
[    0.542093] pci 0000:00:18.7: Adding to iommu group 7
[    0.542182] pci 0000:01:00.0: Adding to iommu group 8
[    0.542290] pci 0000:02:00.0: Adding to iommu group 9
[    0.542611] pci 0000:03:00.0: Adding to iommu group 10
[    0.542636] pci 0000:04:00.0: Adding to iommu group 5
[    0.542648] pci 0000:04:00.1: Adding to iommu group 5
[    0.542659] pci 0000:04:00.2: Adding to iommu group 5
[    0.542670] pci 0000:04:00.3: Adding to iommu group 5
[    0.542682] pci 0000:04:00.4: Adding to iommu group 5
[    0.542693] pci 0000:04:00.5: Adding to iommu group 5
[    0.542704] pci 0000:04:00.6: Adding to iommu group 5
[    0.542715] pci 0000:04:00.7: Adding to iommu group 5
[    0.542729] pci 0000:05:00.0: Adding to iommu group 5
[    0.542740] pci 0000:05:00.1: Adding to iommu group 5
[    0.542990] pci 0000:00:00.2: AMD-Vi: Found IOMMU cap 0x40
[    0.542991] pci 0000:00:00.2: AMD-Vi: Extended features (0x206d73ef22254ade):
[    0.542991]  PPR X2APIC NX GT IA GA PC GA_vAPIC
[    0.542993] AMD-Vi: Interrupt remapping enabled
[    0.542993] AMD-Vi: Virtual APIC enabled
[    0.542993] AMD-Vi: X2APIC enabled
[    0.543137] AMD-Vi: Lazy IO/TLB flushing enabled
[    0.543819] amd_uncore: AMD NB counters detected
[    0.543822] amd_uncore: AMD LLC counters detected
[    0.544242] LVT offset 0 assigned for vector 0x400
[    0.544453] perf: AMD IBS detected (0x000003ff)
[    0.544491] check: Scanning for low memory corruption every 60 seconds
[    0.544949] Initialise system trusted keyrings
[    0.544962] Key type blacklist registered
[    0.545026] workingset: timestamp_bits=36 max_order=22 bucket_order=0
[    0.545747] zbud: loaded
[    0.545962] squashfs: version 4.0 (2009/01/31) Phillip Lougher
[    0.546158] fuse: init (API version 7.31)
[    0.546173] *** VALIDATE fuse ***
[    0.546175] *** VALIDATE fuse ***
[    0.546490] Platform Keyring initialized
[    0.547456] Key type asymmetric registered
[    0.547457] Asymmetric key parser 'x509' registered
[    0.547464] Block layer SCSI generic (bsg) driver version 0.4 loaded (major 244)
[    0.547527] io scheduler mq-deadline registered
[    0.548311] pcieport 0000:00:01.2: PME: Signaling with IRQ 26
[    0.548404] pcieport 0000:00:02.2: PME: Signaling with IRQ 27
[    0.548486] pcieport 0000:00:02.4: PME: Signaling with IRQ 28
[    0.548566] pcieport 0000:00:08.1: PME: Signaling with IRQ 29
[    0.548743] pcieport 0000:00:08.2: PME: Signaling with IRQ 30
[    0.548787] shpchp: Standard Hot Plug PCI Controller Driver version: 0.4
[    0.548821] efifb: probing for efifb
[    0.548867] efifb: showing boot graphics
[    0.550216] efifb: framebuffer at 0x460000000, using 8100k, total 8100k
[    0.550217] efifb: mode is 1920x1080x32, linelength=7680, pages=1
[    0.550218] efifb: scrolling: redraw
[    0.550218] efifb: Truecolor: size=8:8:8:8, shift=24:16:8:0
[    0.550315] Console: switching to colour frame buffer device 240x67
[    0.553110] fb0: EFI VGA frame buffer device
[    0.555130] ACPI: AC Adapter [ADP1] (off-line)
[    0.555162] input: Power Button as /devices/LNXSYSTM:00/LNXSYBUS:00/PNP0C0C:00/input/input0
[    0.555172] ACPI: Power Button [PWRB]
[    0.555196] input: Lid Switch as /devices/LNXSYSTM:00/LNXSYBUS:00/PNP0C0D:00/input/input1
[    0.555222] ACPI: Lid Switch [LID0]
[    0.555236] input: Sleep Button as /devices/LNXSYSTM:00/LNXSYBUS:00/PNP0C0E:00/input/input2
[    0.555250] ACPI: Sleep Button [SLPB]
[    0.555264] input: Power Button as /devices/LNXSYSTM:00/LNXPWRBN:00/input/input3
[    0.555277] ACPI: Power Button [PWRF]
[    0.555337] Monitor-Mwait will be used to enter C-1 state
[    0.557153] thermal LNXTHERM:00: registered as thermal_zone0
[    0.557154] ACPI: Thermal Zone [TZS0] (43 C)
[    0.557333] thermal LNXTHERM:01: registered as thermal_zone1
[    0.557334] ACPI: Thermal Zone [TZS1] (29 C)
[    0.557526] Serial: 8250/16550 driver, 32 ports, IRQ sharing enabled
[    0.558742] battery: ACPI: Battery Slot [BAT0] (battery present)
[    0.558852] Linux agpgart interface v0.103
[    0.568330] loop: module loaded
[    0.568505] libphy: Fixed MDIO Bus: probed
[    0.568506] tun: Universal TUN/TAP device driver, 1.6
[    0.568529] PPP generic driver version 2.4.2
[    0.568573] VFIO - User Level meta-driver version: 0.3
[    0.568635] ehci_hcd: USB 2.0 'Enhanced' Host Controller (EHCI) Driver
[    0.568637] ehci-pci: EHCI PCI platform driver
[    0.568645] ehci-platform: EHCI generic platform driver
[    0.568659] ohci_hcd: USB 1.1 'Open' Host Controller (OHCI) Driver
[    0.568659] ohci-pci: OHCI PCI platform driver
[    0.568663] ohci-platform: OHCI generic platform driver
[    0.568670] uhci_hcd: USB Universal Host Controller Interface driver
[    0.568791] xhci_hcd 0000:04:00.3: xHCI Host Controller
[    0.568795] xhci_hcd 0000:04:00.3: new USB bus registered, assigned bus number 1
[    0.568888] xhci_hcd 0000:04:00.3: hcc params 0x0268ffe5 hci version 0x110 quirks 0x0000000000000410
[    0.569156] usb usb1: New USB device found, idVendor=1d6b, idProduct=0002, bcdDevice= 5.04
[    0.569158] usb usb1: New USB device strings: Mfr=3, Product=2, SerialNumber=...
[    0.569159] usb usb1: Product: xHCI Host Controller
[    0.569160] usb usb1: Manufacturer: Linux 5.4.0-66-generic xhci-hcd
[    0.569161] usb usb1: SerialNumber: ...
[    0.569249] hub 1-0:1.0: USB hub found
[    0.569255] hub 1-0:1.0: 4 ports detected
[    0.569578] xhci_hcd 0000:04:00.3: xHCI Host Controller
[    0.569580] xhci_hcd 0000:04:00.3: new USB bus registered, assigned bus number 2
[    0.569582] xhci_hcd 0000:04:00.3: Host supports USB 3.1 Enhanced SuperSpeed
[    0.569591] usb usb2: We don't know the algorithms for LPM for this host, disabling LPM.
[    0.569602] usb usb2: New USB device found, idVendor=1d6b, idProduct=0003, bcdDevice= 5.04
[    0.569603] usb usb2: New USB device strings: Mfr=3, Product=2, SerialNumber=...
[    0.569603] usb usb2: Product: xHCI Host Controller
[    0.569604] usb usb2: Manufacturer: Linux 5.4.0-66-generic xhci-hcd
[    0.569605] usb usb2: SerialNumber: ...
[    0.569678] hub 2-0:1.0: USB hub found
[    0.569682] hub 2-0:1.0: 2 ports detected
[    0.569940] xhci_hcd 0000:04:00.4: xHCI Host Controller
[    0.569942] xhci_hcd 0000:04:00.4: new USB bus registered, assigned bus number 3
[    0.570034] xhci_hcd 0000:04:00.4: hcc params 0x0268ffe5 hci version 0x110 quirks 0x0000000000000410
[    0.570279] usb usb3: New USB device found, idVendor=1d6b, idProduct=0002, bcdDevice= 5.04
[    0.570280] usb usb3: New USB device strings: Mfr=3, Product=2, SerialNumber=...
[    0.570280] usb usb3: Product: xHCI Host Controller
[    0.570281] usb usb3: Manufacturer: Linux 5.4.0-66-generic xhci-hcd
[    0.570281] usb usb3: SerialNumber: ...
[    0.571207] hub 3-0:1.0: USB hub found
[    0.571212] hub 3-0:1.0: 4 ports detected
[    0.572568] xhci_hcd 0000:04:00.4: xHCI Host Controller
[    0.572570] xhci_hcd 0000:04:00.4: new USB bus registered, assigned bus number 4
[    0.572572] xhci_hcd 0000:04:00.4: Host supports USB 3.1 Enhanced SuperSpeed
[    0.572582] usb usb4: We don't know the algorithms for LPM for this host, disabling LPM.
[    0.572593] usb usb4: New USB device found, idVendor=1d6b, idProduct=0003, bcdDevice= 5.04
[    0.572594] usb usb4: New USB device strings: Mfr=3, Product=2, SerialNumber=...
[    0.572594] usb usb4: Product: xHCI Host Controller
[    0.572595] usb usb4: Manufacturer: Linux 5.4.0-66-generic xhci-hcd
[    0.572596] usb usb4: SerialNumber: ...
[    0.572647] hub 4-0:1.0: USB hub found
[    0.572651] hub 4-0:1.0: 2 ports detected
[    0.572857] i8042: PNP: PS/2 Controller [PNP0303:KBD0] at 0x60,0x64 irq 1
[    0.572857] i8042: PNP: PS/2 appears to have AUX port disabled, if this is incorrect please boot with i8042.nopnp
[    0.573420] serio: i8042 KBD port at 0x60,0x64 irq 1
[    0.573480] mousedev: PS/2 mouse device common for all mice
[    0.573605] rtc_cmos 00:01: RTC can wake from S4
[    0.573756] rtc_cmos 00:01: registered as rtc0
[    0.573764] rtc_cmos 00:01: alarms up to one month, y3k, 114 bytes nvram, hpet irqs
[    0.573766] i2c /dev entries driver
[    0.573831] device-mapper: uevent: version 1.0.3
[    0.573871] device-mapper: ioctl: 4.41.0-ioctl (2019-09-16) initialised: XXX@XXX
[    0.573880] platform eisa.0: Probing EISA bus 0
[    0.573881] platform eisa.0: EISA: Cannot allocate resource for mainboard
[    0.573882] platform eisa.0: Cannot allocate resource for EISA slot 1
[    0.573883] platform eisa.0: Cannot allocate resource for EISA slot 2
[    0.573883] platform eisa.0: Cannot allocate resource for EISA slot 3
[    0.573884] platform eisa.0: Cannot allocate resource for EISA slot 4
[    0.573884] platform eisa.0: Cannot allocate resource for EISA slot 5
[    0.573885] platform eisa.0: Cannot allocate resource for EISA slot 6
[    0.573885] platform eisa.0: Cannot allocate resource for EISA slot 7
[    0.573886] platform eisa.0: Cannot allocate resource for EISA slot 8
[    0.573886] platform eisa.0: EISA: Detected 0 cards
[    0.574077] ledtrig-cpu: registered to indicate activity on CPUs
[    0.574079] EFI Variables Facility v0.08 2004-May-17
[    0.584665] drop_monitor: Initializing network drop monitor service
[    0.584779] NET: Registered protocol family 10
[    0.588379] Segment Routing with IPv6
[    0.588413] NET: Registered protocol family 17
[    0.588489] Key type dns_resolver registered
[    0.589066] RAS: Correctable Errors collector initialized.
[    0.589097] microcode: CPU0: patch_level=0x08600104
[    0.589106] microcode: CPU1: patch_level=0x08600104
[    0.589130] microcode: CPU2: patch_level=0x08600104
[    0.589133] microcode: CPU3: patch_level=0x08600104
[    0.589140] microcode: CPU4: patch_level=0x08600104
[    0.589147] microcode: CPU5: patch_level=0x08600104
[    0.589168] microcode: Microcode Update Driver: v2.2.
[    0.589281] *** VALIDATE rdt ***
[    0.589285] resctrl: L3 allocation detected
[    0.589285] resctrl: L3DATA allocation detected
[    0.589285] resctrl: L3CODE allocation detected
[    0.589285] resctrl: MB allocation detected
[    0.589286] resctrl: L3 monitoring detected
[    0.589290] IPI shorthand broadcast: enabled
[    0.589326] registered taskstats version 1
[    0.589336] Loading compiled-in X.509 certificates
[    0.589826] Loaded X.509 cert 'Build time autogenerated kernel key: 81132838e0e3e1d866d3b1e53413495f1f405951'
[    0.589849] zswap: loaded using pool lzo/zbud
[    0.589973] Key type ._fscrypt registered
[    0.589973] Key type .fscrypt registered
[    0.593369] Key type big_key registered
[    0.593373] Key type trusted registered
[    0.594689] Key type encrypted registered
[    0.594691] AppArmor: AppArmor sha1 policy hashing enabled
[    0.595033] input: AT Translated Set 2 keyboard as /devices/platform/i8042/serio0/input/input4
[    0.595155] integrity: Loading X.509 certificate: UEFI:MokListRT
[    0.595179] integrity: Loaded X.509 cert 'SomeOrg: shim: a01ee84e9b37ace407961cc468c5909447878469'
[    0.595179] integrity: Loading X.509 certificate: UEFI:MokListRT
[    0.595365] integrity: Loaded X.509 cert 'Canonical Ltd. Master Certificate Authority: ad91990bc22ab1f517048c23b6655a268e345a63'
[    0.595481] ima: Allocated hash algorithm: sha1
[    0.605651] ima: No architecture policies found
[    0.605670] evm: Initialising EVM extended attributes:
[    0.605670] evm: security.selinux
[    0.605671] evm: security.SMACK64
[    0.605672] evm: security.SMACK64EXEC
[    0.605672] evm: security.SMACK64TRANSMUTE
[    0.605673] evm: security.SMACK64MMAP
[    0.605673] evm: security.apparmor
[    0.605674] evm: security.ima
[    0.605675] evm: security.capability
[    0.605676] evm: HMAC attrs: 0x1
[    0.606456] PM:   Magic number: 13:744:202
[    0.606536] acpi device:2a: hash matches
[    0.606650] rtc_cmos 00:01: setting system clock to 2021-03-08T00:13:52 UTC (1615162432)
[    0.607158] acpi_cpufreq: overriding BIOS provided _PSD data
[    0.607705] Unstable clock detected, switching default tracing clock to "global"
               If you want to keep using the local clock, then add:
                 "trace_clock=local"
               on the kernel command line
[    0.609218] Freeing unused decrypted memory: 2040K
[    0.609533] Freeing unused kernel image memory: 2732K
[    0.626390] Write protecting the kernel read-only data: 22528k
[    0.627284] Freeing unused kernel image memory: 2008K
[    0.627623] Freeing unused kernel image memory: 1180K
[    0.635642] x86/mm: Checked W+X mappings: passed, no W+X pages found.
[    0.635647] Run /init as init process
[    0.683384] hid: hid_debug is now used solely for parser and driver debugging.
               debugfs is now used for inspecting the device (report descriptor, reports)
[    0.683396] hidraw: raw HID events driver (C) Jiri Kosina
[    0.684186] drivers/hid/i2c-hid/i2c-hid-core.c: HID probe called for i2c 0x0a
[    0.684223] i2c_hid i2c-WACF2200:00: i2c-WACF2200:00 supply vdd not found, using dummy regulator
[    0.684233] i2c_hid i2c-WACF2200:00: i2c-WACF2200:00 supply vddl not found, using dummy regulator
[    0.685024] ACPI: Video Device [VGA1] (multi-head: yes  rom: no  post: no)
[    0.685275] acpi device:11: registered as cooling_device6
[    0.685303] input: Video Bus as /devices/LNXSYSTM:00/LNXSYBUS:00/PNP0A08:00/device:10/LNXVIDEO:01/input/input5
[    0.685519] i2c_hid i2c-WACF2200:00: Fetching the HID descriptor
[    0.685521] i2c_hid i2c-WACF2200:00: __i2c_hid_command: cmd=01 00
[    0.686824] i2c_hid i2c-WACF2200:00: HID Descriptor: 1e 00 00 01 fe 03 02 00 03 00 3d 00 00 00 00 00 04 00 05 00 6a 05 18 52 02 00 00 00 00 00
[    0.688158] i2c_hid i2c-WACF2200:00: entering i2c_hid_parse
[    0.688159] i2c_hid i2c-WACF2200:00: i2c_hid_hwreset
[    0.688160] i2c_hid i2c-WACF2200:00: i2c_hid_set_power
[    0.688161] i2c_hid i2c-WACF2200:00: __i2c_hid_command: cmd=04 00 00 08
[    0.691412] acpi PNP0C14:01: duplicate WMI GUID HASH_C8C-A130-5B0D-47F9-144532618AEF (first instance was on PNP0C14:00)
[    0.691459] acpi PNP0C14:02: duplicate WMI GUID HASH_C8C-A130-5B0D-47F9-144532618AEF (first instance was on PNP0C14:00)
[    0.692741] rtsx_pci 0000:01:00.0: enabling device (0000 -> 0002)
[    0.694761] piix4_smbus 0000:00:14.0: SMBus Host Controller at 0xb00, revision 0
[    0.694762] piix4_smbus 0000:00:14.0: Using register 0x02 for SMBus port selection
[    0.694877] piix4_smbus 0000:00:14.0: Auxiliary SMBus Host Controller at 0xb20
[    0.696255] ahci 0000:05:00.0: version 3.0
[    0.697066] nvme nvme0: pci function 0000:03:00.0
[    0.703731] AMD-Vi: AMD IOMMUv2 driver by Joerg Roedel <XXX@XXX>
[    0.703755] cryptd: max_cpu_qlen set to 1000
[    0.754319] i2c_hid i2c-WACF2200:00: resetting...
[    0.754323] i2c_hid i2c-WACF2200:00: __i2c_hid_command: cmd=04 00 00 01
[    0.754507] AVX2 version of gcm_enc/dec engaged.
[    0.754509] AES CTR mode by8 optimization enabled
[    0.754620] i2c_hid i2c-WACF2200:00: __i2c_hid_command: waiting...
[    0.756836] i2c_hid i2c-WACF2200:00: __i2c_hid_command: finished.
[    0.756839] i2c_hid i2c-WACF2200:00: i2c_hid_set_power
[    0.756841] i2c_hid i2c-WACF2200:00: __i2c_hid_command: cmd=04 00 00 08
[    0.762974] [drm] amdgpu kernel modesetting enabled.
[    0.763050] Parsing CRAT table with 0 nodes
[    0.763052] Virtual CRAT table created for CPU
[    0.763052] Parsing CRAT table with 1 nodes
[    0.763053] Creating topology SYSFS entries
[    0.763059] Topology: Add CPU node
[    0.763060] Finished initializing topology
[    0.763122] [drm] This hardware requires experimental hardware support.
               See modparam exp_hw_support
[    0.822407] i2c_hid i2c-WACF2200:00: asking HID report descriptor
[    0.822411] i2c_hid i2c-WACF2200:00: __i2c_hid_command: cmd=02 00
[    0.858643] i2c_hid i2c-WACF2200:00: Report Descriptor: 05 0d 09 04 a1 01 85 0c 95 01 75 08 26 ff 00 15 00 81 03 09 54 81 02 05 0d 09 22 a1 02 09 42 15 00 25 01 75 01 95 01 81 02 81 03 09 47 81 02 95 05 81 03 75 10 09 51 95 01 81 02 05 01 75 10 95
[    0.860017] drivers/hid/i2c-hid/i2c-hid-core.c: HID probe called for i2c 0x15
[    0.860228] i2c_hid i2c-MSFT0001:00: i2c-MSFT0001:00 supply vdd not found, using dummy regulator
[    0.860260] i2c_hid i2c-MSFT0001:00: i2c-MSFT0001:00 supply vddl not found, using dummy regulator
[    0.901762] input: WACF2200:00 056A:5218 Touchscreen as /devices/platform/AMDI0010:00/i2c-0/i2c-WACF2200:00/0018:056A:5218.0001/input/input6
[    0.901884] input: WACF2200:00 056A:5218 as /devices/platform/AMDI0010:00/i2c-0/i2c-WACF2200:00/0018:056A:5218.0001/input/input7
[    0.901923] input: WACF2200:00 056A:5218 as /devices/platform/AMDI0010:00/i2c-0/i2c-WACF2200:00/0018:056A:5218.0001/input/input8
[    0.901984] input: WACF2200:00 056A:5218 as /devices/platform/AMDI0010:00/i2c-0/i2c-WACF2200:00/0018:056A:5218.0001/input/input9
[    0.902046] input: WACF2200:00 056A:5218 Mouse as /devices/platform/AMDI0010:00/i2c-0/i2c-WACF2200:00/0018:056A:5218.0001/input/input10
[    0.902139] hid-generic 0018:056A:5218.0001: input,hidraw0: I2C HID v1.00 Mouse [WACF2200:00 056A:5218] on i2c-WACF2200:00
[    0.903609] usbcore: registered new interface driver usbhid
[    0.903611] usbhid: USB HID core driver
[    0.906183] usb 1-4: new high-speed USB device number 2 using xhci_hcd
[    0.914219] usb 3-3: new full-speed USB device number 2 using xhci_hcd
[    0.917525] nvme nvme0: 15/0/0 default/read/poll queues
[    0.919955]  nvme0n1: p1 p2
[    1.067115] usb 1-4: New USB device found, idVendor=5986, idProduct=212a, bcdDevice=56.14
[    1.067120] usb 1-4: New USB device strings: Mfr=1, Product=2, SerialNumber=...
[    1.067122] usb 1-4: Product: Integrated Camera
[    1.067124] usb 1-4: Manufacturer: SunplusIT Inc
[    1.081695] usb 3-3: New USB device found, idVendor=06cb, idProduct=00be, bcdDevice= 0.00
[    1.081700] usb 3-3: New USB device strings: Mfr=0, Product=0, SerialNumber=...
[    1.081702] usb 3-3: SerialNumber: ...
[    1.099398] i2c_hid i2c-WACF2200:00: i2c_hid_get_report
[    1.099402] i2c_hid i2c-WACF2200:00: __i2c_hid_command: cmd=04 00 3c 02 05 00
[    1.100233] input: Wacom HID 5218 Pen as /devices/platform/AMDI0010:00/i2c-0/i2c-WACF2200:00/0018:056A:5218.0001/input/input11
[    1.100332] input: Wacom HID 5218 Finger as /devices/platform/AMDI0010:00/i2c-0/i2c-WACF2200:00/0018:056A:5218.0001/input/input12
[    1.100431] wacom 0018:056A:5218.0001: hidraw0: I2C HID v1.00 Mouse [WACF2200:00 056A:5218] on i2c-WACF2200:00
[    1.214385] usb 3-4: new full-speed USB device number 3 using xhci_hcd
[    1.381899] usb 3-4: New USB device found, idVendor=0bda, idProduct=c123, bcdDevice= 0.00
[    1.381903] usb 3-4: New USB device strings: Mfr=1, Product=2, SerialNumber=...
[    1.381906] usb 3-4: Product: Bluetooth Radio
[    1.381908] usb 3-4: Manufacturer: Realtek
[    1.381909] usb 3-4: SerialNumber: ...
[    1.698837] ahci 0000:05:00.0: failed stop FIS RX (-16)
[    1.698863] ahci 0000:05:00.0: AHCI 0001.0301 32 slots 1 ports 6 Gbps 0x1 impl SATA mode
[    1.698867] ahci 0000:05:00.0: flags: 64bit ncq sntf ilck pm led clo only pmp fbs pio slum part 
[    1.699572] scsi host0: ahci
[    1.699778] ata1: SATA max UDMA/133 abar m2048@0xfc001000 port 0xfc001100 irq 51
[    1.699843] ahci 0000:05:00.1: enabling device (0000 -> 0002)
[    1.700205] ahci 0000:05:00.1: AHCI 0001.0301 32 slots 1 ports 6 Gbps 0x1 impl SATA mode
[    1.700209] ahci 0000:05:00.1: flags: 64bit ncq sntf ilck pm led clo only pmp fbs pio slum part 
[    1.700745] scsi host1: ahci
[    1.700904] ata2: SATA max UDMA/133 abar m2048@0xfc000000 port 0xfc000100 irq 71
[    2.012060] ata1: SATA link down (SStatus 0 SControl 300)
[    2.012070] ata2: SATA link down (SStatus 0 SControl 300)
[    2.106402] i2c_hid i2c-WACF2200:00: i2c_hid_set_or_send_report
[    2.106407] i2c_hid i2c-WACF2200:00: __i2c_hid_command: cmd=04 00 3b 03 05 00 42 00 0b 00 00 00 00 00 00 00 00 00 00 00 00 00 00 00 00 00 00 00 00 00 00 00 00 00 00 00 00 00 00 00 00 00 00 00 00 00 00 00 00 00 00 00 00 00 00 00 00 00 00 00 00 00 00 00
[    2.109313] i2c_hid i2c-WACF2200:00: i2c_hid_get_report
[    2.109317] i2c_hid i2c-WACF2200:00: __i2c_hid_command: cmd=04 00 3b 02 05 00
[    2.112303] i2c_hid i2c-WACF2200:00: i2c_hid_set_or_send_report
[    2.112308] i2c_hid i2c-WACF2200:00: __i2c_hid_command: cmd=04 00 3b 03 05 00 42 00 0b 00 00 00 00 00 00 00 00 00 00 00 00 00 00 00 00 00 00 00 00 00 00 00 00 00 00 00 00 00 00 00 00 00 00 00 00 00 00 00 00 00 00 00 00 00 00 00 00 00 00 00 00 00 00 00
[    2.115178] i2c_hid i2c-WACF2200:00: i2c_hid_get_report
[    2.115182] i2c_hid i2c-WACF2200:00: __i2c_hid_command: cmd=04 00 3b 02 05 00
[    2.118178] i2c_hid i2c-WACF2200:00: i2c_hid_set_or_send_report
[    2.118182] i2c_hid i2c-WACF2200:00: __i2c_hid_command: cmd=04 00 3b 03 05 00 42 00 0b 00 00 00 00 00 00 00 00 00 00 00 00 00 00 00 00 00 00 00 00 00 00 00 00 00 00 00 00 00 00 00 00 00 00 00 00 00 00 00 00 00 00 00 00 00 00 00 00 00 00 00 00 00 00 00
[    2.121062] i2c_hid i2c-WACF2200:00: i2c_hid_get_report
[    2.121066] i2c_hid i2c-WACF2200:00: __i2c_hid_command: cmd=04 00 3b 02 05 00
[    2.124063] i2c_hid i2c-WACF2200:00: i2c_hid_set_or_send_report
[    2.124068] i2c_hid i2c-WACF2200:00: __i2c_hid_command: cmd=04 00 3b 03 05 00 42 00 0b 00 00 00 00 00 00 00 00 00 00 00 00 00 00 00 00 00 00 00 00 00 00 00 00 00 00 00 00 00 00 00 00 00 00 00 00 00 00 00 00 00 00 00 00 00 00 00 00 00 00 00 00 00 00 00
[    2.127122] i2c_hid i2c-WACF2200:00: i2c_hid_get_report
[    2.127127] i2c_hid i2c-WACF2200:00: __i2c_hid_command: cmd=04 00 3b 02 05 00
[    2.130120] i2c_hid i2c-WACF2200:00: i2c_hid_set_or_send_report
[    2.130125] i2c_hid i2c-WACF2200:00: __i2c_hid_command: cmd=04 00 3b 03 05 00 42 00 0b 00 00 00 00 00 00 00 00 00 00 00 00 00 00 00 00 00 00 00 00 00 00 00 00 00 00 00 00 00 00 00 00 00 00 00 00 00 00 00 00 00 00 00 00 00 00 00 00 00 00 00 00 00 00 00
[    2.133005] i2c_hid i2c-WACF2200:00: i2c_hid_get_report
[    2.133009] i2c_hid i2c-WACF2200:00: __i2c_hid_command: cmd=04 00 3b 02 05 00
[    2.136006] i2c_hid i2c-WACF2200:00: i2c_hid_set_or_send_report
[    2.136012] i2c_hid i2c-WACF2200:00: __i2c_hid_command: cmd=04 00 3b 03 05 00 42 00 0b 00 00 00 00 00 00 00 00 00 00 00 00 00 00 00 00 00 00 00 00 00 00 00 00 00 00 00 00 00 00 00 00 00 00 00 00 00 00 00 00 00 00 00 00 00 00 00 00 00 00 00 00 00 00 00
[    2.138969] i2c_hid i2c-WACF2200:00: i2c_hid_get_report
[    2.138974] i2c_hid i2c-WACF2200:00: __i2c_hid_command: cmd=04 00 3b 02 05 00
[    2.141965] i2c_hid i2c-WACF2200:00: i2c_hid_set_or_send_report
[    2.141969] i2c_hid i2c-WACF2200:00: __i2c_hid_command: cmd=04 00 3e 03 05 00 05 00 0e 02 00
[    3.226160] raid6: avx2x4   gen() 22388 MB/s
[    3.274160] raid6: avx2x4   xor()  9783 MB/s
[    3.322159] raid6: avx2x2   gen() 21399 MB/s
[    3.370159] raid6: avx2x2   xor() 13806 MB/s
[    3.418158] raid6: avx2x1   gen() 11987 MB/s
[    3.466159] raid6: avx2x1   xor() 10137 MB/s
[    3.514157] raid6: sse2x4   gen() 10902 MB/s
[    3.562160] raid6: sse2x4   xor()  6127 MB/s
[    3.610158] raid6: sse2x2   gen() 10574 MB/s
[    3.658160] raid6: sse2x2   xor()  7016 MB/s
[    3.706157] raid6: sse2x1   gen()  5031 MB/s
[    3.754162] raid6: sse2x1   xor()  5121 MB/s
[    3.754163] raid6: using algorithm avx2x4 gen() 22388 MB/s
[    3.754163] raid6: .... xor() 9783 MB/s, rmw enabled
[    3.754164] raid6: using avx2x2 recovery algorithm
[    3.758870] xor: automatically using best checksumming function   avx       
[    3.778296] Btrfs loaded, crc32c=crc32c-intel
[    3.856797] EXT4-fs (nvme0n1p2): mounted filesystem with ordered data mode. Opts: (null)
[    4.115538] systemd[1]: Inserted module 'autofs4'
[    4.154665] systemd[1]: systemd 245.4-4ubuntu3.4 running in system mode. (+PAM +AUDIT +SELINUX +IMA +APPARMOR +SMACK +SYSVINIT +UTMP +LIBCRYPTSETUP +GCRYPT +GNUTLS +ACL +XZ +LZ4 +SECCOMP +BLKID +ELFUTILS +KMOD +IDN2 -IDN +PCRE2 default-hierarchy=hybrid)
[    4.174582] systemd[1]: Detected architecture x86-64.
[    4.196746] systemd[1]: Set hostname to ...
[    4.374295] systemd[1]: /lib/systemd/system/dbus.socket:5: ListenStream= references a path below legacy directory /var/run/, updating /var/run/dbus/system_bus_socket \xe2\x86\x92 /run/dbus/system_bus_socket; please update the unit file accordingly.
[    4.423097] systemd[1]: Created slice system-modprobe.slice.
[    4.423543] systemd[1]: Created slice system-systemd\x2dfsck.slice.
[    4.423816] systemd[1]: Created slice User and Session Slice.
[    4.423892] systemd[1]: Started Forward Password Requests to Wall Directory Watch.
[    4.424211] systemd[1]: Set up automount ...
[    4.424278] systemd[1]: Reached target User and Group Name Lookups.
[    4.424308] systemd[1]: Reached target Remote File Systems.
[    4.424330] systemd[1]: Reached target Slices.
[    4.424422] systemd[1]: Listening on Device-mapper event daemon FIFOs.
[    4.424552] systemd[1]: Listening on LVM2 poll daemon socket.
[    4.424624] systemd[1]: Listening on Syslog Socket.
[    4.426563] systemd[1]: Listening on Process Core Dump Socket.
[    4.426687] systemd[1]: Listening on fsck to fsckd communication Socket.
[    4.426753] systemd[1]: Listening on initctl Compatibility Named Pipe.
[    4.426942] systemd[1]: Listening on Journal Audit Socket.
[    4.427030] systemd[1]: Listening on Journal Socket (/dev/log).
[    4.427130] systemd[1]: Listening on Journal Socket.
[    4.427232] systemd[1]: Listening on udev Control Socket.
[    4.427319] systemd[1]: Listening on udev Kernel Socket.
[    4.428588] systemd[1]: Mounting Huge Pages File System...
[    4.429592] systemd[1]: Mounting POSIX Message Queue File System...
[    4.431023] systemd[1]: Mounting Kernel Debug File System...
[    4.432122] systemd[1]: Mounting Kernel Trace File System...
[    4.433726] systemd[1]: Starting Journal Service...
[    4.435255] systemd[1]: Starting Availability of block devices...
[    4.437233] systemd[1]: Starting Set the console keyboard layout...
[    4.438480] systemd[1]: Starting Create list of static device nodes for the current kernel...
[    4.439468] systemd[1]: Starting Monitoring of LVM2 mirrors, snapshots etc. using dmeventd or progress polling...
[    4.439515] systemd[1]: Condition check resulted in Load Kernel Module drm being skipped.
[    4.439900] systemd[1]: Condition check resulted in Set Up Additional Binary Formats being skipped.
[    4.439931] systemd[1]: Condition check resulted in File System Check on Root Device being skipped.
[    4.441400] systemd[1]: Starting Load Kernel Modules...
[    4.442727] systemd[1]: Starting Remount Root and Kernel File Systems...
[    4.443871] systemd[1]: Starting udev Coldplug all Devices...
[    4.445125] systemd[1]: Starting Uncomplicated firewall...
[    4.446788] systemd[1]: Mounted Huge Pages File System.
[    4.446976] systemd[1]: Mounted POSIX Message Queue File System.
[    4.447520] systemd[1]: Mounted Kernel Debug File System.
[    4.448043] systemd[1]: Mounted Kernel Trace File System.
[    4.448870] systemd[1]: Finished Availability of block devices.
[    4.449756] systemd[1]: Finished Create list of static device nodes for the current kernel.
[    4.450678] systemd[1]: Finished Uncomplicated firewall.
[    4.454681] EXT4-fs (nvme0n1p2): re-mounted. Opts: errors=remount-ro
[    4.456614] systemd[1]: Finished Remount Root and Kernel File Systems.
[    4.457875] systemd[1]: Activating swap /swapfile...
[    4.458368] systemd[1]: Condition check resulted in Rebuild Hardware Database being skipped.
[    4.458438] systemd[1]: Condition check resulted in Platform Persistent Storage Archival being skipped.
[    4.459679] systemd[1]: Starting Load/Save Random Seed...
[    4.460274] lp: driver loaded but no devices found
[    4.461038] systemd[1]: Starting Create System Users...
[    4.468112] ppdev: user-space parallel port driver
[    4.507274] systemd[1]: Finished Set the console keyboard layout.
[    4.508594] systemd[1]: Finished Load/Save Random Seed.
[    4.509489] systemd[1]: Finished Load Kernel Modules.
[    4.511283] systemd[1]: Mounting FUSE Control File System...
[    4.512437] systemd[1]: Mounting Kernel Configuration File System...
[    4.513613] systemd[1]: Starting Apply Kernel Variables...
[    4.514949] systemd[1]: Mounted FUSE Control File System.
[    4.515626] systemd[1]: Mounted Kernel Configuration File System.
[    4.517272] systemd[1]: Finished Create System Users.
[    4.518533] systemd[1]: Starting Create Static Device Nodes in /dev...
[    4.528322] systemd[1]: Finished Monitoring of LVM2 mirrors, snapshots etc. using dmeventd or progress polling.
[    4.529100] systemd[1]: Finished Apply Kernel Variables.
[    4.529829] systemd[1]: Finished Create Static Device Nodes in /dev.
[    4.530013] systemd[1]: Reached target Local File Systems (Pre).
[    4.531313] systemd[1]: Starting udev Kernel Device Manager...
[    4.542172] Adding 2097148k swap on /swapfile.  Priority:-2 extents:6 across:2260988k SSFS
[    4.542241] systemd[1]: Activated swap /swapfile.
[    4.542337] systemd[1]: Reached target Swap.
[    4.573338] systemd[1]: Finished udev Coldplug all Devices.
[    4.575219] systemd[1]: Starting Helper to synchronize boot up for ifupdown...
[    4.580424] systemd[1]: Finished Helper to synchronize boot up for ifupdown.
[    4.580652] systemd[1]: Started udev Kernel Device Manager.
[    4.581828] systemd[1]: Starting Show Plymouth Boot Screen...
[    4.591637] systemd[1]: Started Journal Service.
[    4.599574] systemd-journald[341]: Received client request to flush runtime journal.
[    4.903741] snd_pci_acp3x 0000:04:00.5: enabling device (0000 -> 0002)
[    4.905184] snd_pci_acp3x 0000:04:00.5: Invalid ACP audio mode : 0
[    4.918107] cfg80211: Loading compiled-in X.509 certificates for regulatory database
[    4.918340] cfg80211: Loaded X.509 cert 'sforshee: 00b28ddf47aef9cea7'
[    4.956381] mc: Linux media interface: v0.10
[    4.966851] Bluetooth: Core ver 2.22
[    4.966874] NET: Registered protocol family 31
[    4.966875] Bluetooth: HCI device and connection manager initialized
[    4.966879] Bluetooth: HCI socket layer initialized
[    4.966881] Bluetooth: L2CAP socket layer initialized
[    4.966884] Bluetooth: SCO socket layer initialized
[    4.974477] videodev: Linux video capture interface: v2.00
[    5.011707] input: Ideapad extra buttons as /devices/pci0000:00/0000:00:14.3/PNP0C09:00/VPC2004:00/input/input14
[    5.036682] usbcore: registered new interface driver btusb
[    5.037341] rtw_pci 0000:02:00.0: Firmware version 7.3.0, H2C version 14
[    5.037679] rtw_pci 0000:02:00.0: enabling device (0000 -> 0003)
[    5.038186] rtw_pci 0000:02:00.0: Firmware version 7.3.0, H2C version 14
[    5.043661] Bluetooth: hci0: RTL: examining hci_ver=0a hci_rev=000c lmp_ver=0a lmp_subver=8822
[    5.045640] Bluetooth: hci0: RTL: rom_version status=0 version=3
[    5.045642] Bluetooth: hci0: RTL: loading rtl_bt/rtl8822cu_fw.bin
[    5.045644] kvm: Nested Virtualization enabled
[    5.045661] kvm: Nested Paging enabled
[    5.045663] SVM: Virtual VMLOAD VMSAVE supported
[    5.045663] SVM: Virtual GIF supported
[    5.046137] Bluetooth: hci0: RTL: loading rtl_bt/rtl8822cu_config.bin
[    5.046221] Bluetooth: hci0: RTL: cfg_sz 6, total sz 31422
[    5.048876] MCE: In-kernel MCE decoding enabled.
[    5.049855] uvcvideo: Found UVC 1.00 device Integrated Camera (5986:212a)
[    5.051539] EDAC amd64: Node 0: DRAM ECC disabled.
[    5.051541] EDAC amd64: ECC disabled in the BIOS or no ECC capability, module will not load.
                Either enable ECC checking or force module loading by setting 'ecc_enable_override'.
                (Note that use of the override may cause unknown side effects.)
[    5.075722] input: Integrated Camera: Integrated C as /devices/pci0000:00/0000:00:08.1/0000:04:00.3/usb1/1-4/1-4:1.0/input/input15
[    5.076580] usbcore: registered new interface driver uvcvideo
[    5.076581] USB Video Class driver (1.1.1)
[    5.115222] EDAC amd64: Node 0: DRAM ECC disabled.
[    5.115225] EDAC amd64: ECC disabled in the BIOS or no ECC capability, module will not load.
                Either enable ECC checking or force module loading by setting 'ecc_enable_override'.
                (Note that use of the override may cause unknown side effects.)
[    5.200834] EDAC amd64: Node 0: DRAM ECC disabled.
[    5.200837] EDAC amd64: ECC disabled in the BIOS or no ECC capability, module will not load.
                Either enable ECC checking or force module loading by setting 'ecc_enable_override'.
                (Note that use of the override may cause unknown side effects.)
[    5.283758] EDAC amd64: Node 0: DRAM ECC disabled.
[    5.283761] EDAC amd64: ECC disabled in the BIOS or no ECC capability, module will not load.
                Either enable ECC checking or force module loading by setting 'ecc_enable_override'.
                (Note that use of the override may cause unknown side effects.)
[    5.322665] Bluetooth: hci0: RTL: fw version 0x09993aa1
[    5.333734] EDAC amd64: Node 0: DRAM ECC disabled.
[    5.333747] EDAC amd64: ECC disabled in the BIOS or no ECC capability, module will not load.
                Either enable ECC checking or force module loading by setting 'ecc_enable_override'.
                (Note that use of the override may cause unknown side effects.)
[    5.384848] EDAC amd64: Node 0: DRAM ECC disabled.
[    5.384851] EDAC amd64: ECC disabled in the BIOS or no ECC capability, module will not load.
                Either enable ECC checking or force module loading by setting 'ecc_enable_override'.
                (Note that use of the override may cause unknown side effects.)
[    5.403042] snd_hda_intel 0000:04:00.1: enabling device (0000 -> 0002)
[    5.403211] snd_hda_intel 0000:04:00.1: Handle vga_switcheroo audio client
[    5.403354] snd_hda_intel 0000:04:00.6: enabling device (0000 -> 0002)
[    5.411197] input: HD-Audio Generic HDMI/DP,pcm=3 as /devices/pci0000:00/0000:00:08.1/0000:04:00.1/sound/card0/input16
[    5.424101] snd_hda_codec_realtek hdaudioC1D0: autoconfig for ALC257: line_outs=1 (0x14/0x0/0x0/0x0/0x0) type:speaker
[    5.424104] snd_hda_codec_realtek hdaudioC1D0:    speaker_outs=0 (0x0/0x0/0x0/0x0/0x0)
[    5.424105] snd_hda_codec_realtek hdaudioC1D0:    hp_outs=1 (0x21/0x0/0x0/0x0/0x0)
[    5.424106] snd_hda_codec_realtek hdaudioC1D0:    mono: mono_out=0x0
[    5.424107] snd_hda_codec_realtek hdaudioC1D0:    inputs:
[    5.424109] snd_hda_codec_realtek hdaudioC1D0:      Mic=0x19
[    5.424110] snd_hda_codec_realtek hdaudioC1D0:      Internal Mic=0x12
[    5.472797] input: HD-Audio Generic Mic as /devices/pci0000:00/0000:00:08.1/0000:04:00.6/sound/card1/input17
[    5.472875] input: HD-Audio Generic Headphone as /devices/pci0000:00/0000:00:08.1/0000:04:00.6/sound/card1/input18
[    5.575023] Bluetooth: BNEP (Ethernet Emulation) ver 1.3
[    5.575024] Bluetooth: BNEP filters: protocol multicast
[    5.575030] Bluetooth: BNEP socket layer initialized
[    5.594008] NET: Registered protocol family 38
[    5.611787] rtw_pci 0000:02:00.0 wlp2s0: renamed from wlan0
[    6.644012] Bluetooth: RFCOMM TTY layer initialized
[    6.644020] Bluetooth: RFCOMM socket layer initialized
[    6.644033] Bluetooth: RFCOMM ver 1.11
[  127.598231] i2c_hid i2c-WACF2200:00: input: 2a 00 0c 00 01 05 01 00 d6 2d fc 1a 00 00 00 00 00 00 00 00 00 00 00 00 00 00 00 00 00 00 00 00 00 00 00 00 00 00 00 00 9c 2a
[  127.606465] i2c_hid i2c-WACF2200:00: input: 2a 00 0c 00 01 05 01 00 d6 2d fc 1a 00 00 00 00 00 00 00 00 00 00 00 00 00 00 00 00 00 00 00 00 00 00 00 00 00 00 00 00 00 2b
[  127.616434] i2c_hid i2c-WACF2200:00: input: 2a 00 0c 00 01 05 01 00 d6 2d fc 1a 00 00 00 00 00 00 00 00 00 00 00 00 00 00 00 00 00 00 00 00 00 00 00 00 00 00 00 00 64 2b
[  127.625670] i2c_hid i2c-WACF2200:00: input: 2a 00 0c 00 01 05 01 00 d6 2d fc 1a 00 00 00 00 00 00 00 00 00 00 00 00 00 00 00 00 00 00 00 00 00 00 00 00 00 00 00 00 c8 2b
[  127.634864] i2c_hid i2c-WACF2200:00: input: 2a 00 0c 00 01 05 01 00 d6 2d fc 1a 00 00 00 00 00 00 00 00 00 00 00 00 00 00 00 00 00 00 00 00 00 00 00 00 00 00 00 00 2c 2c
[  127.644405] i2c_hid i2c-WACF2200:00: input: 2a 00 0c 00 01 05 01 00 d6 2d fc 1a 00 00 00 00 00 00 00 00 00 00 00 00 00 00 00 00 00 00 00 00 00 00 00 00 00 00 00 00 90 2c
[  127.653966] i2c_hid i2c-WACF2200:00: input: 2a 00 0c 00 01 05 01 00 d6 2d fc 1a 00 00 00 00 00 00 00 00 00 00 00 00 00 00 00 00 00 00 00 00 00 00 00 00 00 00 00 00 f4 2c
[  127.663489] i2c_hid i2c-WACF2200:00: input: 2a 00 0c 00 01 05 01 00 d6 2d fc 1a 00 00 00 00 00 00 00 00 00 00 00 00 00 00 00 00 00 00 00 00 00 00 00 00 00 00 00 00 58 2d
[  127.673321] i2c_hid i2c-WACF2200:00: input: 2a 00 0c 00 01 05 01 00 d6 2d fc 1a 00 00 00 00 00 00 00 00 00 00 00 00 00 00 00 00 00 00 00 00 00 00 00 00 00 00 00 00 bc 2d
[  127.682402] i2c_hid i2c-WACF2200:00: input: 2a 00 0c 00 01 05 01 00 d6 2d fc 1a 00 00 00 00 00 00 00 00 00 00 00 00 00 00 00 00 00 00 00 00 00 00 00 00 00 00 00 00 20 2e
[  127.691920] i2c_hid i2c-WACF2200:00: input: 2a 00 0c 00 01 05 01 00 d6 2d fc 1a 00 00 00 00 00 00 00 00 00 00 00 00 00 00 00 00 00 00 00 00 00 00 00 00 00 00 00 00 84 2e
[  127.701460] i2c_hid i2c-WACF2200:00: input: 2a 00 0c 00 01 05 01 00 d6 2d fc 1a 00 00 00 00 00 00 00 00 00 00 00 00 00 00 00 00 00 00 00 00 00 00 00 00 00 00 00 00 e8 2e
[  127.711030] i2c_hid i2c-WACF2200:00: input: 2a 00 0c 00 01 05 01 00 d6 2d fc 1a 00 00 00 00 00 00 00 00 00 00 00 00 00 00 00 00 00 00 00 00 00 00 00 00 00 00 00 00 4c 2f
[  127.720742] i2c_hid i2c-WACF2200:00: input: 2a 00 0c 00 01 05 01 00 d6 2d fc 1a 00 00 00 00 00 00 00 00 00 00 00 00 00 00 00 00 00 00 00 00 00 00 00 00 00 00 00 00 b0 2f
[  127.730695] i2c_hid i2c-WACF2200:00: input: 2a 00 0c 00 01 05 01 00 d7 2d 0a 1b 00 00 00 00 00 00 00 00 00 00 00 00 00 00 00 00 00 00 00 00 00 00 00 00 00 00 00 00 14 30
[  127.739778] i2c_hid i2c-WACF2200:00: input: 2a 00 0c 00 01 05 01 00 d8 2d 14 1b 00 00 00 00 00 00 00 00 00 00 00 00 00 00 00 00 00 00 00 00 00 00 00 00 00 00 00 00 78 30
[  127.754494] i2c_hid i2c-WACF2200:00: input: 2a 00 0c 00 01 05 01 00 d8 2d 2f 1b 00 00 00 00 00 00 00 00 00 00 00 00 00 00 00 00 00 00 00 00 00 00 00 00 00 00 00 00 dc 30
[  127.764220] i2c_hid i2c-WACF2200:00: input: 2a 00 0c 00 01 04 01 00 d8 2d 2f 1b 00 00 00 00 00 00 00 00 00 00 00 00 00 00 00 00 00 00 00 00 00 00 00 00 00 00 00 00 40 31
[  129.053336] i2c_hid i2c-WACF2200:00: input: 2a 00 0c 00 01 05 01 00 8f 2f 0f 18 00 00 00 00 00 00 00 00 00 00 00 00 00 00 00 00 00 00 00 00 00 00 00 00 00 00 00 00 60 66
[  129.062765] i2c_hid i2c-WACF2200:00: input: 2a 00 0c 00 01 05 01 00 8f 2f 0f 18 00 00 00 00 00 00 00 00 00 00 00 00 00 00 00 00 00 00 00 00 00 00 00 00 00 00 00 00 c4 66
[  129.071972] i2c_hid i2c-WACF2200:00: input: 2a 00 0c 00 01 05 01 00 8f 2f 0f 18 00 00 00 00 00 00 00 00 00 00 00 00 00 00 00 00 00 00 00 00 00 00 00 00 00 00 00 00 28 67
[  129.081429] i2c_hid i2c-WACF2200:00: input: 2a 00 0c 00 01 05 01 00 8f 2f 0f 18 00 00 00 00 00 00 00 00 00 00 00 00 00 00 00 00 00 00 00 00 00 00 00 00 00 00 00 00 8c 67
[  129.090967] i2c_hid i2c-WACF2200:00: input: 2a 00 0c 00 01 05 01 00 8b 2f 00 18 00 00 00 00 00 00 00 00 00 00 00 00 00 00 00 00 00 00 00 00 00 00 00 00 00 00 00 00 f0 67
[  129.100719] i2c_hid i2c-WACF2200:00: input: 2a 00 0c 00 01 05 01 00 8a 2f fb 17 00 00 00 00 00 00 00 00 00 00 00 00 00 00 00 00 00 00 00 00 00 00 00 00 00 00 00 00 54 68
[  129.110391] i2c_hid i2c-WACF2200:00: input: 2a 00 0c 00 01 05 01 00 89 2f f6 17 00 00 00 00 00 00 00 00 00 00 00 00 00 00 00 00 00 00 00 00 00 00 00 00 00 00 00 00 b8 68
[  129.119823] i2c_hid i2c-WACF2200:00: input: 2a 00 0c 00 01 05 01 00 88 2f f3 17 00 00 00 00 00 00 00 00 00 00 00 00 00 00 00 00 00 00 00 00 00 00 00 00 00 00 00 00 1c 69
[  129.129440] i2c_hid i2c-WACF2200:00: input: 2a 00 0c 00 01 05 01 00 87 2f f1 17 00 00 00 00 00 00 00 00 00 00 00 00 00 00 00 00 00 00 00 00 00 00 00 00 00 00 00 00 80 69
[  129.138847] i2c_hid i2c-WACF2200:00: input: 2a 00 0c 00 01 05 01 00 86 2f ef 17 00 00 00 00 00 00 00 00 00 00 00 00 00 00 00 00 00 00 00 00 00 00 00 00 00 00 00 00 e4 69
[  129.148491] i2c_hid i2c-WACF2200:00: input: 2a 00 0c 00 01 05 01 00 85 2f ee 17 00 00 00 00 00 00 00 00 00 00 00 00 00 00 00 00 00 00 00 00 00 00 00 00 00 00 00 00 48 6a
[  129.157733] i2c_hid i2c-WACF2200:00: input: 2a 00 0c 00 01 05 01 00 84 2f ed 17 00 00 00 00 00 00 00 00 00 00 00 00 00 00 00 00 00 00 00 00 00 00 00 00 00 00 00 00 ac 6a
[  129.167505] i2c_hid i2c-WACF2200:00: input: 2a 00 0c 00 01 05 01 00 83 2f ed 17 00 00 00 00 00 00 00 00 00 00 00 00 00 00 00 00 00 00 00 00 00 00 00 00 00 00 00 00 10 6b
[  129.176763] i2c_hid i2c-WACF2200:00: input: 2a 00 0c 00 01 05 01 00 82 2f ed 17 00 00 00 00 00 00 00 00 00 00 00 00 00 00 00 00 00 00 00 00 00 00 00 00 00 00 00 00 74 6b
[  129.186532] i2c_hid i2c-WACF2200:00: input: 2a 00 0c 00 01 05 01 00 81 2f ec 17 00 00 00 00 00 00 00 00 00 00 00 00 00 00 00 00 00 00 00 00 00 00 00 00 00 00 00 00 d8 6b
[  129.195954] i2c_hid i2c-WACF2200:00: input: 2a 00 0c 00 01 05 01 00 80 2f eb 17 00 00 00 00 00 00 00 00 00 00 00 00 00 00 00 00 00 00 00 00 00 00 00 00 00 00 00 00 3c 6c
[  129.205569] i2c_hid i2c-WACF2200:00: input: 2a 00 0c 00 01 05 01 00 7f 2f eb 17 00 00 00 00 00 00 00 00 00 00 00 00 00 00 00 00 00 00 00 00 00 00 00 00 00 00 00 00 a0 6c
[  129.215047] i2c_hid i2c-WACF2200:00: input: 2a 00 0c 00 01 05 01 00 7e 2f ea 17 00 00 00 00 00 00 00 00 00 00 00 00 00 00 00 00 00 00 00 00 00 00 00 00 00 00 00 00 04 6d
[  129.224654] i2c_hid i2c-WACF2200:00: input: 2a 00 0c 00 01 05 01 00 7b 2f e9 17 00 00 00 00 00 00 00 00 00 00 00 00 00 00 00 00 00 00 00 00 00 00 00 00 00 00 00 00 68 6d
[  129.234005] i2c_hid i2c-WACF2200:00: input: 2a 00 0c 00 01 05 01 00 77 2f e5 17 00 00 00 00 00 00 00 00 00 00 00 00 00 00 00 00 00 00 00 00 00 00 00 00 00 00 00 00 cc 6d
[  129.248742] i2c_hid i2c-WACF2200:00: input: 2a 00 0c 00 01 05 01 00 72 2f de 17 00 00 00 00 00 00 00 00 00 00 00 00 00 00 00 00 00 00 00 00 00 00 00 00 00 00 00 00 30 6e
[  129.258317] i2c_hid i2c-WACF2200:00: input: 2a 00 0c 00 01 04 01 00 72 2f de 17 00 00 00 00 00 00 00 00 00 00 00 00 00 00 00 00 00 00 00 00 00 00 00 00 00 00 00 00 94 6e
[  130.004758] i2c_hid i2c-WACF2200:00: input: 2a 00 0c 00 01 05 01 00 50 2f e7 17 00 00 00 00 00 00 00 00 00 00 00 00 00 00 00 00 00 00 00 00 00 00 00 00 00 00 00 00 70 8d
[  130.014467] i2c_hid i2c-WACF2200:00: input: 2a 00 0c 00 01 05 01 00 50 2f e7 17 00 00 00 00 00 00 00 00 00 00 00 00 00 00 00 00 00 00 00 00 00 00 00 00 00 00 00 00 d4 8d
[  130.023767] i2c_hid i2c-WACF2200:00: input: 2a 00 0c 00 01 05 01 00 50 2f e7 17 00 00 00 00 00 00 00 00 00 00 00 00 00 00 00 00 00 00 00 00 00 00 00 00 00 00 00 00 38 8e
[  130.033309] i2c_hid i2c-WACF2200:00: input: 2a 00 0c 00 01 05 01 00 50 2f e7 17 00 00 00 00 00 00 00 00 00 00 00 00 00 00 00 00 00 00 00 00 00 00 00 00 00 00 00 00 9c 8e
[  130.042849] i2c_hid i2c-WACF2200:00: input: 2a 00 0c 00 01 05 01 00 50 2f e7 17 00 00 00 00 00 00 00 00 00 00 00 00 00 00 00 00 00 00 00 00 00 00 00 00 00 00 00 00 00 8f
[  130.052321] i2c_hid i2c-WACF2200:00: input: 2a 00 0c 00 01 05 01 00 50 2f e7 17 00 00 00 00 00 00 00 00 00 00 00 00 00 00 00 00 00 00 00 00 00 00 00 00 00 00 00 00 64 8f
[  130.061865] i2c_hid i2c-WACF2200:00: input: 2a 00 0c 00 01 05 01 00 50 2f e7 17 00 00 00 00 00 00 00 00 00 00 00 00 00 00 00 00 00 00 00 00 00 00 00 00 00 00 00 00 c8 8f
[  130.071400] i2c_hid i2c-WACF2200:00: input: 2a 00 0c 00 01 05 01 00 50 2f e7 17 00 00 00 00 00 00 00 00 00 00 00 00 00 00 00 00 00 00 00 00 00 00 00 00 00 00 00 00 2c 90
[  130.080874] i2c_hid i2c-WACF2200:00: input: 2a 00 0c 00 01 05 01 00 50 2f e7 17 00 00 00 00 00 00 00 00 00 00 00 00 00 00 00 00 00 00 00 00 00 00 00 00 00 00 00 00 90 90
[  130.090462] i2c_hid i2c-WACF2200:00: input: 2a 00 0c 00 01 05 01 00 50 2f e7 17 00 00 00 00 00 00 00 00 00 00 00 00 00 00 00 00 00 00 00 00 00 00 00 00 00 00 00 00 f4 90
[  130.099956] i2c_hid i2c-WACF2200:00: input: 2a 00 0c 00 01 05 01 00 50 2f e7 17 00 00 00 00 00 00 00 00 00 00 00 00 00 00 00 00 00 00 00 00 00 00 00 00 00 00 00 00 58 91
[  130.109404] i2c_hid i2c-WACF2200:00: input: 2a 00 0c 00 01 05 01 00 50 2f e7 17 00 00 00 00 00 00 00 00 00 00 00 00 00 00 00 00 00 00 00 00 00 00 00 00 00 00 00 00 bc 91
[  130.118974] i2c_hid i2c-WACF2200:00: input: 2a 00 0c 00 01 05 01 00 50 2f e7 17 00 00 00 00 00 00 00 00 00 00 00 00 00 00 00 00 00 00 00 00 00 00 00 00 00 00 00 00 20 92
[  130.120335] rtw_pci 0000:02:00.0: start vif XX:XX:XX:XX:XX:XX on port 0
[  130.128465] i2c_hid i2c-WACF2200:00: input: 2a 00 0c 00 01 05 01 00 50 2f e7 17 00 00 00 00 00 00 00 00 00 00 00 00 00 00 00 00 00 00 00 00 00 00 00 00 00 00 00 00 84 92
[  130.137889] i2c_hid i2c-WACF2200:00: input: 2a 00 0c 00 01 05 01 00 50 2f e7 17 00 00 00 00 00 00 00 00 00 00 00 00 00 00 00 00 00 00 00 00 00 00 00 00 00 00 00 00 e8 92
[  130.147401] i2c_hid i2c-WACF2200:00: input: 2a 00 0c 00 01 05 01 00 5c 2f e2 17 00 00 00 00 00 00 00 00 00 00 00 00 00 00 00 00 00 00 00 00 00 00 00 00 00 00 00 00 4c 93
[  130.162267] i2c_hid i2c-WACF2200:00: input: 2a 00 0c 00 01 05 01 00 72 2f dc 17 00 00 00 00 00 00 00 00 00 00 00 00 00 00 00 00 00 00 00 00 00 00 00 00 00 00 00 00 b0 93
[  130.171723] i2c_hid i2c-WACF2200:00: input: 2a 00 0c 00 01 04 01 00 72 2f dc 17 00 00 00 00 00 00 00 00 00 00 00 00 00 00 00 00 00 00 00 00 00 00 00 00 00 00 00 00 14 94
[  131.299280] i2c_hid i2c-WACF2200:00: input: 2a 00 0c 00 01 05 01 00 39 2c df 18 00 00 00 00 00 00 00 00 00 00 00 00 00 00 00 00 00 00 00 00 00 00 00 00 00 00 00 00 90 c2
[  131.308775] i2c_hid i2c-WACF2200:00: input: 2a 00 0c 00 01 05 01 00 39 2c df 18 00 00 00 00 00 00 00 00 00 00 00 00 00 00 00 00 00 00 00 00 00 00 00 00 00 00 00 00 f4 c2
[  131.318486] i2c_hid i2c-WACF2200:00: input: 2a 00 0c 00 01 05 01 00 39 2c df 18 00 00 00 00 00 00 00 00 00 00 00 00 00 00 00 00 00 00 00 00 00 00 00 00 00 00 00 00 58 c3
[  131.327695] i2c_hid i2c-WACF2200:00: input: 2a 00 0c 00 01 05 01 00 39 2c df 18 00 00 00 00 00 00 00 00 00 00 00 00 00 00 00 00 00 00 00 00 00 00 00 00 00 00 00 00 bc c3
[  131.337344] i2c_hid i2c-WACF2200:00: input: 2a 00 0c 00 01 05 01 00 39 2c df 18 00 00 00 00 00 00 00 00 00 00 00 00 00 00 00 00 00 00 00 00 00 00 00 00 00 00 00 00 20 c4
[  131.346730] i2c_hid i2c-WACF2200:00: input: 2a 00 0c 00 01 05 01 00 39 2c df 18 00 00 00 00 00 00 00 00 00 00 00 00 00 00 00 00 00 00 00 00 00 00 00 00 00 00 00 00 84 c4
[  131.356271] i2c_hid i2c-WACF2200:00: input: 2a 00 0c 00 01 05 01 00 39 2c df 18 00 00 00 00 00 00 00 00 00 00 00 00 00 00 00 00 00 00 00 00 00 00 00 00 00 00 00 00 e8 c4
[  131.365904] i2c_hid i2c-WACF2200:00: input: 2a 00 0c 00 01 05 01 00 39 2c df 18 00 00 00 00 00 00 00 00 00 00 00 00 00 00 00 00 00 00 00 00 00 00 00 00 00 00 00 00 4c c5
[  131.375448] i2c_hid i2c-WACF2200:00: input: 2a 00 0c 00 01 05 01 00 39 2c df 18 00 00 00 00 00 00 00 00 00 00 00 00 00 00 00 00 00 00 00 00 00 00 00 00 00 00 00 00 b0 c5
[  131.384818] i2c_hid i2c-WACF2200:00: input: 2a 00 0c 00 01 05 01 00 39 2c df 18 00 00 00 00 00 00 00 00 00 00 00 00 00 00 00 00 00 00 00 00 00 00 00 00 00 00 00 00 14 c6
[  131.394359] i2c_hid i2c-WACF2200:00: input: 2a 00 0c 00 01 05 01 00 39 2c df 18 00 00 00 00 00 00 00 00 00 00 00 00 00 00 00 00 00 00 00 00 00 00 00 00 00 00 00 00 78 c6
[  131.403819] i2c_hid i2c-WACF2200:00: input: 2a 00 0c 00 01 05 01 00 39 2c df 18 00 00 00 00 00 00 00 00 00 00 00 00 00 00 00 00 00 00 00 00 00 00 00 00 00 00 00 00 dc c6
[  131.413523] i2c_hid i2c-WACF2200:00: input: 2a 00 0c 00 01 05 01 00 39 2c df 18 00 00 00 00 00 00 00 00 00 00 00 00 00 00 00 00 00 00 00 00 00 00 00 00 00 00 00 00 40 c7
[  131.423020] i2c_hid i2c-WACF2200:00: input: 2a 00 0c 00 01 05 01 00 39 2c df 18 00 00 00 00 00 00 00 00 00 00 00 00 00 00 00 00 00 00 00 00 00 00 00 00 00 00 00 00 a4 c7
[  131.432391] i2c_hid i2c-WACF2200:00: input: 2a 00 0c 00 01 05 01 00 39 2c df 18 00 00 00 00 00 00 00 00 00 00 00 00 00 00 00 00 00 00 00 00 00 00 00 00 00 00 00 00 08 c8
[  131.442107] i2c_hid i2c-WACF2200:00: input: 2a 00 0c 00 01 05 01 00 39 2c df 18 00 00 00 00 00 00 00 00 00 00 00 00 00 00 00 00 00 00 00 00 00 00 00 00 00 00 00 00 6c c8
[  131.451389] i2c_hid i2c-WACF2200:00: input: 2a 00 0c 00 01 05 01 00 39 2c df 18 00 00 00 00 00 00 00 00 00 00 00 00 00 00 00 00 00 00 00 00 00 00 00 00 00 00 00 00 d0 c8
[  131.461148] i2c_hid i2c-WACF2200:00: input: 2a 00 0c 00 01 05 01 00 39 2c df 18 00 00 00 00 00 00 00 00 00 00 00 00 00 00 00 00 00 00 00 00 00 00 00 00 00 00 00 00 34 c9
[  131.470621] i2c_hid i2c-WACF2200:00: input: 2a 00 0c 00 01 05 01 00 39 2c df 18 00 00 00 00 00 00 00 00 00 00 00 00 00 00 00 00 00 00 00 00 00 00 00 00 00 00 00 00 98 c9
[  131.479905] i2c_hid i2c-WACF2200:00: input: 2a 00 0c 00 01 05 01 00 39 2c df 18 00 00 00 00 00 00 00 00 00 00 00 00 00 00 00 00 00 00 00 00 00 00 00 00 00 00 00 00 fc c9
[  131.489620] i2c_hid i2c-WACF2200:00: input: 2a 00 0c 00 01 05 01 00 39 2c df 18 00 00 00 00 00 00 00 00 00 00 00 00 00 00 00 00 00 00 00 00 00 00 00 00 00 00 00 00 60 ca
[  131.498959] i2c_hid i2c-WACF2200:00: input: 2a 00 0c 00 01 05 01 00 39 2c df 18 00 00 00 00 00 00 00 00 00 00 00 00 00 00 00 00 00 00 00 00 00 00 00 00 00 00 00 00 c4 ca
[  131.514028] i2c_hid i2c-WACF2200:00: input: 2a 00 0c 00 01 05 01 00 47 2c e2 18 00 00 00 00 00 00 00 00 00 00 00 00 00 00 00 00 00 00 00 00 00 00 00 00 00 00 00 00 28 cb
[  131.523443] i2c_hid i2c-WACF2200:00: input: 2a 00 0c 00 01 04 01 00 47 2c e2 18 00 00 00 00 00 00 00 00 00 00 00 00 00 00 00 00 00 00 00 00 00 00 00 00 00 00 00 00 8c cb
[  134.126294] wlp2s0: authenticate with XX:XX:XX:XX:XX:XX
[  134.531754] wlp2s0: send auth to XX:XX:XX:XX:XX:XX (try 1/3)
[  134.555644] wlp2s0: send auth to XX:XX:XX:XX:XX:XX (try 2/3)
[  134.579092] wlp2s0: send auth to XX:XX:XX:XX:XX:XX (try 3/3)
[  134.588754] wlp2s0: authenticated
[  134.590183] wlp2s0: associate with XX:XX:XX:XX:XX:XX (try 1/3)
[  134.706182] wlp2s0: associate with XX:XX:XX:XX:XX:XX (try 2/3)
[  134.735115] wlp2s0: RX AssocResp from XX:XX:XX:XX:XX:XX (capab=0x1431 status=0 aid=5)
[  134.735138] rtw_pci 0000:02:00.0: sta XX:XX:XX:XX:XX:XX joined with macid 0
[  134.735378] wlp2s0: associated
[  134.910684] wlp2s0: Limiting TX power to 30 (30 - 0) dBm as advertised by XX:XX:XX:XX:XX:XX
[  137.868613] IPv6: ADDRCONF(NETDEV_CHANGE): wlp2s0: link becomes ready
[  196.339457] wlp2s0: disassociated from XX:XX:XX:XX:XX:XX (Reason: 1=UNSPECIFIED)
[  196.426572] rtw_pci 0000:02:00.0: sta XX:XX:XX:XX:XX:XX with macid 0 left
[  196.786987] wlp2s0: authenticate with XX:XX:XX:XX:XX:XX
[  197.184141] wlp2s0: send auth to XX:XX:XX:XX:XX:XX (try 1/3)
[  197.187519] wlp2s0: authenticated
[  197.190238] wlp2s0: associate with XX:XX:XX:XX:XX:XX (try 1/3)
[  197.299030] wlp2s0: associate with XX:XX:XX:XX:XX:XX (try 2/3)
[  197.316186] wlp2s0: RX AssocResp from XX:XX:XX:XX:XX:XX (capab=0x1511 status=0 aid=1)
[  197.316221] rtw_pci 0000:02:00.0: sta XX:XX:XX:XX:XX:XX joined with macid 0
[  197.316574] wlp2s0: associated
[  197.501639] wlp2s0: Limiting TX power to 30 (30 - 0) dBm as advertised by XX:XX:XX:XX:XX:XX
[  702.324603] SGI XFS with ACLs, security attributes, realtime, no debug enabled
[  702.335832] JFS: nTxBlock = 8192, nTxLock = 65536
[  702.351512] ntfs: driver 2.1.32 [Flags: R/O MODULE].
[  702.375332] QNX4 filesystem 0.2.3 registered.
[ 1207.139104] i2c_hid i2c-WACF2200:00: input: 2a 00 0c 00 01 05 01 00 26 07 ec 0b 00 00 00 00 00 00 00 00 00 00 00 00 00 00 00 00 00 00 00 00 00 00 00 00 00 00 00 00 c8 0b
[ 1207.149205] i2c_hid i2c-WACF2200:00: input: 2a 00 0c 00 01 05 01 00 26 07 ec 0b 00 00 00 00 00 00 00 00 00 00 00 00 00 00 00 00 00 00 00 00 00 00 00 00 00 00 00 00 2c 0c
[ 1207.158140] i2c_hid i2c-WACF2200:00: input: 2a 00 0c 00 01 05 01 00 26 07 ec 0b 00 00 00 00 00 00 00 00 00 00 00 00 00 00 00 00 00 00 00 00 00 00 00 00 00 00 00 00 90 0c
[ 1207.167685] i2c_hid i2c-WACF2200:00: input: 2a 00 0c 00 01 05 01 00 26 07 ec 0b 00 00 00 00 00 00 00 00 00 00 00 00 00 00 00 00 00 00 00 00 00 00 00 00 00 00 00 00 f4 0c
[ 1207.177174] i2c_hid i2c-WACF2200:00: input: 2a 00 0c 00 01 05 01 00 26 07 ec 0b 00 00 00 00 00 00 00 00 00 00 00 00 00 00 00 00 00 00 00 00 00 00 00 00 00 00 00 00 58 0d
[ 1207.186905] i2c_hid i2c-WACF2200:00: input: 2a 00 0c 00 01 05 01 00 26 07 ec 0b 00 00 00 00 00 00 00 00 00 00 00 00 00 00 00 00 00 00 00 00 00 00 00 00 00 00 00 00 bc 0d
[ 1207.196474] i2c_hid i2c-WACF2200:00: input: 2a 00 0c 00 01 05 01 00 26 07 ec 0b 00 00 00 00 00 00 00 00 00 00 00 00 00 00 00 00 00 00 00 00 00 00 00 00 00 00 00 00 20 0e
[ 1207.205877] i2c_hid i2c-WACF2200:00: input: 2a 00 0c 00 01 05 01 00 26 07 ec 0b 00 00 00 00 00 00 00 00 00 00 00 00 00 00 00 00 00 00 00 00 00 00 00 00 00 00 00 00 84 0e
[ 1207.215496] i2c_hid i2c-WACF2200:00: input: 2a 00 0c 00 01 05 01 00 26 07 ec 0b 00 00 00 00 00 00 00 00 00 00 00 00 00 00 00 00 00 00 00 00 00 00 00 00 00 00 00 00 e8 0e
[ 1207.224790] i2c_hid i2c-WACF2200:00: input: 2a 00 0c 00 01 05 01 00 26 07 ec 0b 00 00 00 00 00 00 00 00 00 00 00 00 00 00 00 00 00 00 00 00 00 00 00 00 00 00 00 00 4c 0f
[ 1207.234549] i2c_hid i2c-WACF2200:00: input: 2a 00 0c 00 01 05 01 00 26 07 ec 0b 00 00 00 00 00 00 00 00 00 00 00 00 00 00 00 00 00 00 00 00 00 00 00 00 00 00 00 00 b0 0f
[ 1207.243984] i2c_hid i2c-WACF2200:00: input: 2a 00 0c 00 01 05 01 00 26 07 ec 0b 00 00 00 00 00 00 00 00 00 00 00 00 00 00 00 00 00 00 00 00 00 00 00 00 00 00 00 00 14 10
[ 1207.253564] i2c_hid i2c-WACF2200:00: input: 2a 00 0c 00 01 05 01 00 26 07 e2 0b 00 00 00 00 00 00 00 00 00 00 00 00 00 00 00 00 00 00 00 00 00 00 00 00 00 00 00 00 78 10
[ 1207.262804] i2c_hid i2c-WACF2200:00: input: 2a 00 0c 00 01 05 01 00 26 07 e1 0b 00 00 00 00 00 00 00 00 00 00 00 00 00 00 00 00 00 00 00 00 00 00 00 00 00 00 00 00 dc 10
[ 1207.272360] i2c_hid i2c-WACF2200:00: input: 2a 00 0c 00 01 05 01 00 26 07 e0 0b 00 00 00 00 00 00 00 00 00 00 00 00 00 00 00 00 00 00 00 00 00 00 00 00 00 00 00 00 40 11
[ 1207.282067] i2c_hid i2c-WACF2200:00: input: 2a 00 0c 00 01 05 01 00 26 07 df 0b 00 00 00 00 00 00 00 00 00 00 00 00 00 00 00 00 00 00 00 00 00 00 00 00 00 00 00 00 a4 11
[ 1207.291658] i2c_hid i2c-WACF2200:00: input: 2a 00 0c 00 01 05 01 00 26 07 de 0b 00 00 00 00 00 00 00 00 00 00 00 00 00 00 00 00 00 00 00 00 00 00 00 00 00 00 00 00 08 12
[ 1207.300912] i2c_hid i2c-WACF2200:00: input: 2a 00 0c 00 01 05 01 00 26 07 dd 0b 00 00 00 00 00 00 00 00 00 00 00 00 00 00 00 00 00 00 00 00 00 00 00 00 00 00 00 00 6c 12
[ 1207.310683] i2c_hid i2c-WACF2200:00: input: 2a 00 0c 00 01 05 01 00 26 07 dc 0b 00 00 00 00 00 00 00 00 00 00 00 00 00 00 00 00 00 00 00 00 00 00 00 00 00 00 00 00 d0 12
[ 1207.320120] i2c_hid i2c-WACF2200:00: input: 2a 00 0c 00 01 05 01 00 26 07 db 0b 00 00 00 00 00 00 00 00 00 00 00 00 00 00 00 00 00 00 00 00 00 00 00 00 00 00 00 00 34 13
[ 1207.329707] i2c_hid i2c-WACF2200:00: input: 2a 00 0c 00 01 05 01 00 26 07 da 0b 00 00 00 00 00 00 00 00 00 00 00 00 00 00 00 00 00 00 00 00 00 00 00 00 00 00 00 00 98 13
[ 1207.339193] i2c_hid i2c-WACF2200:00: input: 2a 00 0c 00 01 05 01 00 26 07 d9 0b 00 00 00 00 00 00 00 00 00 00 00 00 00 00 00 00 00 00 00 00 00 00 00 00 00 00 00 00 fc 13
[ 1207.348756] i2c_hid i2c-WACF2200:00: input: 2a 00 0c 00 01 05 01 00 26 07 d8 0b 00 00 00 00 00 00 00 00 00 00 00 00 00 00 00 00 00 00 00 00 00 00 00 00 00 00 00 00 60 14
[ 1207.358221] i2c_hid i2c-WACF2200:00: input: 2a 00 0c 00 01 05 01 00 26 07 d7 0b 00 00 00 00 00 00 00 00 00 00 00 00 00 00 00 00 00 00 00 00 00 00 00 00 00 00 00 00 c4 14
[ 1207.367812] i2c_hid i2c-WACF2200:00: input: 2a 00 0c 00 01 05 01 00 26 07 d6 0b 00 00 00 00 00 00 00 00 00 00 00 00 00 00 00 00 00 00 00 00 00 00 00 00 00 00 00 00 28 15
[ 1207.377223] i2c_hid i2c-WACF2200:00: input: 2a 00 0c 00 01 05 01 00 26 07 d5 0b 00 00 00 00 00 00 00 00 00 00 00 00 00 00 00 00 00 00 00 00 00 00 00 00 00 00 00 00 8c 15
[ 1207.386829] i2c_hid i2c-WACF2200:00: input: 2a 00 0c 00 01 05 01 00 26 07 d4 0b 00 00 00 00 00 00 00 00 00 00 00 00 00 00 00 00 00 00 00 00 00 00 00 00 00 00 00 00 f0 15
