[   14.596354] i2c_designware i2c_designware.1: enabled=0x1 stat=0x514
[   14.596401] i2c_designware i2c_designware.1: enabled=0x1 stat=0x514
[   14.596418] i2c_designware i2c_designware.1: enabled=0x1 stat=0x710
[   14.596461] i2c_hid i2c-MSFT0021:00: input: 40 00 0b 06 00 00 00 00 00 00 a1 00 05 09 19 01 29 02 15 00 25 01 75 01 95 02 81 02 95 06 81 01 05 01 09 30 09 31 15 81 25 7f 75 08 95 02 81 06 c0 c0 05 0d 09 05 a1 01 85 03 05 0d 09 22 a1 02
[   14.596510] i2c_hid i2c-MSFT0021:00: i2c_hid_set_or_send_report
[   14.596511] i2c_hid i2c-MSFT0021:00: __i2c_hid_command: cmd=25 00 17 00 09 01 ff 00 02 00 00 00 00 00 00 00 00 00 00 00 00 00 00 00 00
[   14.596512] i2c_designware i2c_designware.1: i2c_dw_xfer: msgs: 1
[   14.596551] i2c_designware i2c_designware.1: enabled=0x1 stat=0x10
[   14.597192] i2c_designware i2c_designware.1: enabled=0x1 stat=0x710
[   14.597241] i2c_hid i2c-MSFT0021:00: i2c_hid_set_or_send_report
[   14.597242] i2c_hid i2c-MSFT0021:00: __i2c_hid_command: cmd=25 00 17 00 0a 00 e9 02 06 00 00 00 00 00 00 00 00 00 00 00 00 00 00 00 00
[   14.597244] i2c_designware i2c_designware.1: i2c_dw_xfer: msgs: 1
[   14.597271] i2c_designware i2c_designware.1: enabled=0x1 stat=0x10
[   14.597912] i2c_designware i2c_designware.1: enabled=0x1 stat=0x710
[   14.598062] i2c_designware i2c_designware.1: i2c_dw_xfer: msgs: 1
[   14.598095] i2c_designware i2c_designware.1: enabled=0x1 stat=0x10
[   14.598169] i2c_designware i2c_designware.1: enabled=0x1 stat=0x504
[   14.598216] i2c_designware i2c_designware.1: enabled=0x1 stat=0x504
[   14.598263] i2c_designware i2c_designware.1: enabled=0x1 stat=0x504
[   14.598310] i2c_designware i2c_designware.1: enabled=0x1 stat=0x504
[   14.598357] i2c_designware i2c_designware.1: enabled=0x1 stat=0x504
[   14.598404] i2c_designware i2c_designware.1: enabled=0x1 stat=0x504
[   14.598450] i2c_designware i2c_designware.1: enabled=0x1 stat=0x504
[   14.598495] i2c_designware i2c_designware.1: enabled=0x1 stat=0x514
[   14.598514] i2c_designware i2c_designware.1: enabled=0x1 stat=0x504
[   14.598530] i2c_designware i2c_designware.1: enabled=0x1 stat=0x504
[   14.598568] i2c_designware i2c_designware.1: enabled=0x1 stat=0x504
[   14.598615] i2c_designware i2c_designware.1: enabled=0x1 stat=0x504
[   14.598662] i2c_designware i2c_designware.1: enabled=0x1 stat=0x504
[   14.598709] i2c_designware i2c_designware.1: enabled=0x1 stat=0x504
[   14.598756] i2c_designware i2c_designware.1: enabled=0x1 stat=0x504
[   14.598802] i2c_designware i2c_designware.1: enabled=0x1 stat=0x504
[   14.598847] i2c_designware i2c_designware.1: enabled=0x1 stat=0x514
[   14.598866] i2c_designware i2c_designware.1: enabled=0x1 stat=0x504
[   14.598882] i2c_designware i2c_designware.1: enabled=0x1 stat=0x504
[   14.598920] i2c_designware i2c_designware.1: enabled=0x1 stat=0x504
[   14.598967] i2c_designware i2c_designware.1: enabled=0x1 stat=0x504
[   14.599014] i2c_designware i2c_designware.1: enabled=0x1 stat=0x504
[   14.599061] i2c_designware i2c_designware.1: enabled=0x1 stat=0x504
[   14.599108] i2c_designware i2c_designware.1: enabled=0x1 stat=0x504
[   14.599155] i2c_designware i2c_designware.1: enabled=0x1 stat=0x504
[   14.599199] i2c_designware i2c_designware.1: enabled=0x1 stat=0x514
[   14.599217] i2c_designware i2c_designware.1: enabled=0x1 stat=0x504
[   14.599243] i2c_designware i2c_designware.1: enabled=0x1 stat=0x514
[   14.599282] i2c_designware i2c_designware.1: enabled=0x1 stat=0x514
[   14.599320] i2c_designware i2c_designware.1: enabled=0x1 stat=0x514
[   14.599366] i2c_designware i2c_designware.1: enabled=0x1 stat=0x514
[   14.599412] i2c_designware i2c_designware.1: enabled=0x1 stat=0x514
[   14.599459] i2c_designware i2c_designware.1: enabled=0x1 stat=0x514
[   14.599506] i2c_designware i2c_designware.1: enabled=0x1 stat=0x514
[   14.599553] i2c_designware i2c_designware.1: enabled=0x1 stat=0x514
[   14.599600] i2c_designware i2c_designware.1: enabled=0x1 stat=0x514
[   14.599647] i2c_designware i2c_designware.1: enabled=0x1 stat=0x714
[   14.599690] i2c_hid i2c-MSFT0021:00: input: 40 00 0b 06 07 00 01 00 01 30 a1 00 05 09 19 01 29 02 15 00 25 01 75 01 95 02 81 02 95 06 81 01 05 01 09 30 09 31 15 81 25 7f 75 08 95 02 81 06 c0 c0 05 0d 09 05 a1 01 85 03 05 0d 09 22 a1 02
[   14.599702] i2c_hid i2c-MSFT0021:00: i2c_hid_set_or_send_report
[   14.599703] i2c_hid i2c-MSFT0021:00: __i2c_hid_command: cmd=25 00 17 00 0a 00 e3 02 06 00 00 00 00 00 00 00 00 00 00 00 00 00 00 00 00
[   14.599705] i2c_designware i2c_designware.1: i2c_dw_xfer: msgs: 1
[   14.599744] i2c_designware i2c_designware.1: enabled=0x1 stat=0x10
[   14.600386] i2c_designware i2c_designware.1: enabled=0x1 stat=0x710
[   14.600534] i2c_designware i2c_designware.1: i2c_dw_xfer: msgs: 1
[   14.600566] i2c_designware i2c_designware.1: enabled=0x1 stat=0x10
[   14.600641] i2c_designware i2c_designware.1: enabled=0x1 stat=0x504
[   14.600688] i2c_designware i2c_designware.1: enabled=0x1 stat=0x504
[   14.600734] i2c_designware i2c_designware.1: enabled=0x1 stat=0x504
[   14.600781] i2c_designware i2c_designware.1: enabled=0x1 stat=0x504
[   14.600828] i2c_designware i2c_designware.1: enabled=0x1 stat=0x504
[   14.600876] i2c_designware i2c_designware.1: enabled=0x1 stat=0x504
[   14.600922] i2c_designware i2c_designware.1: enabled=0x1 stat=0x504
[   14.600966] i2c_designware i2c_designware.1: enabled=0x1 stat=0x514
[   14.600986] i2c_designware i2c_designware.1: enabled=0x1 stat=0x504
[   14.601002] i2c_designware i2c_designware.1: enabled=0x1 stat=0x504
[   14.601040] i2c_designware i2c_designware.1: enabled=0x1 stat=0x504
[   14.601086] i2c_designware i2c_designware.1: enabled=0x1 stat=0x504
[   14.601133] i2c_designware i2c_designware.1: enabled=0x1 stat=0x504
[   14.601180] i2c_designware i2c_designware.1: enabled=0x1 stat=0x504
[   14.601227] i2c_designware i2c_designware.1: enabled=0x1 stat=0x504
[   14.601274] i2c_designware i2c_designware.1: enabled=0x1 stat=0x504
[   14.601318] i2c_designware i2c_designware.1: enabled=0x1 stat=0x514
[   14.601337] i2c_designware i2c_designware.1: enabled=0x1 stat=0x504
[   14.601353] i2c_designware i2c_designware.1: enabled=0x1 stat=0x504
[   14.601392] i2c_designware i2c_designware.1: enabled=0x1 stat=0x504
[   14.601438] i2c_designware i2c_designware.1: enabled=0x1 stat=0x504
[   14.601485] i2c_designware i2c_designware.1: enabled=0x1 stat=0x504
[   14.601532] i2c_designware i2c_designware.1: enabled=0x1 stat=0x504
[   14.601579] i2c_designware i2c_designware.1: enabled=0x1 stat=0x504
[   14.601626] i2c_designware i2c_designware.1: enabled=0x1 stat=0x504
[   14.601670] i2c_designware i2c_designware.1: enabled=0x1 stat=0x514
[   14.601688] i2c_designware i2c_designware.1: enabled=0x1 stat=0x504
[   14.601718] i2c_designware i2c_designware.1: enabled=0x1 stat=0x514
[   14.601767] i2c_designware i2c_designware.1: enabled=0x1 stat=0x514
[   14.601813] i2c_designware i2c_designware.1: enabled=0x1 stat=0x514
[   14.601860] i2c_designware i2c_designware.1: enabled=0x1 stat=0x514
[   14.601907] i2c_designware i2c_designware.1: enabled=0x1 stat=0x514
[   14.601954] i2c_designware i2c_designware.1: enabled=0x1 stat=0x514
[   14.602001] i2c_designware i2c_designware.1: enabled=0x1 stat=0x514
[   14.602048] i2c_designware i2c_designware.1: enabled=0x1 stat=0x514
[   14.602095] i2c_designware i2c_designware.1: enabled=0x1 stat=0x514
[   14.602112] i2c_designware i2c_designware.1: enabled=0x1 stat=0x710
[   14.602159] i2c_hid i2c-MSFT0021:00: input: 40 00 0b 06 00 00 00 00 00 00 a1 00 05 09 19 01 29 02 15 00 25 01 75 01 95 02 81 02 95 06 81 01 05 01 09 30 09 31 15 81 25 7f 75 08 95 02 81 06 c0 c0 05 0d 09 05 a1 01 85 03 05 0d 09 22 a1 02
[   14.602167] i2c_hid i2c-MSFT0021:00: i2c_hid_set_or_send_report
[   14.602168] i2c_hid i2c-MSFT0021:00: __i2c_hid_command: cmd=25 00 17 00 09 01 ff 00 03 00 00 00 00 00 00 00 00 00 00 00 00 00 00 00 00
[   14.602169] i2c_designware i2c_designware.1: i2c_dw_xfer: msgs: 1
[   14.602199] i2c_designware i2c_designware.1: enabled=0x1 stat=0x10
[   14.602841] i2c_designware i2c_designware.1: enabled=0x1 stat=0x710
[   14.602848] i2c_hid i2c-MSFT0021:00: i2c_hid_set_or_send_report
[   14.602849] i2c_hid i2c-MSFT0021:00: __i2c_hid_command: cmd=25 00 17 00 0a 00 e9 03 06 00 00 00 00 00 00 00 00 00 00 00 00 00 00 00 00
[   14.602850] i2c_designware i2c_designware.1: i2c_dw_xfer: msgs: 1
[   14.602879] i2c_designware i2c_designware.1: enabled=0x1 stat=0x10
[   14.603521] i2c_designware i2c_designware.1: enabled=0x1 stat=0x710
[   14.603673] i2c_designware i2c_designware.1: i2c_dw_xfer: msgs: 1
[   14.603705] i2c_designware i2c_designware.1: enabled=0x1 stat=0x10
[   14.603779] i2c_designware i2c_designware.1: enabled=0x1 stat=0x504
[   14.603826] i2c_designware i2c_designware.1: enabled=0x1 stat=0x504
[   14.603873] i2c_designware i2c_designware.1: enabled=0x1 stat=0x504
[   14.603920] i2c_designware i2c_designware.1: enabled=0x1 stat=0x504
[   14.603967] i2c_designware i2c_designware.1: enabled=0x1 stat=0x504
[   14.604014] i2c_designware i2c_designware.1: enabled=0x1 stat=0x504
[   14.604061] i2c_designware i2c_designware.1: enabled=0x1 stat=0x504
[   14.604106] i2c_designware i2c_designware.1: enabled=0x1 stat=0x514
[   14.604125] i2c_designware i2c_designware.1: enabled=0x1 stat=0x504
[   14.604140] i2c_designware i2c_designware.1: enabled=0x1 stat=0x504
[   14.604179] i2c_designware i2c_designware.1: enabled=0x1 stat=0x504
[   14.604225] i2c_designware i2c_designware.1: enabled=0x1 stat=0x504
[   14.604272] i2c_designware i2c_designware.1: enabled=0x1 stat=0x504
[   14.604319] i2c_designware i2c_designware.1: enabled=0x1 stat=0x504
[   14.604366] i2c_designware i2c_designware.1: enabled=0x1 stat=0x504
[   14.604412] i2c_designware i2c_designware.1: enabled=0x1 stat=0x504
[   14.604457] i2c_designware i2c_designware.1: enabled=0x1 stat=0x514
[   14.604476] i2c_designware i2c_designware.1: enabled=0x1 stat=0x504
[   14.604492] i2c_designware i2c_designware.1: enabled=0x1 stat=0x504
[   14.604531] i2c_designware i2c_designware.1: enabled=0x1 stat=0x504
[   14.604577] i2c_designware i2c_designware.1: enabled=0x1 stat=0x504
[   14.604623] i2c_designware i2c_designware.1: enabled=0x1 stat=0x504
[   14.604670] i2c_designware i2c_designware.1: enabled=0x1 stat=0x504
[   14.604717] i2c_designware i2c_designware.1: enabled=0x1 stat=0x504
[   14.604764] i2c_designware i2c_designware.1: enabled=0x1 stat=0x504
[   14.604809] i2c_designware i2c_designware.1: enabled=0x1 stat=0x514
[   14.604827] i2c_designware i2c_designware.1: enabled=0x1 stat=0x504
[   14.604843] i2c_designware i2c_designware.1: enabled=0x1 stat=0x514
[   14.604882] i2c_designware i2c_designware.1: enabled=0x1 stat=0x514
[   14.604928] i2c_designware i2c_designware.1: enabled=0x1 stat=0x514
[   14.604975] i2c_designware i2c_designware.1: enabled=0x1 stat=0x514
[   14.605022] i2c_designware i2c_designware.1: enabled=0x1 stat=0x514
[   14.605069] i2c_designware i2c_designware.1: enabled=0x1 stat=0x514
[   14.605116] i2c_designware i2c_designware.1: enabled=0x1 stat=0x514
[   14.605163] i2c_designware i2c_designware.1: enabled=0x1 stat=0x514
[   14.605210] i2c_designware i2c_designware.1: enabled=0x1 stat=0x514
[   14.605257] i2c_designware i2c_designware.1: enabled=0x1 stat=0x714
[   14.605305] i2c_hid i2c-MSFT0021:00: input: 40 00 0b 06 06 05 00 00 01 55 a1 00 05 09 19 01 29 02 15 00 25 01 75 01 95 02 81 02 95 06 81 01 05 01 09 30 09 31 15 81 25 7f 75 08 95 02 81 06 c0 c0 05 0d 09 05 a1 01 85 03 05 0d 09 22 a1 02
[   14.605314] i2c_hid i2c-MSFT0021:00: i2c_hid_set_or_send_report
[   14.605315] i2c_hid i2c-MSFT0021:00: __i2c_hid_command: cmd=25 00 17 00 0a 00 e3 03 06 00 00 00 00 00 00 00 00 00 00 00 00 00 00 00 00
[   14.605316] i2c_designware i2c_designware.1: i2c_dw_xfer: msgs: 1
[   14.605346] i2c_designware i2c_designware.1: enabled=0x1 stat=0x10
[   14.605988] i2c_designware i2c_designware.1: enabled=0x1 stat=0x710
[   14.606130] i2c_designware i2c_designware.1: i2c_dw_xfer: msgs: 1
[   14.606163] i2c_designware i2c_designware.1: enabled=0x1 stat=0x10
[   14.606238] i2c_designware i2c_designware.1: enabled=0x1 stat=0x504
[   14.606285] i2c_designware i2c_designware.1: enabled=0x1 stat=0x504
[   14.606331] i2c_designware i2c_designware.1: enabled=0x1 stat=0x504
[   14.606378] i2c_designware i2c_designware.1: enabled=0x1 stat=0x504
[   14.606427] i2c_designware i2c_designware.1: enabled=0x1 stat=0x504
[   14.606473] i2c_designware i2c_designware.1: enabled=0x1 stat=0x504
[   14.606519] i2c_designware i2c_designware.1: enabled=0x1 stat=0x504
[   14.606563] i2c_designware i2c_designware.1: enabled=0x1 stat=0x514
[   14.606583] i2c_designware i2c_designware.1: enabled=0x1 stat=0x504
[   14.606598] i2c_designware i2c_designware.1: enabled=0x1 stat=0x504
[   14.606642] i2c_designware i2c_designware.1: enabled=0x1 stat=0x504
[   14.606684] i2c_designware i2c_designware.1: enabled=0x1 stat=0x504
[   14.606730] i2c_designware i2c_designware.1: enabled=0x1 stat=0x504
[   14.606777] i2c_designware i2c_designware.1: enabled=0x1 stat=0x504
[   14.606824] i2c_designware i2c_designware.1: enabled=0x1 stat=0x504
[   14.606871] i2c_designware i2c_designware.1: enabled=0x1 stat=0x504
[   14.606915] i2c_designware i2c_designware.1: enabled=0x1 stat=0x514
[   14.606934] i2c_designware i2c_designware.1: enabled=0x1 stat=0x504
[   14.606950] i2c_designware i2c_designware.1: enabled=0x1 stat=0x504
[   14.606988] i2c_designware i2c_designware.1: enabled=0x1 stat=0x504
[   14.607035] i2c_designware i2c_designware.1: enabled=0x1 stat=0x504
[   14.607082] i2c_designware i2c_designware.1: enabled=0x1 stat=0x504
[   14.607129] i2c_designware i2c_designware.1: enabled=0x1 stat=0x504
[   14.607176] i2c_designware i2c_designware.1: enabled=0x1 stat=0x504
[   14.607222] i2c_designware i2c_designware.1: enabled=0x1 stat=0x504
[   14.607267] i2c_designware i2c_designware.1: enabled=0x1 stat=0x514
[   14.607285] i2c_designware i2c_designware.1: enabled=0x1 stat=0x504
[   14.607315] i2c_designware i2c_designware.1: enabled=0x1 stat=0x514
[   14.607363] i2c_designware i2c_designware.1: enabled=0x1 stat=0x514
[   14.607410] i2c_designware i2c_designware.1: enabled=0x1 stat=0x514
[   14.607457] i2c_designware i2c_designware.1: enabled=0x1 stat=0x514
[   14.607504] i2c_designware i2c_designware.1: enabled=0x1 stat=0x514
[   14.607551] i2c_designware i2c_designware.1: enabled=0x1 stat=0x514
[   14.607598] i2c_designware i2c_designware.1: enabled=0x1 stat=0x514
[   14.607645] i2c_designware i2c_designware.1: enabled=0x1 stat=0x514
[   14.607693] i2c_designware i2c_designware.1: enabled=0x1 stat=0x514
[   14.607710] i2c_designware i2c_designware.1: enabled=0x1 stat=0x710
[   14.607754] i2c_hid i2c-MSFT0021:00: input: 40 00 0b 06 00 00 00 00 00 00 a1 00 05 09 19 01 29 02 15 00 25 01 75 01 95 02 81 02 95 06 81 01 05 01 09 30 09 31 15 81 25 7f 75 08 95 02 81 06 c0 c0 05 0d 09 05 a1 01 85 03 05 0d 09 22 a1 02
[   14.607800] i2c_hid i2c-MSFT0021:00: i2c_hid_set_or_send_report
[   14.607802] i2c_hid i2c-MSFT0021:00: __i2c_hid_command: cmd=25 00 17 00 09 01 ff 00 04 00 00 00 00 00 00 00 00 00 00 00 00 00 00 00 00
[   14.607803] i2c_designware i2c_designware.1: i2c_dw_xfer: msgs: 1
[   14.607841] i2c_designware i2c_designware.1: enabled=0x1 stat=0x10
[   14.608482] i2c_designware i2c_designware.1: enabled=0x1 stat=0x710
[   14.608528] i2c_hid i2c-MSFT0021:00: i2c_hid_set_or_send_report
[   14.608529] i2c_hid i2c-MSFT0021:00: __i2c_hid_command: cmd=25 00 17 00 0a 00 e9 04 06 00 00 00 00 00 00 00 00 00 00 00 00 00 00 00 00
[   14.608530] i2c_designware i2c_designware.1: i2c_dw_xfer: msgs: 1
[   14.608558] i2c_designware i2c_designware.1: enabled=0x1 stat=0x10
[   14.609200] i2c_designware i2c_designware.1: enabled=0x1 stat=0x710
[   14.609351] i2c_designware i2c_designware.1: i2c_dw_xfer: msgs: 1
[   14.609384] i2c_designware i2c_designware.1: enabled=0x1 stat=0x10
[   14.609458] i2c_designware i2c_designware.1: enabled=0x1 stat=0x504
[   14.609505] i2c_designware i2c_designware.1: enabled=0x1 stat=0x504
[   14.609552] i2c_designware i2c_designware.1: enabled=0x1 stat=0x504
[   14.609599] i2c_designware i2c_designware.1: enabled=0x1 stat=0x504
[   14.609647] i2c_designware i2c_designware.1: enabled=0x1 stat=0x504
[   14.609694] i2c_designware i2c_designware.1: enabled=0x1 stat=0x504
[   14.609740] i2c_designware i2c_designware.1: enabled=0x1 stat=0x504
[   14.609785] i2c_designware i2c_designware.1: enabled=0x1 stat=0x514
[   14.609805] i2c_designware i2c_designware.1: enabled=0x1 stat=0x504
[   14.609844] i2c_designware i2c_designware.1: enabled=0x1 stat=0x504
[   14.609885] i2c_designware i2c_designware.1: enabled=0x1 stat=0x504
[   14.609928] i2c_designware i2c_designware.1: enabled=0x1 stat=0x504
[   14.609975] i2c_designware i2c_designware.1: enabled=0x1 stat=0x504
[   14.610022] i2c_designware i2c_designware.1: enabled=0x1 stat=0x504
[   14.610069] i2c_designware i2c_designware.1: enabled=0x1 stat=0x504
[   14.610116] i2c_designware i2c_designware.1: enabled=0x1 stat=0x514
[   14.610162] i2c_designware i2c_designware.1: enabled=0x1 stat=0x504
[   14.610209] i2c_designware i2c_designware.1: enabled=0x1 stat=0x504
[   14.610256] i2c_designware i2c_designware.1: enabled=0x1 stat=0x504
[   14.610303] i2c_designware i2c_designware.1: enabled=0x1 stat=0x504
[   14.610350] i2c_designware i2c_designware.1: enabled=0x1 stat=0x504
[   14.610396] i2c_designware i2c_designware.1: enabled=0x1 stat=0x504
[   14.610445] i2c_designware i2c_designware.1: enabled=0x1 stat=0x504
[   14.610492] i2c_designware i2c_designware.1: enabled=0x1 stat=0x514
[   14.610538] i2c_designware i2c_designware.1: enabled=0x1 stat=0x514
[   14.610585] i2c_designware i2c_designware.1: enabled=0x1 stat=0x514
[   14.610632] i2c_designware i2c_designware.1: enabled=0x1 stat=0x514
[   14.610679] i2c_designware i2c_designware.1: enabled=0x1 stat=0x514
[   14.610727] i2c_designware i2c_designware.1: enabled=0x1 stat=0x514
[   14.610772] i2c_designware i2c_designware.1: enabled=0x1 stat=0x514
[   14.610820] i2c_designware i2c_designware.1: enabled=0x1 stat=0x514
[   14.610867] i2c_designware i2c_designware.1: enabled=0x1 stat=0x514
[   14.610912] i2c_designware i2c_designware.1: enabled=0x1 stat=0x514
[   14.610931] i2c_designware i2c_designware.1: enabled=0x1 stat=0x710
[   14.610993] i2c_hid i2c-MSFT0021:00: input: 40 00 0b 06 00 00 00 00 00 00 a1 00 05 09 19 01 29 02 15 00 25 01 75 01 95 02 81 02 95 06 81 01 05 01 09 30 09 31 15 81 25 7f 75 08 95 02 81 06 c0 c0 05 0d 09 05 a1 01 85 03 05 0d 09 22 a1 02
[   14.611069] i2c_hid i2c-MSFT0021:00: i2c_hid_set_or_send_report
[   14.611071] i2c_hid i2c-MSFT0021:00: __i2c_hid_command: cmd=25 00 17 00 0a 00 2e 00 0b 00 00 00 00 00 00 00 00 00 00 00 00 00 00 00 00
[   14.611074] i2c_designware i2c_designware.1: i2c_dw_xfer: msgs: 1
[   14.611121] i2c_designware i2c_designware.1: enabled=0x1 stat=0x10
[   14.611765] i2c_designware i2c_designware.1: enabled=0x1 stat=0x710
[   14.611976] i2c_designware i2c_designware.1: i2c_dw_xfer: msgs: 1
[   14.612008] i2c_designware i2c_designware.1: enabled=0x1 stat=0x10
[   14.612083] i2c_designware i2c_designware.1: enabled=0x1 stat=0x504
[   14.612129] i2c_designware i2c_designware.1: enabled=0x1 stat=0x504
[   14.612177] i2c_designware i2c_designware.1: enabled=0x1 stat=0x504
[   14.612223] i2c_designware i2c_designware.1: enabled=0x1 stat=0x504
[   14.612271] i2c_designware i2c_designware.1: enabled=0x1 stat=0x504
[   14.612317] i2c_designware i2c_designware.1: enabled=0x1 stat=0x504
[   14.612364] i2c_designware i2c_designware.1: enabled=0x1 stat=0x504
[   14.612408] i2c_designware i2c_designware.1: enabled=0x1 stat=0x514
[   14.612428] i2c_designware i2c_designware.1: enabled=0x1 stat=0x504
[   14.612444] i2c_designware i2c_designware.1: enabled=0x1 stat=0x504
[   14.612481] i2c_designware i2c_designware.1: enabled=0x1 stat=0x504
[   14.612529] i2c_designware i2c_designware.1: enabled=0x1 stat=0x504
[   14.612575] i2c_designware i2c_designware.1: enabled=0x1 stat=0x504
[   14.612622] i2c_designware i2c_designware.1: enabled=0x1 stat=0x504
[   14.612669] i2c_designware i2c_designware.1: enabled=0x1 stat=0x504
[   14.612716] i2c_designware i2c_designware.1: enabled=0x1 stat=0x504
[   14.612760] i2c_designware i2c_designware.1: enabled=0x1 stat=0x514
[   14.612780] i2c_designware i2c_designware.1: enabled=0x1 stat=0x504
[   14.612796] i2c_designware i2c_designware.1: enabled=0x1 stat=0x504
[   14.612834] i2c_designware i2c_designware.1: enabled=0x1 stat=0x504
[   14.612880] i2c_designware i2c_designware.1: enabled=0x1 stat=0x504
[   14.612927] i2c_designware i2c_designware.1: enabled=0x1 stat=0x504
[   14.612999] i2c_designware i2c_designware.1: enabled=0x1 stat=0x504
[   14.613044] i2c_designware i2c_designware.1: enabled=0x1 stat=0x504
[   14.613092] i2c_designware i2c_designware.1: enabled=0x1 stat=0x514
[   14.613138] i2c_designware i2c_designware.1: enabled=0x1 stat=0x514
[   14.613185] i2c_designware i2c_designware.1: enabled=0x1 stat=0x514
[   14.613232] i2c_designware i2c_designware.1: enabled=0x1 stat=0x514
[   14.613279] i2c_designware i2c_designware.1: enabled=0x1 stat=0x514
[   14.613326] i2c_designware i2c_designware.1: enabled=0x1 stat=0x514
[   14.613373] i2c_designware i2c_designware.1: enabled=0x1 stat=0x514
[   14.613420] i2c_designware i2c_designware.1: enabled=0x1 stat=0x514
[   14.613467] i2c_designware i2c_designware.1: enabled=0x1 stat=0x514
[   14.613513] i2c_designware i2c_designware.1: enabled=0x1 stat=0x514
[   14.613560] i2c_designware i2c_designware.1: enabled=0x1 stat=0x714
[   14.613612] i2c_hid i2c-MSFT0021:00: input: 40 00 0b 0b 01 e0 01 03 00 00 00 00 00 00 da 01 29 02 15 00 25 01 75 01 95 02 81 02 95 06 81 01 05 01 09 30 09 31 15 81 25 7f 75 08 95 02 81 06 c0 c0 05 0d 09 05 a1 01 85 03 05 0d 09 22 a1 02
[   14.613666] i2c_hid i2c-MSFT0021:00: i2c_hid_set_or_send_report
[   14.613667] i2c_hid i2c-MSFT0021:00: __i2c_hid_command: cmd=25 00 17 00 0a 00 39 00 0a 00 00 00 00 00 00 00 00 00 00 00 00 00 00 00 00
[   14.613669] i2c_designware i2c_designware.1: i2c_dw_xfer: msgs: 1
[   14.613706] i2c_designware i2c_designware.1: enabled=0x1 stat=0x10
[   14.614347] i2c_designware i2c_designware.1: enabled=0x1 stat=0x710
[   14.614554] i2c_designware i2c_designware.1: i2c_dw_xfer: msgs: 1
[   14.614587] i2c_designware i2c_designware.1: enabled=0x1 stat=0x10
[   14.614662] i2c_designware i2c_designware.1: enabled=0x1 stat=0x504
[   14.614708] i2c_designware i2c_designware.1: enabled=0x1 stat=0x504
[   14.614755] i2c_designware i2c_designware.1: enabled=0x1 stat=0x504
[   14.614803] i2c_designware i2c_designware.1: enabled=0x1 stat=0x504
[   14.614849] i2c_designware i2c_designware.1: enabled=0x1 stat=0x504
[   14.614896] i2c_designware i2c_designware.1: enabled=0x1 stat=0x504
[   14.614943] i2c_designware i2c_designware.1: enabled=0x1 stat=0x504
[   14.614987] i2c_designware i2c_designware.1: enabled=0x1 stat=0x514
[   14.615006] i2c_designware i2c_designware.1: enabled=0x1 stat=0x504
[   14.615055] i2c_designware i2c_designware.1: enabled=0x1 stat=0x504
[   14.615124] i2c_designware i2c_designware.1: enabled=0x1 stat=0x504
[   14.615140] i2c_designware i2c_designware.1: enabled=0x1 stat=0x504
[   14.615179] i2c_designware i2c_designware.1: enabled=0x1 stat=0x504
[   14.615224] i2c_designware i2c_designware.1: enabled=0x1 stat=0x504
[   14.615271] i2c_designware i2c_designware.1: enabled=0x1 stat=0x504
[   14.615318] i2c_designware i2c_designware.1: enabled=0x1 stat=0x514
[   14.615365] i2c_designware i2c_designware.1: enabled=0x1 stat=0x504
[   14.615412] i2c_designware i2c_designware.1: enabled=0x1 stat=0x504
[   14.615459] i2c_designware i2c_designware.1: enabled=0x1 stat=0x504
[   14.615506] i2c_designware i2c_designware.1: enabled=0x1 stat=0x504
[   14.615553] i2c_designware i2c_designware.1: enabled=0x1 stat=0x504
[   14.615599] i2c_designware i2c_designware.1: enabled=0x1 stat=0x504
[   14.615647] i2c_designware i2c_designware.1: enabled=0x1 stat=0x504
[   14.615691] i2c_designware i2c_designware.1: enabled=0x1 stat=0x514
[   14.615709] i2c_designware i2c_designware.1: enabled=0x1 stat=0x504
[   14.615735] i2c_designware i2c_designware.1: enabled=0x1 stat=0x514
[   14.615751] i2c_designware i2c_designware.1: enabled=0x1 stat=0x514
[   14.615788] i2c_designware i2c_designware.1: enabled=0x1 stat=0x514
[   14.615834] i2c_designware i2c_designware.1: enabled=0x1 stat=0x514
[   14.615881] i2c_designware i2c_designware.1: enabled=0x1 stat=0x514
[   14.615928] i2c_designware i2c_designware.1: enabled=0x1 stat=0x514
[   14.615975] i2c_designware i2c_designware.1: enabled=0x1 stat=0x514
[   14.616022] i2c_designware i2c_designware.1: enabled=0x1 stat=0x514
[   14.616069] i2c_designware i2c_designware.1: enabled=0x1 stat=0x514
[   14.616115] i2c_designware i2c_designware.1: enabled=0x1 stat=0x514
[   14.616133] i2c_designware i2c_designware.1: enabled=0x1 stat=0x710
[   14.616173] i2c_hid i2c-MSFT0021:00: input: 40 00 0b 0a 54 4d 33 35 30 34 2d 30 30 31 da 01 29 02 15 00 25 01 75 01 95 02 81 02 95 06 81 01 05 01 09 30 09 31 15 81 25 7f 75 08 95 02 81 06 c0 c0 05 0d 09 05 a1 01 85 03 05 0d 09 22 a1 02
[   14.616507] i2c_hid i2c-MSFT0021:00: i2c_hid_set_or_send_report
[   14.616508] i2c_hid i2c-MSFT0021:00: __i2c_hid_command: cmd=25 00 17 00 0a 00 43 00 01 00 00 00 00 00 00 00 00 00 00 00 00 00 00 00 00
[   14.616509] i2c_designware i2c_designware.1: i2c_dw_xfer: msgs: 1
[   14.616547] i2c_designware i2c_designware.1: enabled=0x1 stat=0x10
[   14.617188] i2c_designware i2c_designware.1: enabled=0x1 stat=0x710
[   14.617280] i2c_designware i2c_designware.1: i2c_dw_xfer: msgs: 1
[   14.617313] i2c_designware i2c_designware.1: enabled=0x1 stat=0x10
[   14.617387] i2c_designware i2c_designware.1: enabled=0x1 stat=0x504
[   14.617434] i2c_designware i2c_designware.1: enabled=0x1 stat=0x504
[   14.617481] i2c_designware i2c_designware.1: enabled=0x1 stat=0x504
[   14.617528] i2c_designware i2c_designware.1: enabled=0x1 stat=0x504
[   14.617575] i2c_designware i2c_designware.1: enabled=0x1 stat=0x504
[   14.617622] i2c_designware i2c_designware.1: enabled=0x1 stat=0x504
[   14.617669] i2c_designware i2c_designware.1: enabled=0x1 stat=0x504
[   14.617713] i2c_designware i2c_designware.1: enabled=0x1 stat=0x514
[   14.617732] i2c_designware i2c_designware.1: enabled=0x1 stat=0x504
[   14.617748] i2c_designware i2c_designware.1: enabled=0x1 stat=0x504
[   14.617786] i2c_designware i2c_designware.1: enabled=0x1 stat=0x504
[   14.617833] i2c_designware i2c_designware.1: enabled=0x1 stat=0x504
[   14.617880] i2c_designware i2c_designware.1: enabled=0x1 stat=0x504
[   14.617927] i2c_designware i2c_designware.1: enabled=0x1 stat=0x504
[   14.617973] i2c_designware i2c_designware.1: enabled=0x1 stat=0x504
[   14.618021] i2c_designware i2c_designware.1: enabled=0x1 stat=0x504
[   14.618065] i2c_designware i2c_designware.1: enabled=0x1 stat=0x514
[   14.618084] i2c_designware i2c_designware.1: enabled=0x1 stat=0x504
[   14.618100] i2c_designware i2c_designware.1: enabled=0x1 stat=0x504
[   14.618138] i2c_designware i2c_designware.1: enabled=0x1 stat=0x504
[   14.618185] i2c_designware i2c_designware.1: enabled=0x1 stat=0x504
[   14.618232] i2c_designware i2c_designware.1: enabled=0x1 stat=0x504
[   14.618279] i2c_designware i2c_designware.1: enabled=0x1 stat=0x504
[   14.618326] i2c_designware i2c_designware.1: enabled=0x1 stat=0x504
[   14.618372] i2c_designware i2c_designware.1: enabled=0x1 stat=0x504
[   14.618417] i2c_designware i2c_designware.1: enabled=0x1 stat=0x514
[   14.618435] i2c_designware i2c_designware.1: enabled=0x1 stat=0x504
[   14.618470] i2c_designware i2c_designware.1: enabled=0x1 stat=0x514
[   14.618514] i2c_designware i2c_designware.1: enabled=0x1 stat=0x514
[   14.618560] i2c_designware i2c_designware.1: enabled=0x1 stat=0x514
[   14.618607] i2c_designware i2c_designware.1: enabled=0x1 stat=0x514
[   14.618654] i2c_designware i2c_designware.1: enabled=0x1 stat=0x514
[   14.618701] i2c_designware i2c_designware.1: enabled=0x1 stat=0x514
[   14.618747] i2c_designware i2c_designware.1: enabled=0x1 stat=0x514
[   14.618795] i2c_designware i2c_designware.1: enabled=0x1 stat=0x514
[   14.618842] i2c_designware i2c_designware.1: enabled=0x1 stat=0x514
[   14.618859] i2c_designware i2c_designware.1: enabled=0x1 stat=0x710
[   14.618900] i2c_hid i2c-MSFT0021:00: input: 40 00 0b 01 a9 4d 33 35 30 34 2d 30 30 31 da 01 29 02 15 00 25 01 75 01 95 02 81 02 95 06 81 01 05 01 09 30 09 31 15 81 25 7f 75 08 95 02 81 06 c0 c0 05 0d 09 05 a1 01 85 03 05 0d 09 22 a1 02
[   14.618944] i2c_hid i2c-MSFT0021:00: i2c_hid_set_or_send_report
[   14.618945] i2c_hid i2c-MSFT0021:00: __i2c_hid_command: cmd=25 00 17 00 0a 00 44 00 01 00 00 00 00 00 00 00 00 00 00 00 00 00 00 00 00
[   14.618946] i2c_designware i2c_designware.1: i2c_dw_xfer: msgs: 1
[   14.618984] i2c_designware i2c_designware.1: enabled=0x1 stat=0x10
[   14.619626] i2c_designware i2c_designware.1: enabled=0x1 stat=0x710
[   14.619722] i2c_designware i2c_designware.1: i2c_dw_xfer: msgs: 1
[   14.619754] i2c_designware i2c_designware.1: enabled=0x1 stat=0x10
[   14.619828] i2c_designware i2c_designware.1: enabled=0x1 stat=0x504
[   14.619875] i2c_designware i2c_designware.1: enabled=0x1 stat=0x504
[   14.619922] i2c_designware i2c_designware.1: enabled=0x1 stat=0x504
[   14.619969] i2c_designware i2c_designware.1: enabled=0x1 stat=0x504
[   14.620016] i2c_designware i2c_designware.1: enabled=0x1 stat=0x504
[   14.620063] i2c_designware i2c_designware.1: enabled=0x1 stat=0x504
[   14.620110] i2c_designware i2c_designware.1: enabled=0x1 stat=0x504
[   14.620154] i2c_designware i2c_designware.1: enabled=0x1 stat=0x514
[   14.620173] i2c_designware i2c_designware.1: enabled=0x1 stat=0x504
[   14.620189] i2c_designware i2c_designware.1: enabled=0x1 stat=0x504
[   14.620227] i2c_designware i2c_designware.1: enabled=0x1 stat=0x504
[   14.620274] i2c_designware i2c_designware.1: enabled=0x1 stat=0x504
[   14.620321] i2c_designware i2c_designware.1: enabled=0x1 stat=0x504
[   14.620368] i2c_designware i2c_designware.1: enabled=0x1 stat=0x504
[   14.620415] i2c_designware i2c_designware.1: enabled=0x1 stat=0x504
[   14.620462] i2c_designware i2c_designware.1: enabled=0x1 stat=0x504
[   14.620506] i2c_designware i2c_designware.1: enabled=0x1 stat=0x514
[   14.620525] i2c_designware i2c_designware.1: enabled=0x1 stat=0x504
[   14.620541] i2c_designware i2c_designware.1: enabled=0x1 stat=0x504
[   14.620579] i2c_designware i2c_designware.1: enabled=0x1 stat=0x504
[   14.620626] i2c_designware i2c_designware.1: enabled=0x1 stat=0x504
[   14.620673] i2c_designware i2c_designware.1: enabled=0x1 stat=0x504
[   14.620719] i2c_designware i2c_designware.1: enabled=0x1 stat=0x504
[   14.620767] i2c_designware i2c_designware.1: enabled=0x1 stat=0x504
[   14.620813] i2c_designware i2c_designware.1: enabled=0x1 stat=0x504
[   14.620858] i2c_designware i2c_designware.1: enabled=0x1 stat=0x514
[   14.620876] i2c_designware i2c_designware.1: enabled=0x1 stat=0x504
[   14.620902] i2c_designware i2c_designware.1: enabled=0x1 stat=0x514
[   14.620918] i2c_designware i2c_designware.1: enabled=0x1 stat=0x514
[   14.620956] i2c_designware i2c_designware.1: enabled=0x1 stat=0x514
[   14.621001] i2c_designware i2c_designware.1: enabled=0x1 stat=0x514
[   14.621048] i2c_designware i2c_designware.1: enabled=0x1 stat=0x514
[   14.621095] i2c_designware i2c_designware.1: enabled=0x1 stat=0x514
[   14.621142] i2c_designware i2c_designware.1: enabled=0x1 stat=0x514
[   14.621189] i2c_designware i2c_designware.1: enabled=0x1 stat=0x514
[   14.621236] i2c_designware i2c_designware.1: enabled=0x1 stat=0x514
[   14.621282] i2c_designware i2c_designware.1: enabled=0x1 stat=0x514
[   14.621299] i2c_designware i2c_designware.1: enabled=0x1 stat=0x710
[   14.621342] i2c_hid i2c-MSFT0021:00: input: 40 00 0b 01 03 4d 33 35 30 34 2d 30 30 31 da 01 29 02 15 00 25 01 75 01 95 02 81 02 95 06 81 01 05 01 09 30 09 31 15 81 25 7f 75 08 95 02 81 06 c0 c0 05 0d 09 05 a1 01 85 03 05 0d 09 22 a1 02
[   14.621388] i2c_hid i2c-MSFT0021:00: i2c_hid_set_or_send_report
[   14.621389] i2c_hid i2c-MSFT0021:00: __i2c_hid_command: cmd=25 00 17 00 0a 00 45 00 01 00 00 00 00 00 00 00 00 00 00 00 00 00 00 00 00
[   14.621391] i2c_designware i2c_designware.1: i2c_dw_xfer: msgs: 1
[   14.621428] i2c_designware i2c_designware.1: enabled=0x1 stat=0x10
[   14.622069] i2c_designware i2c_designware.1: enabled=0x1 stat=0x710
[   14.622163] i2c_designware i2c_designware.1: i2c_dw_xfer: msgs: 1
[   14.622196] i2c_designware i2c_designware.1: enabled=0x1 stat=0x10
[   14.622270] i2c_designware i2c_designware.1: enabled=0x1 stat=0x504
[   14.622317] i2c_designware i2c_designware.1: enabled=0x1 stat=0x504
[   14.622364] i2c_designware i2c_designware.1: enabled=0x1 stat=0x504
[   14.622411] i2c_designware i2c_designware.1: enabled=0x1 stat=0x504
[   14.622458] i2c_designware i2c_designware.1: enabled=0x1 stat=0x504
[   14.622505] i2c_designware i2c_designware.1: enabled=0x1 stat=0x504
[   14.622552] i2c_designware i2c_designware.1: enabled=0x1 stat=0x504
[   14.622596] i2c_designware i2c_designware.1: enabled=0x1 stat=0x514
[   14.622615] i2c_designware i2c_designware.1: enabled=0x1 stat=0x504
[   14.622631] i2c_designware i2c_designware.1: enabled=0x1 stat=0x504
[   14.622669] i2c_designware i2c_designware.1: enabled=0x1 stat=0x504
[   14.622716] i2c_designware i2c_designware.1: enabled=0x1 stat=0x504
[   14.622763] i2c_designware i2c_designware.1: enabled=0x1 stat=0x504
[   14.622810] i2c_designware i2c_designware.1: enabled=0x1 stat=0x504
[   14.622856] i2c_designware i2c_designware.1: enabled=0x1 stat=0x504
[   14.622903] i2c_designware i2c_designware.1: enabled=0x1 stat=0x504
[   14.622948] i2c_designware i2c_designware.1: enabled=0x1 stat=0x514
[   14.622967] i2c_designware i2c_designware.1: enabled=0x1 stat=0x504
[   14.622983] i2c_designware i2c_designware.1: enabled=0x1 stat=0x504
[   14.623021] i2c_designware i2c_designware.1: enabled=0x1 stat=0x504
[   14.623099] i2c_designware i2c_designware.1: enabled=0x1 stat=0x504
[   14.623140] i2c_designware i2c_designware.1: enabled=0x1 stat=0x504
[   14.623185] i2c_designware i2c_designware.1: enabled=0x1 stat=0x504
[   14.623231] i2c_designware i2c_designware.1: enabled=0x1 stat=0x504
[   14.623279] i2c_designware i2c_designware.1: enabled=0x1 stat=0x514
[   14.623326] i2c_designware i2c_designware.1: enabled=0x1 stat=0x514
[   14.623373] i2c_designware i2c_designware.1: enabled=0x1 stat=0x514
[   14.623419] i2c_designware i2c_designware.1: enabled=0x1 stat=0x514
[   14.623466] i2c_designware i2c_designware.1: enabled=0x1 stat=0x514
[   14.623513] i2c_designware i2c_designware.1: enabled=0x1 stat=0x514
[   14.623560] i2c_designware i2c_designware.1: enabled=0x1 stat=0x514
[   14.623607] i2c_designware i2c_designware.1: enabled=0x1 stat=0x514
[   14.623654] i2c_designware i2c_designware.1: enabled=0x1 stat=0x514
[   14.623701] i2c_designware i2c_designware.1: enabled=0x1 stat=0x514
[   14.623748] i2c_designware i2c_designware.1: enabled=0x1 stat=0x714
[   14.623791] i2c_hid i2c-MSFT0021:00: input: 40 00 0b 01 2f 4d 33 35 30 34 2d 30 30 31 da 01 29 02 15 00 25 01 75 01 95 02 81 02 95 06 81 01 05 01 09 30 09 31 15 81 25 7f 75 08 95 02 81 06 c0 c0 05 0d 09 05 a1 01 85 03 05 0d 09 22 a1 02
[   14.623836] i2c_hid i2c-MSFT0021:00: i2c_hid_set_or_send_report
[   14.623837] i2c_hid i2c-MSFT0021:00: __i2c_hid_command: cmd=25 00 17 00 0a 00 40 00 03 00 00 00 00 00 00 00 00 00 00 00 00 00 00 00 00
[   14.623838] i2c_designware i2c_designware.1: i2c_dw_xfer: msgs: 1
[   14.623875] i2c_designware i2c_designware.1: enabled=0x1 stat=0x10
[   14.624517] i2c_designware i2c_designware.1: enabled=0x1 stat=0x710
[   14.624623] i2c_designware i2c_designware.1: i2c_dw_xfer: msgs: 1
[   14.624655] i2c_designware i2c_designware.1: enabled=0x1 stat=0x10
[   14.624730] i2c_designware i2c_designware.1: enabled=0x1 stat=0x504
[   14.624777] i2c_designware i2c_designware.1: enabled=0x1 stat=0x504
[   14.624823] i2c_designware i2c_designware.1: enabled=0x1 stat=0x504
[   14.624870] i2c_designware i2c_designware.1: enabled=0x1 stat=0x504
[   14.624917] i2c_designware i2c_designware.1: enabled=0x1 stat=0x504
[   14.624964] i2c_designware i2c_designware.1: enabled=0x1 stat=0x504
[   14.625011] i2c_designware i2c_designware.1: enabled=0x1 stat=0x504
[   14.625056] i2c_designware i2c_designware.1: enabled=0x1 stat=0x514
[   14.625075] i2c_designware i2c_designware.1: enabled=0x1 stat=0x504
[   14.625090] i2c_designware i2c_designware.1: enabled=0x1 stat=0x504
[   14.625128] i2c_designware i2c_designware.1: enabled=0x1 stat=0x504
[   14.625175] i2c_designware i2c_designware.1: enabled=0x1 stat=0x504
[   14.625222] i2c_designware i2c_designware.1: enabled=0x1 stat=0x504
[   14.625269] i2c_designware i2c_designware.1: enabled=0x1 stat=0x504
[   14.625316] i2c_designware i2c_designware.1: enabled=0x1 stat=0x504
[   14.625363] i2c_designware i2c_designware.1: enabled=0x1 stat=0x504
[   14.625407] i2c_designware i2c_designware.1: enabled=0x1 stat=0x514
[   14.625426] i2c_designware i2c_designware.1: enabled=0x1 stat=0x504
[   14.625442] i2c_designware i2c_designware.1: enabled=0x1 stat=0x504
[   14.625481] i2c_designware i2c_designware.1: enabled=0x1 stat=0x504
[   14.625527] i2c_designware i2c_designware.1: enabled=0x1 stat=0x504
[   14.625574] i2c_designware i2c_designware.1: enabled=0x1 stat=0x504
[   14.625621] i2c_designware i2c_designware.1: enabled=0x1 stat=0x504
[   14.625668] i2c_designware i2c_designware.1: enabled=0x1 stat=0x504
[   14.625715] i2c_designware i2c_designware.1: enabled=0x1 stat=0x504
[   14.625759] i2c_designware i2c_designware.1: enabled=0x1 stat=0x514
[   14.625777] i2c_designware i2c_designware.1: enabled=0x1 stat=0x504
[   14.625807] i2c_designware i2c_designware.1: enabled=0x1 stat=0x514
[   14.625824] i2c_designware i2c_designware.1: enabled=0x1 stat=0x514
[   14.625859] i2c_designware i2c_designware.1: enabled=0x1 stat=0x514
[   14.625902] i2c_designware i2c_designware.1: enabled=0x1 stat=0x514
[   14.625949] i2c_designware i2c_designware.1: enabled=0x1 stat=0x514
[   14.625996] i2c_designware i2c_designware.1: enabled=0x1 stat=0x514
[   14.626043] i2c_designware i2c_designware.1: enabled=0x1 stat=0x514
[   14.626090] i2c_designware i2c_designware.1: enabled=0x1 stat=0x514
[   14.626137] i2c_designware i2c_designware.1: enabled=0x1 stat=0x514
[   14.626184] i2c_designware i2c_designware.1: enabled=0x1 stat=0x514
[   14.626201] i2c_designware i2c_designware.1: enabled=0x1 stat=0x710
[   14.626241] i2c_hid i2c-MSFT0021:00: input: 40 00 0b 03 24 cb 2b 35 30 34 2d 30 30 31 da 01 29 02 15 00 25 01 75 01 95 02 81 02 95 06 81 01 05 01 09 30 09 31 15 81 25 7f 75 08 95 02 81 06 c0 c0 05 0d 09 05 a1 01 85 03 05 0d 09 22 a1 02
[   14.626286] i2c_hid i2c-MSFT0021:00: i2c_hid_set_or_send_report
[   14.626287] i2c_hid i2c-MSFT0021:00: __i2c_hid_command: cmd=25 00 17 00 0a 00 26 00 01 00 00 00 00 00 00 00 00 00 00 00 00 00 00 00 00
[   14.626288] i2c_designware i2c_designware.1: i2c_dw_xfer: msgs: 1
[   14.626326] i2c_designware i2c_designware.1: enabled=0x1 stat=0x10
[   14.626968] i2c_designware i2c_designware.1: enabled=0x1 stat=0x710
[   14.627072] i2c_designware i2c_designware.1: i2c_dw_xfer: msgs: 1
[   14.627123] i2c_designware i2c_designware.1: enabled=0x1 stat=0x10
[   14.627201] i2c_designware i2c_designware.1: enabled=0x1 stat=0x504
[   14.627247] i2c_designware i2c_designware.1: enabled=0x1 stat=0x504
[   14.627293] i2c_designware i2c_designware.1: enabled=0x1 stat=0x504
[   14.627340] i2c_designware i2c_designware.1: enabled=0x1 stat=0x504
[   14.627386] i2c_designware i2c_designware.1: enabled=0x1 stat=0x504
[   14.627434] i2c_designware i2c_designware.1: enabled=0x1 stat=0x504
[   14.627481] i2c_designware i2c_designware.1: enabled=0x1 stat=0x504
[   14.627525] i2c_designware i2c_designware.1: enabled=0x1 stat=0x514
[   14.627575] i2c_designware i2c_designware.1: enabled=0x1 stat=0x504
[   14.627623] i2c_designware i2c_designware.1: enabled=0x1 stat=0x504
[   14.627668] i2c_designware i2c_designware.1: enabled=0x1 stat=0x504
[   14.627715] i2c_designware i2c_designware.1: enabled=0x1 stat=0x504
[   14.627763] i2c_designware i2c_designware.1: enabled=0x1 stat=0x504
[   14.627809] i2c_designware i2c_designware.1: enabled=0x1 stat=0x504
[   14.627857] i2c_designware i2c_designware.1: enabled=0x1 stat=0x504
[   14.627899] i2c_designware i2c_designware.1: enabled=0x1 stat=0x514
[   14.627918] i2c_designware i2c_designware.1: enabled=0x1 stat=0x504
[   14.627934] i2c_designware i2c_designware.1: enabled=0x1 stat=0x504
[   14.627972] i2c_designware i2c_designware.1: enabled=0x1 stat=0x504
[   14.628019] i2c_designware i2c_designware.1: enabled=0x1 stat=0x504
[   14.628066] i2c_designware i2c_designware.1: enabled=0x1 stat=0x504
[   14.628113] i2c_designware i2c_designware.1: enabled=0x1 stat=0x504
[   14.628160] i2c_designware i2c_designware.1: enabled=0x1 stat=0x504
[   14.628207] i2c_designware i2c_designware.1: enabled=0x1 stat=0x504
[   14.628251] i2c_designware i2c_designware.1: enabled=0x1 stat=0x514
[   14.628269] i2c_designware i2c_designware.1: enabled=0x1 stat=0x514
[   14.628307] i2c_designware i2c_designware.1: enabled=0x1 stat=0x514
[   14.628347] i2c_designware i2c_designware.1: enabled=0x1 stat=0x514
[   14.628394] i2c_designware i2c_designware.1: enabled=0x1 stat=0x514
[   14.628441] i2c_designware i2c_designware.1: enabled=0x1 stat=0x514
[   14.628488] i2c_designware i2c_designware.1: enabled=0x1 stat=0x514
[   14.628535] i2c_designware i2c_designware.1: enabled=0x1 stat=0x514
[   14.628582] i2c_designware i2c_designware.1: enabled=0x1 stat=0x514
[   14.628629] i2c_designware i2c_designware.1: enabled=0x1 stat=0x514
[   14.628675] i2c_designware i2c_designware.1: enabled=0x1 stat=0x714
[   14.628722] i2c_hid i2c-MSFT0021:00: input: 40 00 0b 01 08 cb 2b 35 30 34 2d 30 30 31 da 01 29 02 15 00 25 01 75 01 95 02 81 02 95 06 81 01 05 01 09 30 09 31 15 81 25 7f 75 08 95 02 81 06 c0 c0 05 0d 09 05 a1 01 85 03 05 0d 09 22 a1 02
[   14.628771] i2c_hid i2c-MSFT0021:00: i2c_hid_set_or_send_report
[   14.628790] i2c_hid i2c-MSFT0021:00: __i2c_hid_command: cmd=25 00 17 00 0a 00 27 00 15 00 00 00 00 00 00 00 00 00 00 00 00 00 00 00 00
[   14.628791] i2c_designware i2c_designware.1: i2c_dw_xfer: msgs: 1
[   14.628828] i2c_designware i2c_designware.1: enabled=0x1 stat=0x10
[   14.629470] i2c_designware i2c_designware.1: enabled=0x1 stat=0x710
[   14.629786] i2c_designware i2c_designware.1: i2c_dw_xfer: msgs: 1
[   14.629819] i2c_designware i2c_designware.1: enabled=0x1 stat=0x10
[   14.629894] i2c_designware i2c_designware.1: enabled=0x1 stat=0x504
[   14.629941] i2c_designware i2c_designware.1: enabled=0x1 stat=0x504
[   14.629988] i2c_designware i2c_designware.1: enabled=0x1 stat=0x504
[   14.630035] i2c_designware i2c_designware.1: enabled=0x1 stat=0x504
[   14.630081] i2c_designware i2c_designware.1: enabled=0x1 stat=0x504
[   14.630128] i2c_designware i2c_designware.1: enabled=0x1 stat=0x504
[   14.630175] i2c_designware i2c_designware.1: enabled=0x1 stat=0x504
[   14.630220] i2c_designware i2c_designware.1: enabled=0x1 stat=0x514
[   14.630238] i2c_designware i2c_designware.1: enabled=0x1 stat=0x504
[   14.630254] i2c_designware i2c_designware.1: enabled=0x1 stat=0x504
[   14.630293] i2c_designware i2c_designware.1: enabled=0x1 stat=0x504
[   14.630339] i2c_designware i2c_designware.1: enabled=0x1 stat=0x504
[   14.630386] i2c_designware i2c_designware.1: enabled=0x1 stat=0x504
[   14.630433] i2c_designware i2c_designware.1: enabled=0x1 stat=0x504
[   14.630480] i2c_designware i2c_designware.1: enabled=0x1 stat=0x504
[   14.630527] i2c_designware i2c_designware.1: enabled=0x1 stat=0x504
[   14.630571] i2c_designware i2c_designware.1: enabled=0x1 stat=0x514
[   14.630590] i2c_designware i2c_designware.1: enabled=0x1 stat=0x504
[   14.630606] i2c_designware i2c_designware.1: enabled=0x1 stat=0x504
[   14.630645] i2c_designware i2c_designware.1: enabled=0x1 stat=0x504
[   14.630691] i2c_designware i2c_designware.1: enabled=0x1 stat=0x504
[   14.630738] i2c_designware i2c_designware.1: enabled=0x1 stat=0x504
[   14.630785] i2c_designware i2c_designware.1: enabled=0x1 stat=0x504
[   14.630832] i2c_designware i2c_designware.1: enabled=0x1 stat=0x504
[   14.630879] i2c_designware i2c_designware.1: enabled=0x1 stat=0x504
[   14.630923] i2c_designware i2c_designware.1: enabled=0x1 stat=0x514
[   14.630941] i2c_designware i2c_designware.1: enabled=0x1 stat=0x504
[   14.630982] i2c_designware i2c_designware.1: enabled=0x1 stat=0x514
[   14.631025] i2c_designware i2c_designware.1: enabled=0x1 stat=0x514
[   14.631072] i2c_designware i2c_designware.1: enabled=0x1 stat=0x514
[   14.631114] i2c_designware i2c_designware.1: enabled=0x1 stat=0x514
[   14.631161] i2c_designware i2c_designware.1: enabled=0x1 stat=0x514
[   14.631207] i2c_designware i2c_designware.1: enabled=0x1 stat=0x514
[   14.631254] i2c_designware i2c_designware.1: enabled=0x1 stat=0x514
[   14.631301] i2c_designware i2c_designware.1: enabled=0x1 stat=0x514
[   14.631348] i2c_designware i2c_designware.1: enabled=0x1 stat=0x514
[   14.631365] i2c_designware i2c_designware.1: enabled=0x1 stat=0x710
[   14.631410] i2c_hid i2c-MSFT0021:00: input: 40 00 0b 15 05 08 24 cb 2b 00 04 10 00 80 00 7a 15 06 00 81 02 fe 01 00 00 02 81 02 95 06 81 01 05 01 09 30 09 31 15 81 25 7f 75 08 95 02 81 06 c0 c0 05 0d 09 05 a1 01 85 03 05 0d 09 22 a1 02
[   14.631470] i2c_hid i2c-MSFT0021:00: i2c_hid_set_or_send_report
[   14.631471] i2c_hid i2c-MSFT0021:00: __i2c_hid_command: cmd=25 00 17 00 09 01 01 00 03 00 00 00 00 00 00 00 00 00 00 00 00 00 00 00 00
[   14.631472] i2c_designware i2c_designware.1: i2c_dw_xfer: msgs: 1
[   14.631509] i2c_designware i2c_designware.1: enabled=0x1 stat=0x10
[   14.632151] i2c_designware i2c_designware.1: enabled=0x1 stat=0x710
[   14.632195] i2c_hid i2c-MSFT0021:00: i2c_hid_set_or_send_report
[   14.632196] i2c_hid i2c-MSFT0021:00: __i2c_hid_command: cmd=25 00 17 00 09 02 02 00 00 00 00 00 00 00 00 00 00 00 00 00 00 00 00 00 00
[   14.632197] i2c_designware i2c_designware.1: i2c_dw_xfer: msgs: 1
[   14.632226] i2c_designware i2c_designware.1: enabled=0x1 stat=0x10
[   14.632867] i2c_designware i2c_designware.1: enabled=0x1 stat=0x710
[   14.632913] i2c_hid i2c-MSFT0021:00: i2c_hid_set_or_send_report
[   14.632914] i2c_hid i2c-MSFT0021:00: __i2c_hid_command: cmd=25 00 17 00 09 02 03 00 06 00 00 00 00 00 00 00 00 00 00 00 00 00 00 00 00
[   14.632915] i2c_designware i2c_designware.1: i2c_dw_xfer: msgs: 1
[   14.632944] i2c_designware i2c_designware.1: enabled=0x1 stat=0x10
[   14.633585] i2c_designware i2c_designware.1: enabled=0x1 stat=0x710
[   14.633631] i2c_hid i2c-MSFT0021:00: i2c_hid_set_or_send_report
[   14.633632] i2c_hid i2c-MSFT0021:00: __i2c_hid_command: cmd=25 00 17 00 09 01 04 00 02 00 00 00 00 00 00 00 00 00 00 00 00 00 00 00 00
[   14.633633] i2c_designware i2c_designware.1: i2c_dw_xfer: msgs: 1
[   14.633662] i2c_designware i2c_designware.1: enabled=0x1 stat=0x10
[   14.634303] i2c_designware i2c_designware.1: enabled=0x1 stat=0x710
[   14.636460] i2c_designware i2c_designware.1: i2c_dw_xfer: msgs: 1
[   14.636492] i2c_designware i2c_designware.1: enabled=0x1 stat=0x10
[   14.636567] i2c_designware i2c_designware.1: enabled=0x1 stat=0x504
[   14.636614] i2c_designware i2c_designware.1: enabled=0x1 stat=0x504
[   14.636661] i2c_designware i2c_designware.1: enabled=0x1 stat=0x504
[   14.636707] i2c_designware i2c_designware.1: enabled=0x1 stat=0x504
[   14.636755] i2c_designware i2c_designware.1: enabled=0x1 stat=0x504
[   14.636801] i2c_designware i2c_designware.1: enabled=0x1 stat=0x504
[   14.636848] i2c_designware i2c_designware.1: enabled=0x1 stat=0x504
[   14.636892] i2c_designware i2c_designware.1: enabled=0x1 stat=0x514
[   14.636911] i2c_designware i2c_designware.1: enabled=0x1 stat=0x504
[   14.636927] i2c_designware i2c_designware.1: enabled=0x1 stat=0x504
[   14.636966] i2c_designware i2c_designware.1: enabled=0x1 stat=0x504
[   14.637012] i2c_designware i2c_designware.1: enabled=0x1 stat=0x504
[   14.637059] i2c_designware i2c_designware.1: enabled=0x1 stat=0x504
[   14.637106] i2c_designware i2c_designware.1: enabled=0x1 stat=0x504
[   14.637153] i2c_designware i2c_designware.1: enabled=0x1 stat=0x504
[   14.637200] i2c_designware i2c_designware.1: enabled=0x1 stat=0x504
[   14.637244] i2c_designware i2c_designware.1: enabled=0x1 stat=0x514
[   14.637263] i2c_designware i2c_designware.1: enabled=0x1 stat=0x504
[   14.637279] i2c_designware i2c_designware.1: enabled=0x1 stat=0x504
[   14.637318] i2c_designware i2c_designware.1: enabled=0x1 stat=0x504
[   14.637364] i2c_designware i2c_designware.1: enabled=0x1 stat=0x504
[   14.637411] i2c_designware i2c_designware.1: enabled=0x1 stat=0x504
[   14.637458] i2c_designware i2c_designware.1: enabled=0x1 stat=0x504
[   14.637505] i2c_designware i2c_designware.1: enabled=0x1 stat=0x504
[   14.637552] i2c_designware i2c_designware.1: enabled=0x1 stat=0x504
[   14.637596] i2c_designware i2c_designware.1: enabled=0x1 stat=0x514
[   14.637614] i2c_designware i2c_designware.1: enabled=0x1 stat=0x504
[   14.637649] i2c_designware i2c_designware.1: enabled=0x1 stat=0x514
[   14.637692] i2c_designware i2c_designware.1: enabled=0x1 stat=0x514
[   14.637740] i2c_designware i2c_designware.1: enabled=0x1 stat=0x514
[   14.637786] i2c_designware i2c_designware.1: enabled=0x1 stat=0x514
[   14.637833] i2c_designware i2c_designware.1: enabled=0x1 stat=0x514
[   14.637880] i2c_designware i2c_designware.1: enabled=0x1 stat=0x514
[   14.637927] i2c_designware i2c_designware.1: enabled=0x1 stat=0x514
[   14.637988] i2c_designware i2c_designware.1: enabled=0x1 stat=0x514
[   14.638044] i2c_designware i2c_designware.1: enabled=0x1 stat=0x714
[   14.638082] i2c_hid i2c-MSFT0021:00: input: 40 00 0c 01 00 00 00 00 00 00 00 00 00 00 00 00 00 00 00 00 00 00 00 00 00 00 00 00 00 00 00 00 00 00 00 00 00 00 00 00 00 00 00 00 00 00 00 00 00 00 00 00 00 00 00 00 00 00 00 00 00 00 00 00
[   14.654444] i2c_hid i2c-MSFT0021:00: i2c_hid_set_or_send_report
[   14.654445] i2c_hid i2c-MSFT0021:00: __i2c_hid_command: cmd=25 00 17 00 0a 00 00 00 01 00 00 00 00 00 00 00 00 00 00 00 00 00 00 00 00
[   14.654446] i2c_designware i2c_designware.1: i2c_dw_xfer: msgs: 1
[   14.654485] i2c_designware i2c_designware.1: enabled=0x1 stat=0x10
[   14.655127] i2c_designware i2c_designware.1: enabled=0x1 stat=0x710
[   14.655228] i2c_designware i2c_designware.1: i2c_dw_xfer: msgs: 1
[   14.655283] i2c_designware i2c_designware.1: enabled=0x1 stat=0x10
[   14.655358] i2c_designware i2c_designware.1: enabled=0x1 stat=0x504
[   14.655405] i2c_designware i2c_designware.1: enabled=0x1 stat=0x504
[   14.655451] i2c_designware i2c_designware.1: enabled=0x1 stat=0x504
[   14.655498] i2c_designware i2c_designware.1: enabled=0x1 stat=0x504
[   14.655545] i2c_designware i2c_designware.1: enabled=0x1 stat=0x504
[   14.655592] i2c_designware i2c_designware.1: enabled=0x1 stat=0x504
[   14.655639] i2c_designware i2c_designware.1: enabled=0x1 stat=0x504
[   14.655683] i2c_designware i2c_designware.1: enabled=0x1 stat=0x514
[   14.655702] i2c_designware i2c_designware.1: enabled=0x1 stat=0x504
[   14.655719] i2c_designware i2c_designware.1: enabled=0x1 stat=0x504
[   14.655757] i2c_designware i2c_designware.1: enabled=0x1 stat=0x504
[   14.655803] i2c_designware i2c_designware.1: enabled=0x1 stat=0x504
[   14.655850] i2c_designware i2c_designware.1: enabled=0x1 stat=0x504
[   14.655897] i2c_designware i2c_designware.1: enabled=0x1 stat=0x504
[   14.655944] i2c_designware i2c_designware.1: enabled=0x1 stat=0x504
[   14.655991] i2c_designware i2c_designware.1: enabled=0x1 stat=0x504
[   14.656036] i2c_designware i2c_designware.1: enabled=0x1 stat=0x514
[   14.656054] i2c_designware i2c_designware.1: enabled=0x1 stat=0x504
[   14.656071] i2c_designware i2c_designware.1: enabled=0x1 stat=0x504
[   14.656109] i2c_designware i2c_designware.1: enabled=0x1 stat=0x504
[   14.656155] i2c_designware i2c_designware.1: enabled=0x1 stat=0x504
[   14.656202] i2c_designware i2c_designware.1: enabled=0x1 stat=0x504
[   14.656249] i2c_designware i2c_designware.1: enabled=0x1 stat=0x504
[   14.656296] i2c_designware i2c_designware.1: enabled=0x1 stat=0x504
[   14.656343] i2c_designware i2c_designware.1: enabled=0x1 stat=0x504
[   14.656388] i2c_designware i2c_designware.1: enabled=0x1 stat=0x514
[   14.656406] i2c_designware i2c_designware.1: enabled=0x1 stat=0x504
[   14.656423] i2c_designware i2c_designware.1: enabled=0x1 stat=0x514
[   14.656462] i2c_designware i2c_designware.1: enabled=0x1 stat=0x514
[   14.656507] i2c_designware i2c_designware.1: enabled=0x1 stat=0x514
[   14.656554] i2c_designware i2c_designware.1: enabled=0x1 stat=0x514
[   14.656601] i2c_designware i2c_designware.1: enabled=0x1 stat=0x514
[   14.656648] i2c_designware i2c_designware.1: enabled=0x1 stat=0x514
[   14.656695] i2c_designware i2c_designware.1: enabled=0x1 stat=0x514
[   14.656742] i2c_designware i2c_designware.1: enabled=0x1 stat=0x514
[   14.656788] i2c_designware i2c_designware.1: enabled=0x1 stat=0x514
[   14.656835] i2c_designware i2c_designware.1: enabled=0x1 stat=0x714
[   14.656880] i2c_hid i2c-MSFT0021:00: input: 40 00 0b 01 40 08 24 cb 2b 00 04 10 00 80 00 7a 15 06 00 81 02 fe 01 00 00 02 81 02 95 06 81 01 05 01 09 30 09 31 15 81 25 7f 75 08 95 02 81 06 c0 c0 05 0d 09 05 a1 01 85 03 05 0d 09 22 a1 02
[   14.656928] i2c_hid i2c-MSFT0021:00: i2c_hid_set_or_send_report
[   14.656929] i2c_hid i2c-MSFT0021:00: __i2c_hid_command: cmd=25 00 17 00 0a 00 05 00 60 00 00 00 00 00 00 00 00 00 00 00 00 00 00 00 00
[   14.656930] i2c_designware i2c_designware.1: i2c_dw_xfer: msgs: 1
[   14.656967] i2c_designware i2c_designware.1: enabled=0x1 stat=0x10
[   14.657609] i2c_designware i2c_designware.1: enabled=0x1 stat=0x710
[   14.659105] i2c_designware i2c_designware.1: i2c_dw_xfer: msgs: 1
[   14.659168] i2c_designware i2c_designware.1: enabled=0x1 stat=0x10
[   14.659243] i2c_designware i2c_designware.1: enabled=0x1 stat=0x504
[   14.659290] i2c_designware i2c_designware.1: enabled=0x1 stat=0x504
[   14.659337] i2c_designware i2c_designware.1: enabled=0x1 stat=0x504
[   14.659384] i2c_designware i2c_designware.1: enabled=0x1 stat=0x504
[   14.659430] i2c_designware i2c_designware.1: enabled=0x1 stat=0x504
[   14.659477] i2c_designware i2c_designware.1: enabled=0x1 stat=0x504
[   14.659525] i2c_designware i2c_designware.1: enabled=0x1 stat=0x504
[   14.659569] i2c_designware i2c_designware.1: enabled=0x1 stat=0x514
[   14.659589] i2c_designware i2c_designware.1: enabled=0x1 stat=0x504
[   14.659605] i2c_designware i2c_designware.1: enabled=0x1 stat=0x504
[   14.659643] i2c_designware i2c_designware.1: enabled=0x1 stat=0x504
[   14.659690] i2c_designware i2c_designware.1: enabled=0x1 stat=0x504
[   14.659736] i2c_designware i2c_designware.1: enabled=0x1 stat=0x504
[   14.659783] i2c_designware i2c_designware.1: enabled=0x1 stat=0x504
[   14.659830] i2c_designware i2c_designware.1: enabled=0x1 stat=0x504
[   14.659877] i2c_designware i2c_designware.1: enabled=0x1 stat=0x504
[   14.659921] i2c_designware i2c_designware.1: enabled=0x1 stat=0x514
[   14.659940] i2c_designware i2c_designware.1: enabled=0x1 stat=0x504
[   14.659957] i2c_designware i2c_designware.1: enabled=0x1 stat=0x504
[   14.659994] i2c_designware i2c_designware.1: enabled=0x1 stat=0x504
[   14.660041] i2c_designware i2c_designware.1: enabled=0x1 stat=0x504
[   14.660087] i2c_designware i2c_designware.1: enabled=0x1 stat=0x504
[   14.660134] i2c_designware i2c_designware.1: enabled=0x1 stat=0x504
[   14.660181] i2c_designware i2c_designware.1: enabled=0x1 stat=0x504
[   14.660228] i2c_designware i2c_designware.1: enabled=0x1 stat=0x504
[   14.660272] i2c_designware i2c_designware.1: enabled=0x1 stat=0x514
[   14.660290] i2c_designware i2c_designware.1: enabled=0x1 stat=0x504
[   14.660307] i2c_designware i2c_designware.1: enabled=0x1 stat=0x514
[   14.660346] i2c_designware i2c_designware.1: enabled=0x1 stat=0x514
[   14.660393] i2c_designware i2c_designware.1: enabled=0x1 stat=0x514
[   14.660440] i2c_designware i2c_designware.1: enabled=0x1 stat=0x514
[   14.660486] i2c_designware i2c_designware.1: enabled=0x1 stat=0x514
[   14.660533] i2c_designware i2c_designware.1: enabled=0x1 stat=0x514
[   14.660580] i2c_designware i2c_designware.1: enabled=0x1 stat=0x514
[   14.660627] i2c_designware i2c_designware.1: enabled=0x1 stat=0x514
[   14.660674] i2c_designware i2c_designware.1: enabled=0x1 stat=0x514
[   14.660722] i2c_designware i2c_designware.1: enabled=0x1 stat=0x714
[   14.660780] i2c_hid i2c-MSFT0021:00: input: 40 00 0b 3c 00 00 01 00 80 02 00 00 24 05 02 00 01 00 6f 02 07 06 06 00 10 00 70 02 0f 00 03 00 06 00 80 02 67 02 07 00 fa 14 86 02 64 1b 08 00 80 00 80 17 67 1a 05 00 10 00 00 40 0f 00 04 00
[   14.660927] i2c_designware i2c_designware.1: i2c_dw_xfer: msgs: 1
[   14.660967] i2c_designware i2c_designware.1: enabled=0x1 stat=0x10
[   14.661043] i2c_designware i2c_designware.1: enabled=0x1 stat=0x504
[   14.661091] i2c_designware i2c_designware.1: enabled=0x1 stat=0x504
[   14.661137] i2c_designware i2c_designware.1: enabled=0x1 stat=0x504
[   14.661183] i2c_designware i2c_designware.1: enabled=0x1 stat=0x504
[   14.661230] i2c_designware i2c_designware.1: enabled=0x1 stat=0x504
[   14.661277] i2c_designware i2c_designware.1: enabled=0x1 stat=0x504
[   14.661324] i2c_designware i2c_designware.1: enabled=0x1 stat=0x504
[   14.661459] i2c_designware i2c_designware.1: enabled=0x1 stat=0x514
[   14.661514] i2c_designware i2c_designware.1: enabled=0x1 stat=0x504
[   14.661558] i2c_designware i2c_designware.1: enabled=0x1 stat=0x504
[   14.661605] i2c_designware i2c_designware.1: enabled=0x1 stat=0x504
[   14.661652] i2c_designware i2c_designware.1: enabled=0x1 stat=0x504
[   14.661699] i2c_designware i2c_designware.1: enabled=0x1 stat=0x504
[   14.661746] i2c_designware i2c_designware.1: enabled=0x1 stat=0x504
[   14.661793] i2c_designware i2c_designware.1: enabled=0x1 stat=0x514
[   14.661840] i2c_designware i2c_designware.1: enabled=0x1 stat=0x504
[   14.661886] i2c_designware i2c_designware.1: enabled=0x1 stat=0x504
[   14.661933] i2c_designware i2c_designware.1: enabled=0x1 stat=0x504
[   14.661980] i2c_designware i2c_designware.1: enabled=0x1 stat=0x504
[   14.662027] i2c_designware i2c_designware.1: enabled=0x1 stat=0x504
[   14.662074] i2c_designware i2c_designware.1: enabled=0x1 stat=0x504
[   14.662121] i2c_designware i2c_designware.1: enabled=0x1 stat=0x514
[   14.662168] i2c_designware i2c_designware.1: enabled=0x1 stat=0x514
[   14.662215] i2c_designware i2c_designware.1: enabled=0x1 stat=0x514
[   14.662261] i2c_designware i2c_designware.1: enabled=0x1 stat=0x514
[   14.662309] i2c_designware i2c_designware.1: enabled=0x1 stat=0x514
[   14.662356] i2c_designware i2c_designware.1: enabled=0x1 stat=0x514
[   14.662402] i2c_designware i2c_designware.1: enabled=0x1 stat=0x514
[   14.662449] i2c_designware i2c_designware.1: enabled=0x1 stat=0x514
[   14.662496] i2c_designware i2c_designware.1: enabled=0x1 stat=0x514
[   14.662513] i2c_designware i2c_designware.1: enabled=0x1 stat=0x710
[   14.662556] i2c_hid i2c-MSFT0021:00: input: 40 00 0b 24 70 00 10 40 03 00 00 00 00 00 00 00 00 00 00 00 00 00 00 00 00 00 00 00 00 00 00 00 00 00 00 00 a8 fd 5c cd 00 00 00 00 00 00 00 00 00 00 00 00 00 00 00 00 00 00 00 00 00 00 00 00
[   14.662634] i2c_hid i2c-MSFT0021:00: i2c_hid_set_or_send_report
[   14.662635] i2c_hid i2c-MSFT0021:00: __i2c_hid_command: cmd=25 00 17 00 0a 00 00 00 01 00 00 00 00 00 00 00 00 00 00 00 00 00 00 00 00
[   14.662637] i2c_designware i2c_designware.1: i2c_dw_xfer: msgs: 1
[   14.662674] i2c_designware i2c_designware.1: enabled=0x1 stat=0x10
[   14.663315] i2c_designware i2c_designware.1: enabled=0x1 stat=0x710
[   14.663427] i2c_designware i2c_designware.1: i2c_dw_xfer: msgs: 1
[   14.663466] i2c_designware i2c_designware.1: enabled=0x1 stat=0x10
[   14.663540] i2c_designware i2c_designware.1: enabled=0x1 stat=0x504
[   14.663587] i2c_designware i2c_designware.1: enabled=0x1 stat=0x504
[   14.663634] i2c_designware i2c_designware.1: enabled=0x1 stat=0x504
[   14.663681] i2c_designware i2c_designware.1: enabled=0x1 stat=0x504
[   14.663728] i2c_designware i2c_designware.1: enabled=0x1 stat=0x504
[   14.663775] i2c_designware i2c_designware.1: enabled=0x1 stat=0x504
[   14.663830] i2c_designware i2c_designware.1: enabled=0x1 stat=0x504
[   14.663868] i2c_designware i2c_designware.1: enabled=0x1 stat=0x514
[   14.663916] i2c_designware i2c_designware.1: enabled=0x1 stat=0x504
[   14.663962] i2c_designware i2c_designware.1: enabled=0x1 stat=0x504
[   14.664009] i2c_designware i2c_designware.1: enabled=0x1 stat=0x504
[   14.664056] i2c_designware i2c_designware.1: enabled=0x1 stat=0x504
[   14.664103] i2c_designware i2c_designware.1: enabled=0x1 stat=0x504
[   14.664150] i2c_designware i2c_designware.1: enabled=0x1 stat=0x504
[   14.664197] i2c_designware i2c_designware.1: enabled=0x1 stat=0x504
[   14.664241] i2c_designware i2c_designware.1: enabled=0x1 stat=0x514
[   14.664260] i2c_designware i2c_designware.1: enabled=0x1 stat=0x504
[   14.664276] i2c_designware i2c_designware.1: enabled=0x1 stat=0x504
[   14.664314] i2c_designware i2c_designware.1: enabled=0x1 stat=0x504
[   14.664361] i2c_designware i2c_designware.1: enabled=0x1 stat=0x504
[   14.664408] i2c_designware i2c_designware.1: enabled=0x1 stat=0x504
[   14.664455] i2c_designware i2c_designware.1: enabled=0x1 stat=0x504
[   14.664502] i2c_designware i2c_designware.1: enabled=0x1 stat=0x504
[   14.664548] i2c_designware i2c_designware.1: enabled=0x1 stat=0x504
[   14.664593] i2c_designware i2c_designware.1: enabled=0x1 stat=0x514
[   14.664611] i2c_designware i2c_designware.1: enabled=0x1 stat=0x514
[   14.664637] i2c_designware i2c_designware.1: enabled=0x1 stat=0x514
[   14.664652] i2c_designware i2c_designware.1: enabled=0x1 stat=0x514
[   14.664691] i2c_designware i2c_designware.1: enabled=0x1 stat=0x514
[   14.664736] i2c_designware i2c_designware.1: enabled=0x1 stat=0x514
[   14.664783] i2c_designware i2c_designware.1: enabled=0x1 stat=0x514
[   14.664830] i2c_designware i2c_designware.1: enabled=0x1 stat=0x514
[   14.664877] i2c_designware i2c_designware.1: enabled=0x1 stat=0x514
[   14.664924] i2c_designware i2c_designware.1: enabled=0x1 stat=0x514
[   14.664970] i2c_designware i2c_designware.1: enabled=0x1 stat=0x514
[   14.665017] i2c_designware i2c_designware.1: enabled=0x1 stat=0x714
[   14.665058] i2c_hid i2c-MSFT0021:00: input: 40 00 0b 01 40 00 01 00 80 02 00 00 24 05 02 00 01 00 6f 02 07 06 06 00 10 00 70 02 0f 00 03 00 06 00 80 02 67 02 07 00 fa 14 86 02 64 1b 08 00 80 00 80 17 67 1a 05 00 10 00 00 40 0f 00 04 00
[   14.666794] i2c_hid i2c-MSFT0021:00: i2c_hid_set_or_send_report
[   14.666795] i2c_hid i2c-MSFT0021:00: __i2c_hid_command: cmd=22 00 3f 03 0f 23 00 04 00 0f 00
[   14.666796] i2c_designware i2c_designware.1: i2c_dw_xfer: msgs: 1
[   14.666834] i2c_designware i2c_designware.1: enabled=0x1 stat=0x10
[   14.667146] i2c_designware i2c_designware.1: enabled=0x1 stat=0x710
[   19.155245] Bluetooth: RFCOMM TTY layer initialized
[   19.155249] Bluetooth: RFCOMM socket layer initialized
[   19.155251] Bluetooth: RFCOMM ver 1.11
[   19.240470] rfkill: input handler enabled
[   19.271537] sof-audio-pci 0000:00:1f.3: error: no reply expected, received 0x0
[   19.370291] sof-audio-pci 0000:00:1f.3: firmware boot complete
[   20.937282] Lockdown: systemd-logind: hibernation is restricted; see man kernel_lockdown.7
[   21.457448] rfkill: input handler disabled
[   58.659554] i2c_designware i2c_designware.1: i2c_dw_xfer: msgs: 1
[   58.678573] i2c_designware i2c_designware.1: enabled=0x1 stat=0x10
[   58.678682] i2c_designware i2c_designware.1: enabled=0x1 stat=0x750
[   58.678700] i2c_designware i2c_designware.1: i2c_dw_handle_tx_abort: slave address not acknowledged (7bit mode)
[   58.678729] i2c_designware i2c_designware.1: i2c_dw_xfer: msgs: 1
[   58.678797] i2c_designware i2c_designware.1: enabled=0x1 stat=0x10
[   58.678915] i2c_designware i2c_designware.1: enabled=0x1 stat=0x750
[   58.678968] i2c_designware i2c_designware.1: i2c_dw_handle_tx_abort: slave address not acknowledged (7bit mode)
[   58.678983] i2c_designware i2c_designware.1: i2c_dw_xfer: msgs: 1
[   58.679030] i2c_designware i2c_designware.1: enabled=0x1 stat=0x10
[   58.679133] i2c_designware i2c_designware.1: enabled=0x1 stat=0x750
[   58.679187] i2c_designware i2c_designware.1: i2c_dw_handle_tx_abort: slave address not acknowledged (7bit mode)
[   58.679200] i2c_designware i2c_designware.1: i2c_dw_xfer: msgs: 1
[   58.679277] i2c_designware i2c_designware.1: enabled=0x1 stat=0x10
[   58.679331] i2c_designware i2c_designware.1: enabled=0x1 stat=0x750
[   58.679382] i2c_designware i2c_designware.1: i2c_dw_handle_tx_abort: slave address not acknowledged (7bit mode)
[   58.679394] i2c_designware i2c_designware.1: i2c_dw_xfer: msgs: 1
[   58.679425] i2c_designware i2c_designware.1: enabled=0x1 stat=0x10
[   58.679476] i2c_designware i2c_designware.1: enabled=0x1 stat=0x750
[   58.679486] i2c_designware i2c_designware.1: i2c_dw_handle_tx_abort: slave address not acknowledged (7bit mode)
[   58.679497] i2c_designware i2c_designware.1: i2c_dw_xfer: msgs: 1
[   58.679536] i2c_designware i2c_designware.1: enabled=0x1 stat=0x10
[   58.679588] i2c_designware i2c_designware.1: enabled=0x1 stat=0x750
[   58.679595] i2c_designware i2c_designware.1: i2c_dw_handle_tx_abort: slave address not acknowledged (7bit mode)
[   58.679600] i2c_designware i2c_designware.1: i2c_dw_xfer: msgs: 1
[   58.679630] i2c_designware i2c_designware.1: enabled=0x1 stat=0x10
[   58.679682] i2c_designware i2c_designware.1: enabled=0x1 stat=0x750
[   58.679688] i2c_designware i2c_designware.1: i2c_dw_handle_tx_abort: slave address not acknowledged (7bit mode)
[   58.679692] i2c_designware i2c_designware.1: i2c_dw_xfer: msgs: 1
[   58.679723] i2c_designware i2c_designware.1: enabled=0x1 stat=0x10
[   58.679775] i2c_designware i2c_designware.1: enabled=0x1 stat=0x750
[   58.679782] i2c_designware i2c_designware.1: i2c_dw_handle_tx_abort: slave address not acknowledged (7bit mode)
[   58.679786] i2c_designware i2c_designware.1: i2c_dw_xfer: msgs: 1
[   58.679816] i2c_designware i2c_designware.1: enabled=0x1 stat=0x10
[   58.679868] i2c_designware i2c_designware.1: enabled=0x1 stat=0x750
[   58.679875] i2c_designware i2c_designware.1: i2c_dw_handle_tx_abort: slave address not acknowledged (7bit mode)
[   58.679878] i2c_designware i2c_designware.1: i2c_dw_xfer: msgs: 1
[   58.679910] i2c_designware i2c_designware.1: enabled=0x1 stat=0x10
[   58.679961] i2c_designware i2c_designware.1: enabled=0x1 stat=0x750
[   58.679968] i2c_designware i2c_designware.1: i2c_dw_handle_tx_abort: slave address not acknowledged (7bit mode)
[   58.679972] i2c_designware i2c_designware.1: i2c_dw_xfer: msgs: 1
[   58.680003] i2c_designware i2c_designware.1: enabled=0x1 stat=0x10
[   58.680055] i2c_designware i2c_designware.1: enabled=0x1 stat=0x750
[   58.680061] i2c_designware i2c_designware.1: i2c_dw_handle_tx_abort: slave address not acknowledged (7bit mode)
[   58.680066] i2c_designware i2c_designware.1: i2c_dw_xfer: msgs: 1
[   58.680096] i2c_designware i2c_designware.1: enabled=0x1 stat=0x10
[   58.680148] i2c_designware i2c_designware.1: enabled=0x1 stat=0x750
[   58.680155] i2c_designware i2c_designware.1: i2c_dw_handle_tx_abort: slave address not acknowledged (7bit mode)
[   58.680159] i2c_designware i2c_designware.1: i2c_dw_xfer: msgs: 1
[   58.680190] i2c_designware i2c_designware.1: enabled=0x1 stat=0x10
[   58.680241] i2c_designware i2c_designware.1: enabled=0x1 stat=0x750
[   58.680248] i2c_designware i2c_designware.1: i2c_dw_handle_tx_abort: slave address not acknowledged (7bit mode)
[   58.680256] i2c_designware i2c_designware.1: i2c_dw_xfer: msgs: 1
[   58.680295] i2c_designware i2c_designware.1: enabled=0x1 stat=0x10
[   58.680350] i2c_designware i2c_designware.1: enabled=0x1 stat=0x750
[   58.680357] i2c_designware i2c_designware.1: i2c_dw_handle_tx_abort: slave address not acknowledged (7bit mode)
[   58.680362] i2c_designware i2c_designware.1: i2c_dw_xfer: msgs: 1
[   58.680392] i2c_designware i2c_designware.1: enabled=0x1 stat=0x10
[   58.680445] i2c_designware i2c_designware.1: enabled=0x1 stat=0x750
[   58.680455] i2c_designware i2c_designware.1: i2c_dw_handle_tx_abort: slave address not acknowledged (7bit mode)
[   58.680460] i2c_designware i2c_designware.1: i2c_dw_xfer: msgs: 1
[   58.680491] i2c_designware i2c_designware.1: enabled=0x1 stat=0x10
[   58.680543] i2c_designware i2c_designware.1: enabled=0x1 stat=0x750
[   58.680550] i2c_designware i2c_designware.1: i2c_dw_handle_tx_abort: slave address not acknowledged (7bit mode)
[   58.680555] i2c_designware i2c_designware.1: i2c_dw_xfer: msgs: 1
[   58.680585] i2c_designware i2c_designware.1: enabled=0x1 stat=0x10
[   58.680637] i2c_designware i2c_designware.1: enabled=0x1 stat=0x750
[   58.680644] i2c_designware i2c_designware.1: i2c_dw_handle_tx_abort: slave address not acknowledged (7bit mode)
[   58.680649] i2c_designware i2c_designware.1: i2c_dw_xfer: msgs: 1
[   58.680680] i2c_designware i2c_designware.1: enabled=0x1 stat=0x10
[   58.680743] i2c_designware i2c_designware.1: enabled=0x1 stat=0x750
[   58.680759] i2c_designware i2c_designware.1: i2c_dw_handle_tx_abort: slave address not acknowledged (7bit mode)
[   58.680772] i2c_designware i2c_designware.1: i2c_dw_xfer: msgs: 1
[   58.680812] i2c_designware i2c_designware.1: enabled=0x1 stat=0x10
[   58.680864] i2c_designware i2c_designware.1: enabled=0x1 stat=0x750
[   58.680874] i2c_designware i2c_designware.1: i2c_dw_handle_tx_abort: slave address not acknowledged (7bit mode)
[   58.680880] i2c_designware i2c_designware.1: i2c_dw_xfer: msgs: 1
[   58.680911] i2c_designware i2c_designware.1: enabled=0x1 stat=0x10
[   58.680963] i2c_designware i2c_designware.1: enabled=0x1 stat=0x750
[   58.680972] i2c_designware i2c_designware.1: i2c_dw_handle_tx_abort: slave address not acknowledged (7bit mode)
[   58.680978] i2c_designware i2c_designware.1: i2c_dw_xfer: msgs: 1
[   58.681008] i2c_designware i2c_designware.1: enabled=0x1 stat=0x10
[   58.681061] i2c_designware i2c_designware.1: enabled=0x1 stat=0x750
[   58.681070] i2c_designware i2c_designware.1: i2c_dw_handle_tx_abort: slave address not acknowledged (7bit mode)
[   58.681075] i2c_designware i2c_designware.1: i2c_dw_xfer: msgs: 1
[   58.681106] i2c_designware i2c_designware.1: enabled=0x1 stat=0x10
[   58.681158] i2c_designware i2c_designware.1: enabled=0x1 stat=0x750
[   58.681167] i2c_designware i2c_designware.1: i2c_dw_handle_tx_abort: slave address not acknowledged (7bit mode)
[   58.681172] i2c_designware i2c_designware.1: i2c_dw_xfer: msgs: 1
[   58.681203] i2c_designware i2c_designware.1: enabled=0x1 stat=0x10
[   58.681255] i2c_designware i2c_designware.1: enabled=0x1 stat=0x750
[   58.681264] i2c_designware i2c_designware.1: i2c_dw_handle_tx_abort: slave address not acknowledged (7bit mode)
[   58.681269] i2c_designware i2c_designware.1: i2c_dw_xfer: msgs: 1
[   58.681300] i2c_designware i2c_designware.1: enabled=0x1 stat=0x10
[   58.681352] i2c_designware i2c_designware.1: enabled=0x1 stat=0x750
[   58.681361] i2c_designware i2c_designware.1: i2c_dw_handle_tx_abort: slave address not acknowledged (7bit mode)
[   58.681367] i2c_designware i2c_designware.1: i2c_dw_xfer: msgs: 1
[   58.681398] i2c_designware i2c_designware.1: enabled=0x1 stat=0x10
[   58.681450] i2c_designware i2c_designware.1: enabled=0x1 stat=0x750
[   58.681458] i2c_designware i2c_designware.1: i2c_dw_handle_tx_abort: slave address not acknowledged (7bit mode)
[   58.681463] i2c_designware i2c_designware.1: i2c_dw_xfer: msgs: 1
[   58.681494] i2c_designware i2c_designware.1: enabled=0x1 stat=0x10
[   58.681546] i2c_designware i2c_designware.1: enabled=0x1 stat=0x750
[   58.681554] i2c_designware i2c_designware.1: i2c_dw_handle_tx_abort: slave address not acknowledged (7bit mode)
[   58.681559] i2c_designware i2c_designware.1: i2c_dw_xfer: msgs: 1
[   58.681590] i2c_designware i2c_designware.1: enabled=0x1 stat=0x10
[   58.681642] i2c_designware i2c_designware.1: enabled=0x1 stat=0x750
[   58.681650] i2c_designware i2c_designware.1: i2c_dw_handle_tx_abort: slave address not acknowledged (7bit mode)
[   58.681655] i2c_designware i2c_designware.1: i2c_dw_xfer: msgs: 1
[   58.681685] i2c_designware i2c_designware.1: enabled=0x1 stat=0x10
[   58.681737] i2c_designware i2c_designware.1: enabled=0x1 stat=0x750
[   58.681746] i2c_designware i2c_designware.1: i2c_dw_handle_tx_abort: slave address not acknowledged (7bit mode)
[   58.681750] i2c_designware i2c_designware.1: i2c_dw_xfer: msgs: 1
[   58.681781] i2c_designware i2c_designware.1: enabled=0x1 stat=0x10
[   58.681833] i2c_designware i2c_designware.1: enabled=0x1 stat=0x750
[   58.681841] i2c_designware i2c_designware.1: i2c_dw_handle_tx_abort: slave address not acknowledged (7bit mode)
[   58.681850] i2c_designware i2c_designware.1: i2c_dw_xfer: msgs: 1
[   58.681889] i2c_designware i2c_designware.1: enabled=0x1 stat=0x10
[   58.681941] i2c_designware i2c_designware.1: enabled=0x1 stat=0x750
[   58.681949] i2c_designware i2c_designware.1: i2c_dw_handle_tx_abort: slave address not acknowledged (7bit mode)
[   58.681954] i2c_designware i2c_designware.1: i2c_dw_xfer: msgs: 1
[   58.681985] i2c_designware i2c_designware.1: enabled=0x1 stat=0x10
[   58.682037] i2c_designware i2c_designware.1: enabled=0x1 stat=0x750
[   58.682045] i2c_designware i2c_designware.1: i2c_dw_handle_tx_abort: slave address not acknowledged (7bit mode)
[   58.682050] i2c_designware i2c_designware.1: i2c_dw_xfer: msgs: 1
[   58.682080] i2c_designware i2c_designware.1: enabled=0x1 stat=0x10
[   58.682133] i2c_designware i2c_designware.1: enabled=0x1 stat=0x750
[   58.682141] i2c_designware i2c_designware.1: i2c_dw_handle_tx_abort: slave address not acknowledged (7bit mode)
[   58.682145] i2c_designware i2c_designware.1: i2c_dw_xfer: msgs: 1
[   58.682176] i2c_designware i2c_designware.1: enabled=0x1 stat=0x10
[   58.682228] i2c_designware i2c_designware.1: enabled=0x1 stat=0x750
[   58.682237] i2c_designware i2c_designware.1: i2c_dw_handle_tx_abort: slave address not acknowledged (7bit mode)
[   58.682241] i2c_designware i2c_designware.1: i2c_dw_xfer: msgs: 1
[   58.682272] i2c_designware i2c_designware.1: enabled=0x1 stat=0x10
[   58.682324] i2c_designware i2c_designware.1: enabled=0x1 stat=0x750
[   58.682340] i2c_designware i2c_designware.1: i2c_dw_handle_tx_abort: slave address not acknowledged (7bit mode)
[   58.682352] i2c_designware i2c_designware.1: i2c_dw_xfer: msgs: 1
